time[s],iL[A],v out[V]
0.0,0.0,0.0
0.00040000000467443897,0.0,0.0
0.0008000000093488779,0.0,0.0
0.0012000000424450263,0.0,0.0
0.0016000000186977559,0.0,0.0
0.0019999999949504854,0.0,0.0
0.0024000000848900527,0.0,0.0
0.0027999999474559445,0.0,0.0
0.0032000000373955118,0.0,0.0
0.0035999998999614036,0.0,0.0
0.003999999989900971,0.0,0.0
0.004399999852466863,0.0,0.0
0.004800000169780105,0.0,0.0
0.005200000032345997,0.0,0.0
0.005599999894911889,0.0,0.0
0.006000000212225132,0.0,0.0
0.0064000000747910235,0.0,0.0
0.006799999937356915,0.0,0.0
0.007199999799922807,0.0,0.0
0.00760000011723605,0.0,0.0
0.007999999979801942,0.0,0.0
0.008400000297115184,0.056473661214113235,2.416089591861237e-05
0.008799999704933725,0.13647359609603882,0.00014109502080827951
0.009200000022246968,0.21647341549396515,0.00035499068326316774
0.00960000033956021,0.2964729964733124,0.0006658429629169405
0.009999999747378752,0.3764723241329193,0.0010736468248069286
0.010400000064691994,0.4564712643623352,0.001578397350385785
0.010800000382005237,0.5364697575569153,0.002180089009925723
0.011199999789823778,0.6164677739143372,0.002878716913983226
0.01160000010713702,0.6964651346206665,0.0036742754746228456
0.012000000424450263,0.752935528755188,0.004562566056847572
0.012399999832268804,0.7529314756393433,0.005474969279021025
0.012800000149582047,0.752926766872406,0.0063873231410980225
0.013199999557400588,0.7529212832450867,0.007299626711755991
0.01359999987471383,0.75291508436203,0.008211879059672356
0.014000000192027073,0.7529081106185913,0.009124078787863255
0.014399999599845614,0.7529004812240601,0.0100362254306674
0.014799999917158857,0.7528920769691467,0.010948318988084793
0.0152000002344721,0.7528829574584961,0.011860356666147709
0.015600000551785342,0.7528731226921082,0.012772339396178722
0.015999999959603883,0.7528625130653381,0.01368426438421011
0.016399999367422424,0.7528511881828308,0.014596132561564445
0.01680000059423037,0.7528391480445862,0.015507942996919155
0.01720000000204891,0.7528263926506042,0.01641969382762909
0.01759999940986745,0.752812922000885,0.017331384122371674
0.018000000636675395,0.7527986764907837,0.018243012949824333
0.018400000044493936,0.7527837157249451,0.019154580309987068
0.018799999452312477,0.7527680397033691,0.02006608620285988
0.01920000067912042,0.7527515888214111,0.020977526903152466
0.019600000086938962,0.7527344822883606,0.02188890427350998
0.019999999494757503,0.752716600894928,0.02280021458864212
0.020400000721565448,0.7526980042457581,0.02371145971119404
0.02080000012938399,0.7526786923408508,0.024622637778520584
0.02119999953720253,0.7526586055755615,0.02553374692797661
0.021600000764010474,0.7526378035545349,0.02644478715956211
0.022000000171829015,0.752616286277771,0.027355758473277092
0.022399999579647556,0.7525940537452698,0.028266659006476402
0.0228000008064555,0.7525710463523865,0.029177488759160042
0.02320000021427404,0.7525473833084106,0.030088244006037712
0.023599999622092582,0.7525229454040527,0.030998926609754562
0.024000000848900527,0.7524977326393127,0.03190953657031059
0.024400000256719068,0.7524718642234802,0.032820068299770355
0.02479999966453761,0.7524452209472656,0.03373052924871445
0.025200000891345553,0.7524179220199585,0.03464090824127197
0.025600000299164094,0.7523898482322693,0.03555121272802353
0.025999999706982635,0.752360999584198,0.03646143525838852
0.026399999114801176,0.7523314952850342,0.03737157955765724
0.02680000034160912,0.7523012161254883,0.0382816456258297
0.02719999974942766,0.7522702217102051,0.039191629737615585
0.027599999157246202,0.7522385120391846,0.04010153189301491
0.028000000384054147,0.7522060871124268,0.041011348366737366
0.028399999791872688,0.8266977667808533,0.041963156312704086
0.02879999919969123,0.9066637754440308,0.0430116206407547
0.029200000426499173,0.9866288900375366,0.04415695741772652
0.029599999834317714,1.066593050956726,0.04539916291832924
0.029999999242136255,1.1465562582015991,0.04673823341727257
0.0304000004689442,1.2265182733535767,0.048174161463975906
0.030800001695752144,1.3064790964126587,0.04970693960785866
0.031200001103570685,1.3864387273788452,0.051336560398340225
0.031600000511389226,1.4663969278335571,0.05306302011013031
0.03199999991920777,1.5408786535263062,0.05488608777523041
0.03239999932702631,1.5408340692520142,0.05675108730792999
0.03279999873484485,1.540787935256958,0.05861593782901764
0.0332000017806422,1.5407402515411377,0.060480643063783646
0.03360000118846074,1.5406911373138428,0.06234520301222801
0.03400000059627928,1.5406404733657837,0.06420961022377014
0.03440000000409782,1.54058837890625,0.06607385724782944
0.03479999941191636,1.5405347347259521,0.06793796271085739
0.0351999988197349,1.5404796600341797,0.06980190426111221
0.03559999822755344,1.540423035621643,0.0716656893491745
0.03600000127335079,1.5403649806976318,0.07352931052446365
0.03640000068116933,1.540305495262146,0.07539277523756027
0.03680000008898787,1.5402443408966064,0.07725607603788376
0.03719999949680641,1.5401818752288818,0.07911920547485352
0.037599998904624954,1.5401177406311035,0.08098217099905014
0.037999998312443495,1.5400522947311401,0.08284497261047363
0.03840000135824084,1.539985179901123,0.0847076028585434
0.038800000766059384,1.539916753768921,0.08657005429267883
0.039200000173877925,1.5398467779159546,0.08843233436346054
0.039599999581696466,1.5397752523422241,0.09029444307088852
0.03999999898951501,1.539702296257019,0.09215636551380157
0.04039999839733355,1.5396277904510498,0.0940181165933609
0.040800001443130895,1.539551854133606,0.0958796814084053
0.041200000850949436,1.539474368095398,0.09774105995893478
0.04160000025876798,1.5393954515457153,0.09960225969552994
0.04199999966658652,1.539315104484558,0.10146327316761017
0.04239999907440506,1.5392330884933472,0.10332409292459488
0.0427999984822236,1.5391497611999512,0.10518472641706467
0.04320000152802095,1.539064884185791,0.10704516619443893
0.04360000093583949,1.5389784574508667,0.10890541225671768
0.04400000034365803,1.5388906002044678,0.11076545715332031
0.04439999975147657,1.5388011932373047,0.11262531578540802
0.04479999915929511,1.538710355758667,0.11448496580123901
0.04519999856711365,1.5386180877685547,0.11634441465139389
0.045600001612911,1.5385242700576782,0.11820366978645325
0.04600000102072954,1.5384289026260376,0.12006270885467529
0.04640000042854808,1.5383321046829224,0.12192154675722122
0.046799999836366624,1.5382338762283325,0.12378017604351044
0.047199999244185165,1.5381340980529785,0.12563860416412354
0.047599998652003706,1.53803288936615,0.12749680876731873
0.048000001697801054,1.5379301309585571,0.129354789853096
0.048400001105619594,1.595178246498108,0.13123749196529388
0.048800000513438135,1.675072431564331,0.13321305811405182
0.049199999921256676,1.75496506690979,0.1352853626012802
0.04959999932907522,1.8348559141159058,0.13745439052581787
0.04999999873689376,1.9147450923919678,0.139720156788826
0.050400001782691106,1.994632363319397,0.14208264648914337
0.05080000119050965,2.0745177268981934,0.14454185962677002
0.05120000059832819,2.1544010639190674,0.14709776639938354
0.05160000000614673,2.2342822551727295,0.14975038170814514
0.05199999941396527,2.2915139198303223,0.15249580144882202
0.05239999882178381,2.2913906574249268,0.15526585280895233
0.05279999822960235,2.2912654876708984,0.15803562104701996
0.0532000012753997,2.291137933731079,0.1608051061630249
0.05360000068321824,2.291008234024048,0.16357430815696716
0.05400000009103678,2.2908761501312256,0.16634321212768555
0.05439999949885532,2.2907419204711914,0.16911181807518005
0.054799998906673864,2.2906055450439453,0.17188012599945068
0.055199998314492404,2.2904670238494873,0.17464813590049744
0.05560000136028975,2.2903261184692383,0.17741583287715912
0.05600000076810829,2.2901830673217773,0.18018323183059692
0.056400000175926834,2.2900378704071045,0.18295031785964966
0.056799999583745375,2.2898902893066406,0.18571709096431732
0.057199998991563916,2.289740800857544,0.18848355114459991
0.05759999839938246,2.289588689804077,0.19124969840049744
0.058000001445179805,2.2894346714019775,0.1940155327320099
0.058400000852998346,2.289278268814087,0.19678103923797607
0.05880000026081689,2.2891199588775635,0.199546217918396
0.05919999966863543,2.28895902633667,0.20231106877326965
0.05959999907645397,2.2887961864471436,0.20507559180259705
0.05999999848427251,2.288630962371826,0.20783977210521698
0.06040000153006986,2.288463592529297,0.21060362458229065
0.0608000009378884,2.2882940769195557,0.21336713433265686
0.06120000034570694,2.2881221771240234,0.2161303162574768
0.06160000339150429,2.2879481315612793,0.2188931405544281
0.06199999916134402,2.2877719402313232,0.22165562212467194
0.06240000220714137,2.2875936031341553,0.2244177609682083
0.0627999979769811,2.2874128818511963,0.22717954218387604
0.06320000102277845,2.2872300148010254,0.2299409806728363
0.06359999679261819,2.2870450019836426,0.23270204663276672
0.06399999983841553,2.286857843399048,0.2354627549648285
0.06440000288421288,2.286668300628662,0.2382231056690216
0.06479999865405262,2.2864766120910645,0.24098309874534607
0.06520000169984996,2.286282777786255,0.24374271929264069
0.0655999974696897,2.2860865592956543,0.24650196731090546
0.06600000051548705,2.285888195037842,0.24926084280014038
0.0664000035612844,2.2856876850128174,0.25201934576034546
0.06679999933112413,2.285485029220581,0.2547774612903595
0.06720000237692147,2.285280227661133,0.2575351893901825
0.06759999814676121,2.2850730419158936,0.26029255986213684
0.06800000119255856,2.2848637104034424,0.26304954290390015
0.06839999696239829,2.322817325592041,0.26581716537475586
0.06880000000819564,2.4026036262512207,0.2686680853366852
0.06920000305399299,2.4823875427246094,0.271615594625473
0.06959999882383272,2.562169075012207,0.274659663438797
0.07000000186963007,2.6419479846954346,0.2778002619743347
0.0703999976394698,2.721724510192871,0.28103744983673096
0.07080000068526715,2.8014984130859375,0.28437113761901855
0.07119999645510688,2.8812694549560547,0.2878013551235199
0.07159999950090423,2.9610378742218018,0.2913281321525574
0.07200000254670158,2.9989686012268066,0.2949381172657013
0.07239999831654131,2.9987313747406006,0.29855871200561523
0.07280000136233866,2.998491048812866,0.30217882990837097
0.0731999971321784,2.9982478618621826,0.3057984709739685
0.07360000017797574,2.99800181388855,0.3094176650047302
0.07400000322377309,2.9977526664733887,0.31303635239601135
0.07439999899361283,2.9975008964538574,0.31665459275245667
0.07480000203941017,2.997246026992798,0.3202723264694214
0.07519999780924991,2.996988534927368,0.3238895833492279
0.07560000085504726,2.99672794342041,0.32750633358955383
0.07599999662488699,2.996464490890503,0.33112260699272156
0.07639999967068434,2.9961981773376465,0.3347383737564087
0.07680000271648169,2.9959287643432617,0.3383536636829376
0.07719999848632142,2.995656728744507,0.3419684171676636
0.07760000153211877,2.9953815937042236,0.3455826938152313
0.0779999973019585,2.9951038360595703,0.3491964340209961
0.07840000034775585,2.9948229789733887,0.35280969738960266
0.0788000033935532,2.994539260864258,0.35642242431640625
0.07919999916339293,2.9942526817321777,0.36003461480140686
0.07960000220919028,2.9939632415771484,0.3636462986469269
0.07999999797903001,2.99367094039917,0.3672574460506439
0.08040000102482736,2.993375778198242,0.370868057012558
0.0807999967946671,2.993077516555786,0.37447816133499146
0.08119999984046444,2.99277663230896,0.37808769941329956
0.08160000288626179,2.9924726486206055,0.3816967010498047
0.08199999865610152,2.9921658039093018,0.38530516624450684
0.08240000170189887,2.991856098175049,0.3889130651950836
0.0827999974717386,2.9915435314178467,0.3925204277038574
0.08320000051753595,2.9912281036376953,0.39612722396850586
0.0836000035633333,2.9909098148345947,0.3997334837913513
0.08399999933317304,2.990588426589966,0.4033391773700714
0.08440000237897038,2.990264415740967,0.40694427490234375
0.08479999814881012,2.9899373054504395,0.4105488359928131
0.08520000119460747,2.989607572555542,0.4141528010368347
0.0855999969644472,2.989274740219116,0.41775619983673096
0.08600000001024455,2.988939046859741,0.42135900259017944
0.0864000030560419,2.988600492477417,0.42496123909950256
0.08679999882588163,2.9882590770721436,0.4285629093647003
0.08720000187167898,2.987914800643921,0.43216395378112793
0.08759999764151871,2.987567663192749,0.4357644319534302
0.08800000068731606,2.987217664718628,0.4393642842769623
0.0883999964571558,3.0088236331939697,0.4429672062397003
0.08879999950295314,3.088467836380005,0.4466409683227539
0.08920000254875049,3.168109178543091,0.4504110813140869
0.08959999831859022,3.2477471828460693,0.45427754521369934
0.09000000136438757,3.3273823261260986,0.4582403600215912
0.0903999971342273,3.4070138931274414,0.46229949593544006
0.09080000018002465,3.486642599105835,0.46645495295524597
0.091200003225822,3.566267728805542,0.4707067310810089
0.09159999899566174,3.6458892822265625,0.4750548005104065
0.09200000204145908,3.667466640472412,0.47947365045547485
0.09239999781129882,3.667081117630005,0.483895480632782
0.09280000085709617,3.6666922569274902,0.4883166253566742
0.0931999966269359,3.666299819946289,0.4927370846271515
0.09359999967273325,3.6659040451049805,0.49715685844421387
0.0940000027185306,3.6655044555664062,0.5015758872032166
0.09439999848837033,3.6651012897491455,0.5059942603111267
0.09480000153416768,3.6646947860717773,0.5104119181632996
0.09519999730400741,3.6642847061157227,0.5148289203643799
0.09560000034980476,3.6638710498809814,0.5192451477050781
0.09600000339560211,3.663454055786133,0.5236606597900391
0.09639999916544184,3.6630332469940186,0.5280754566192627
0.09680000221123919,3.662609100341797,0.532489538192749
0.09719999798107892,3.6621813774108887,0.5369028449058533
0.09760000102687627,3.661750078201294,0.541315495967865
0.097999996796716,3.6613152027130127,0.5457273721694946
0.09839999984251335,3.660876750946045,0.5501384735107422
0.0988000028883107,3.6604349613189697,0.5545488595962524
0.09919999865815043,3.659989595413208,0.5589584708213806
0.09960000170394778,3.6595406532287598,0.5633673667907715
0.09999999747378752,3.659088134765625,0.5677754878997803
0.10040000051958486,3.6586320400238037,0.572182834148407
0.10080000356538221,3.658172607421875,0.5765894055366516
0.10119999933522195,3.6577095985412598,0.5809952020645142
0.1016000023810193,3.657243013381958,0.5854002237319946
0.10199999815085903,3.6567728519439697,0.589804470539093
0.10240000119665638,3.656299352645874,0.5942079424858093
0.10279999696649611,3.655822277069092,0.5986106395721436
0.10320000001229346,3.655341625213623,0.6030125021934509
0.1036000030580908,3.6548573970794678,0.6074135899543762
0.10399999882793054,3.654369831085205,0.6118138432502747
0.10440000187372789,3.6538784503936768,0.616213321685791
0.10479999764356762,3.653383731842041,0.6206120252609253
0.10520000068936497,3.6528854370117188,0.6250098347663879
0.1055999964592047,3.652383804321289,0.6294068694114685
0.10599999950500205,3.651878595352173,0.6338030695915222
0.1064000025507994,3.651369571685791,0.6381984353065491
0.10679999832063913,3.650857448577881,0.6425929665565491
0.10720000136643648,3.650341510772705,0.646986722946167
0.10759999713627622,3.649822235107422,0.6513795852661133
0.10800000018207356,3.649299383163452,0.6557716131210327
0.10840000322787091,3.692337989807129,0.6601771116256714
0.10879999899771065,3.77180814743042,0.6646687388420105
0.109200002043508,3.8512744903564453,0.6692564487457275
0.10959999781334773,3.930737257003784,0.6739402413368225
0.11000000085914508,4.010196208953857,0.6787201762199402
0.11039999662898481,4.089651107788086,0.683596134185791
0.11079999967478216,4.169102668762207,0.6885681748390198
0.1112000027205795,4.248549461364746,0.6936362981796265
0.11159999849041924,4.3279924392700195,0.6988004446029663
0.11200000153621659,4.370996475219727,0.7040505409240723
0.11239999730605632,4.370431423187256,0.7093141078948975
0.11280000035185367,4.369861602783203,0.714576780796051
0.11320000339765102,4.369287967681885,0.7198384404182434
0.11359999916749075,4.368710041046143,0.7250991463661194
0.1140000022132881,4.368127822875977,0.7303589582443237
0.11439999798312783,4.367541313171387,0.7356177568435669
0.11480000102892518,4.366950511932373,0.7408756017684937
0.11519999679876491,4.366355895996094,0.7461324334144592
0.11559999984456226,4.365756988525391,0.7513883113861084
0.11600000289035961,4.365153789520264,0.7566432356834412
0.11639999866019934,4.364546298980713,0.7618971467018127
0.11680000170599669,4.363934516906738,0.7671500444412231
0.11719999747583643,4.363318920135498,0.7724019885063171
0.11760000052163377,4.362699031829834,0.77765291929245
0.11800000356743112,4.362074375152588,0.7829028367996216
0.11839999933727086,4.361446380615234,0.788151741027832
0.1188000023830682,4.360813617706299,0.7933995723724365
0.11919999815290794,4.3601765632629395,0.7986464500427246
0.11960000119870529,4.3595356941223145,0.8038922548294067
0.11999999696854502,4.358890533447266,0.8091370463371277
0.12040000001434237,4.358241081237793,0.8143808245658875
0.12080000306013972,4.3575873374938965,0.8196235299110413
0.12119999882997945,4.356929779052734,0.8248651623725891
0.1216000018757768,4.356267929077148,0.8301057815551758
0.12199999764561653,4.355601787567139,0.8353453278541565
0.12240000069141388,4.354931354522705,0.8405838012695312
0.12280000373721123,4.354256629943848,0.8458212018013
0.12320000678300858,4.353578090667725,0.8510575294494629
0.1235999952768907,4.3528947830200195,0.8562928438186646
0.12399999832268804,4.352207660675049,0.8615269660949707
0.12440000136848539,4.3515167236328125,0.8667600750923157
0.12480000441428274,4.350821018218994,0.8719920516014099
0.12519999290816486,4.35012149810791,0.8772229552268982
0.1255999959539622,4.349417209625244,0.8824527263641357
0.12599999899975955,4.348709583282471,0.8876814246177673
0.1264000020455569,4.347997188568115,0.8929089903831482
0.12680000509135425,4.347280502319336,0.8981354236602783
0.12719999358523637,4.346560001373291,0.9033607840538025
0.12759999663103372,4.345835208892822,0.9085849523544312
0.12799999967683107,4.345106601715088,0.9138080477714539
0.12840000272262841,4.421207904815674,0.9190746545791626
0.12880000576842576,4.5004706382751465,0.9244370460510254
0.12919999426230788,4.579729080200195,0.9298952221870422
0.12959999730810523,4.658982753753662,0.9354492425918579
0.13000000035390258,4.738232135772705,0.9410990476608276
0.13040000339969993,4.817477226257324,0.9468446373939514
0.13080000644549727,4.896717071533203,0.9526859521865845
0.1311999949393794,4.975952625274658,0.9586230516433716
0.13159999798517674,5.055183410644531,0.9646559357643127
0.1320000010309741,5.13124418258667,0.9707844257354736
0.13240000407677144,5.130465030670166,0.9769564270973206
0.1328000071225688,5.129680633544922,0.9831271767616272
0.1331999956164509,5.128891944885254,0.9892966747283936
0.13359999866224825,5.128098011016846,0.9954649209976196
0.1340000017080456,5.1272993087768555,1.0016318559646606
0.13440000475384295,5.126495361328125,1.0077975988388062
0.13479999324772507,5.1256866455078125,1.0139620304107666
0.13519999629352242,5.124873161315918,1.020125150680542
0.13559999933931977,5.124054431915283,1.0262870788574219
0.1360000023851171,5.123230934143066,1.0324475765228271
0.13640000543091446,5.122402667999268,1.038606882095337
0.13679999392479658,5.1215691566467285,1.0447648763656616
0.13719999697059393,5.120730876922607,1.0509214401245117
0.13760000001639128,5.119887828826904,1.0570768117904663
0.13800000306218863,5.119039535522461,1.0632308721542358
0.13840000610798597,5.1181864738464355,1.0693835020065308
0.1387999946018681,5.117328643798828,1.0755348205566406
0.13919999764766544,5.1164655685424805,1.0816848278045654
0.1396000006934628,5.115597724914551,1.0878335237503052
0.14000000373926014,5.114725112915039,1.0939807891845703
0.14040000678505749,5.113847255706787,1.1001267433166504
0.1407999952789396,5.112965106964111,1.1062712669372559
0.14119999832473695,5.112077236175537,1.1124144792556763
