time[s],iL[A],v out[V]
0.0,0.0,0.0
0.00040000000467443897,0.0,0.0
0.0008000000093488779,0.0,0.0
0.0012000000424450263,0.0,0.0
0.0016000000186977559,0.0,0.0
0.0019999999949504854,0.0,0.0
0.0024000000848900527,0.0,0.0
0.0027999999474559445,0.0,0.0
0.0032000000373955118,0.0,0.0
0.0035999998999614036,0.0,0.0
0.003999999989900971,0.0,0.0
0.004399999852466863,0.0,0.0
0.004800000169780105,0.0,0.0
0.005200000032345997,0.0,0.0
0.005599999894911889,0.0,0.0
0.006000000212225132,0.0,0.0
0.0064000000747910235,0.0,0.0
0.006799999937356915,0.0,0.0
0.007199999799922807,0.0,0.0
0.00760000011723605,0.0,0.0
0.007999999979801942,0.0,0.0
0.008400000297115184,0.0,0.0
0.008799999704933725,0.0,0.0
0.009200000022246968,0.0,0.0
0.00960000033956021,0.0,0.0
0.009999999747378752,0.01933044195175171,2.8307918000791688e-06
0.010400000064691994,0.038660865277051926,4.686051033786498e-05
0.010800000382005237,0.03866080939769745,9.371872874908149e-05
0.011199999789823778,0.03866071626543999,0.0001405745861120522
0.01160000010713702,0.03866058215498924,0.000187428027857095
0.012000000424450263,0.03866041451692581,0.00023427902488037944
0.012399999832268804,0.038660209625959396,0.0002811275189742446
0.012800000149582047,0.0386599637567997,0.00032797345193102956
0.013199999557400588,0.03865968436002731,0.00037481682375073433
0.01359999987471383,0.038659363985061646,0.00042165754712186754
0.014000000192027073,0.03865901008248329,0.0004684955929405987
0.014399999599845614,0.038658615201711655,0.0005153309321030974
0.014799999917158857,0.03865818306803703,0.0005621634772978723
0.0152000002344721,0.038657717406749725,0.0006089931703172624
0.015600000551785342,0.038657210767269135,0.0006558200693689287
0.015999999959603883,0.03865666687488556,0.0007026440580375493
0.016399999367422424,0.038656085729599,0.0007494650781154633
0.01680000059423037,0.038655467331409454,0.0007962830713950098
0.01720000000204891,0.038654811680316925,0.0008430980378761888
0.01759999940986745,0.03865411877632141,0.0008899099193513393
0.018000000636675395,0.03865338861942291,0.0009367187158204615
0.018400000044493936,0.03865262120962143,0.0009835242526605725
0.018799999452312477,0.03865181654691696,0.0010303265880793333
0.01920000067912042,0.03865097090601921,0.001077125663869083
0.019600000086938962,0.038650091737508774,0.0011239214800298214
0.019999999494757503,0.038649171590805054,0.0011707139201462269
0.020400000721565448,0.03864821791648865,0.0012175029842182994
0.02080000012938399,0.03864722326397896,0.0012642884394153953
0.02119999953720253,0.03864619508385658,0.0013110705185681581
0.021600000764010474,0.038645125925540924,0.0013578491052612662
0.022000000171829015,0.03864401951432228,0.0014046239666640759
0.022399999579647556,0.03864287957549095,0.0014513953356072307
0.0228000008064555,0.03864169865846634,0.001498162979260087
0.02320000021427404,0.03864048048853874,0.001544926897622645
0.023599999622092582,0.03863922506570816,0.0015916870906949043
0.024000000848900527,0.03863793611526489,0.0016384433256462216
0.024400000256719068,0.03863660618662834,0.0016851958353072405
0.02479999966453761,0.038635239005088806,0.001731944503262639
0.025200000891345553,0.038633834570646286,0.0017786890966817737
0.025600000299164094,0.03863239288330078,0.0018254297319799662
0.025999999706982635,0.03863091394305229,0.0018721662927418947
0.026399999114801176,0.03862939774990082,0.0019188988953828812
0.02680000034160912,0.03862784430384636,0.001965627307072282
0.02719999974942766,0.038626253604888916,0.0020123515278100967
0.027599999157246202,0.03862462192773819,0.002059071557596326
0.028000000384054147,0.03862295672297478,0.0021057873964309692
0.028399999791872688,0.03862125426530838,0.002152498811483383
0.02879999919969123,0.038619514554739,0.0021992058027535677
0.029200000426499173,0.038617733865976334,0.0022459086030721664
0.029599999834317714,0.03861591964960098,0.002292606746777892
0.029999999242136255,0.05795774236321449,0.0023421351797878742
0.0304000004689442,0.07729950547218323,0.002432882320135832
0.030800001695752144,0.07729752361774445,0.0025264574214816093
0.031200001103570685,0.0772954672574997,0.0026200253050774336
0.031600000511389226,0.07729332894086838,0.002713586203753948
0.03199999991920777,0.07729112356901169,0.0028071398846805096
0.03239999932702631,0.07728883624076843,0.0029006863478571177
0.03279999873484485,0.0772864818572998,0.002994225360453129
0.0332000017806422,0.07728404551744461,0.0030877571552991867
0.03360000118846074,0.07728154212236404,0.003181281266734004
0.03400000059627928,0.07727895677089691,0.0032747976947575808
0.03440000000409782,0.0772763043642044,0.0033683066722005606
0.03479999941191636,0.07727357000112534,0.003461807733401656
0.0351999988197349,0.0772707611322403,0.0035553008783608675
0.03559999822755344,0.07726787775754929,0.003648785874247551
0.03600000127335079,0.0772649273276329,0.00374226295389235
0.03640000068116933,0.07726189494132996,0.0038357318844646215
0.03680000008898787,0.07725878804922104,0.003929192665964365
0.03719999949680641,0.07725560665130615,0.004022644832730293
0.037599998904624954,0.0772523507475853,0.00411608861759305
0.037999998312443495,0.07724902033805847,0.004209524020552635
0.03840000135824084,0.07724561542272568,0.004302951041609049
0.038800000766059384,0.07724213600158691,0.004396368749439716
0.039200000173877925,0.07723858207464218,0.004489778075367212
0.039599999581696466,0.07723495364189148,0.004583178553730249
0.03999999898951501,0.07723125070333481,0.004676570184528828
0.04039999839733355,0.07722747325897217,0.00476995250210166
0.040800001443130895,0.07722362130880356,0.004863325506448746
0.041200000850949436,0.07721968740224838,0.004956689663231373
0.04160000025876798,0.07721568644046783,0.005050044506788254
0.04199999966658652,0.07721161097288132,0.005143389571458101
0.04239999907440506,0.07720746099948883,0.005236725322902203
0.0427999984822236,0.07720322906970978,0.0053300512954592705
0.04320000152802095,0.07719893008470535,0.005423367489129305
0.04360000093583949,0.07719455659389496,0.005516674369573593
0.04400000034365803,0.077190101146698,0.005609971005469561
0.04439999975147657,0.07718557864427567,0.005703257862478495
0.04479999915929511,0.07718098163604736,0.005796534474939108
0.04519999856711365,0.0771763026714325,0.0058898008428514
0.045600001612911,0.07717155665159225,0.005983057431876659
0.04600000102072954,0.07716672867536545,0.00607630331069231
0.04640000042854808,0.07716183364391327,0.0061695389449596405
0.046799999836366624,0.07715685665607452,0.006262763869017363
0.047199999244185165,0.0771518126130104,0.006355978548526764
0.047599998652003706,0.07714669406414032,0.006449182517826557
0.048000001697801054,0.07714149355888367,0.006542375311255455
0.048400001105619594,0.07713622599840164,0.006635557860136032
0.048800000513438135,0.07713087648153305,0.0067287287674844265
0.049199999921256676,0.07712545990943909,0.006821888964623213
0.04959999932907522,0.07711996138095856,0.006915037985891104
0.04999999873689376,0.09654008597135544,0.0070110345259308815
0.050400001782691106,0.11596010625362396,0.0071483938954770565
0.05080000119050965,0.11595433205366135,0.0072885979898273945
0.05120000059832819,0.11594844609498978,0.0074287885800004005
0.05160000000614673,0.11594244837760925,0.0075689647346735
0.05199999941396527,0.11593633890151978,0.00770912691950798
0.05239999882178381,0.11593011766672134,0.007849275134503841
0.05279999822960235,0.11592377722263336,0.007989408448338509
0.0532000012753997,0.11591733247041702,0.008129527792334557
0.05360000068321824,0.11591076850891113,0.00826963223516941
0.05400000009103678,0.11590410023927689,0.008409721776843071
0.05439999949885532,0.11589731276035309,0.008549796417355537
0.054799998906673864,0.11589042097330093,0.008689855225384235
0.055199998314492404,0.11588340997695923,0.008829900063574314
0.05560000136028975,0.11587629467248917,0.008969929069280624
0.05600000076810829,0.11586906015872955,0.009109942242503166
0.056400000175926834,0.11586171388626099,0.009249940514564514
0.056799999583745375,0.11585426330566406,0.009389922022819519
0.057199998991563916,0.11584669351577759,0.00952988862991333
0.05759999839938246,0.11583901196718216,0.009669838473200798
0.058000001445179805,0.11583121865987778,0.009809772484004498
0.058400000852998346,0.11582331359386444,0.009949689731001854
0.05880000026081689,0.11581530421972275,0.010089591145515442
0.05919999966863543,0.1158071756362915,0.010229475796222687
0.05959999907645397,0.1157989352941513,0.010369343683123589
0.05999999848427251,0.11579058319330215,0.010509194806218147
0.06040000153006986,0.11578211933374405,0.010649029165506363
0.0608000009378884,0.11577354371547699,0.01078884582966566
0.06120000034570694,0.11576485633850098,0.010928645730018616
0.06160000339150429,0.11575605720281601,0.011068427935242653
0.06199999916134402,0.11574714630842209,0.011208193376660347
0.06240000220714137,0.11573812365531921,0.011347940191626549
0.0627999979769811,0.11572898924350739,0.011487670242786407
0.06320000102277845,0.1157197430729866,0.011627381667494774
0.06359999679261819,0.11571038514375687,0.011767075397074223
0.06399999983841553,0.11570091545581818,0.011906750500202179
0.06440000288421288,0.11569133400917053,0.012046407908201218
0.06479999865405262,0.11568164080381393,0.012186046689748764
0.06520000169984996,0.11567183583974838,0.012325665913522243
0.0655999974696897,0.11566192656755447,0.012465267442166805
0.06600000051548705,0.11565189808607101,0.012604850344359875
0.0664000035612844,0.1156417578458786,0.012744413688778877
0.06679999933112413,0.11563150584697723,0.012883957475423813
0.06720000237692147,0.11562114208936691,0.013023482635617256
0.06759999814676121,0.11561066657304764,0.013162988238036633
0.06800000119255856,0.11560007929801941,0.013302475214004517
0.06839999696239829,0.11558938026428223,0.013441941700875759
0.06880000000819564,0.11557856947183609,0.01358138769865036
0.06920000305399299,0.1155676543712616,0.013720815069973469
0.06959999882383272,0.11555662006139755,0.013860221020877361
0.07000000186963007,0.1351132094860077,0.014002508483827114
0.0703999976394698,0.1546696573495865,0.01418641023337841
0.07080000068526715,0.1546582281589508,0.014373188838362694
0.07119999645510688,0.15464666485786438,0.014559945091605186
0.07159999950090423,0.15463493764400482,0.014746678061783314
0.07200000254670158,0.15462306141853333,0.014933387748897076
0.07239999831654131,0.15461105108261108,0.015120073221623898
0.07280000136233866,0.1545988768339157,0.015306736342608929
0.0731999971321784,0.1545865535736084,0.015493374317884445
0.07360000017797574,0.15457408130168915,0.015679989010095596
0.07400000322377309,0.15456146001815796,0.015866579487919807
0.07439999899361283,0.15454870462417603,0.01605314388871193
0.07480000203941017,0.15453578531742096,0.01623968593776226
0.07519999780924991,0.15452271699905396,0.016426201909780502
0.07560000085504726,0.154509499669075,0.016612693667411804
0.07599999662488699,0.15449613332748413,0.016799159348011017
0.07639999967068434,0.1544826179742813,0.01698560081422329
0.07680000271648169,0.15446895360946655,0.017172016203403473
0.07719999848632142,0.15445514023303986,0.017358405515551567
0.07760000153211877,0.15444117784500122,0.017544768750667572
0.0779999973019585,0.15442706644535065,0.017731105908751488
0.07840000034775585,0.15441280603408813,0.017917418852448463
0.0788000033935532,0.15439841151237488,0.0181037038564682
0.07919999916339293,0.1543838530778885,0.01828996278345585
0.07960000220919028,0.15436914563179016,0.018476193770766258
0.07999999797903001,0.1543542891740799,0.01866239868104458
0.08040000102482736,0.1543392837047577,0.01884857565164566
0.0807999967946671,0.15432412922382355,0.019034726545214653
0.08119999984046444,0.15430882573127747,0.019220849499106407
0.08160000288626179,0.15429337322711945,0.019406944513320923
0.08199999865610152,0.1542777717113495,0.0195930115878582
0.08240000170189887,0.15426203608512878,0.01977905072271824
0.0827999974717386,0.15424613654613495,0.01996506191790104
0.08320000051753595,0.15423008799552917,0.0201510451734066
0.0836000035633333,0.15421389043331146,0.020337000489234924
0.08399999933317304,0.1541975438594818,0.02052292600274086
0.08440000237897038,0.15418104827404022,0.020708821713924408
0.08479999814881012,0.1541644185781479,0.020894689485430717
0.08520000119460747,0.15414762496948242,0.02108052745461464
0.0855999969644472,0.15413068234920502,0.021266335621476173
0.08600000001024455,0.15411359071731567,0.02145211584866047
0.0864000030560419,0.15409636497497559,0.021637864410877228
0.08679999882588163,0.15407897531986237,0.0218235831707716
0.08720000187167898,0.1540614366531372,0.02200927399098873
0.08759999764151871,0.1540437638759613,0.022194931283593178
0.08800000068731606,0.15402592718601227,0.022380560636520386
0.0883999964571558,0.1540079563856125,0.022566158324480057
0.08879999950295314,0.15398982167243958,0.02275172434747219
0.08920000254875049,0.15397155284881592,0.022937260568141937
0.08959999831859022,0.15395312011241913,0.023122765123844147
0.09000000136438757,0.1735987812280655,0.02331116795539856
0.0903999971342273,0.19324426352977753,0.023541348055005074
0.09080000018002465,0.19322533905506134,0.02377442643046379
0.091200003225822,0.19320623576641083,0.024007467553019524
0.09159999899566174,0.1931869238615036,0.02424047701060772
0.09200000204145908,0.19316744804382324,0.02447344921529293
0.09239999781129882,0.19314777851104736,0.024706387892365456
0.09280000085709617,0.19312791526317596,0.024939291179180145
0.0931999966269359,0.19310787320137024,0.025172159075737
0.09359999967273325,0.193087637424469,0.02540498971939087
0.0940000027185306,0.19306722283363342,0.025637786835432053
0.09439999848837033,0.19304661452770233,0.02587054669857025
0.09480000153416768,0.19302582740783691,0.026103269308805466
0.09519999730400741,0.19300484657287598,0.026335956528782845
0.09560000034980476,0.1929836869239807,0.02656860649585724
0.09600000339560211,0.19296234846115112,0.02680121921002865
0.09639999916544184,0.192940816283226,0.027033794671297073
0.09680000221123919,0.19291909039020538,0.027266332879662514
0.09719999798107892,0.19289718568325043,0.02749883197247982
0.09760000102687627,0.19287508726119995,0.02773129567503929
0.097999996796716,0.19285281002521515,0.02796372026205063
0.09839999984251335,0.19283035397529602,0.028196105733513832
0.0988000028883107,0.19280770421028137,0.0284284520894289
0.09919999865815043,0.1927848607301712,0.028660761192440987
0.09960000170394778,0.1927618384361267,0.028893031179904938
0.09999999747378752,0.1927386373281479,0.029125260189175606
0.10040000051958486,0.19271524250507355,0.02935745008289814
0.10080000356538221,0.19269166886806488,0.02958960272371769
0.10119999933522195,0.1926679015159607,0.029821712523698807
0.1016000023810193,0.19264395534992218,0.03005378320813179
0.10199999815085903,0.19261981546878815,0.03028581477701664
0.10240000119665638,0.1925954967737198,0.030517803505063057
0.10279999696649611,0.1925709843635559,0.03074975311756134
0.10320000001229346,0.1925462931394577,0.03098165988922119
0.1036000030580908,0.19252142310142517,0.03121352754533291
0.10399999882793054,0.19249635934829712,0.03144535422325134
0.10440000187372789,0.19247110188007355,0.031677134335041046
0.10479999764356762,0.19244566559791565,0.031908877193927765
0.10520000068936497,0.19242005050182343,0.0321405753493309
0.1055999964592047,0.19239424169063568,0.032372232526540756
0.10599999950500205,0.1923682540655136,0.03260384872555733
0.1064000025507994,0.19234207272529602,0.03283542022109032
0.10679999832063913,0.1923157125711441,0.033066947013139725
0.10720000136643648,0.19228917360305786,0.03329843282699585
0.10759999713627622,0.1922624409198761,0.03352987393736839
0.10800000018207356,0.19223552942276,0.033761270344257355
0.10840000322787091,0.1922084242105484,0.03399262577295303
0.10879999899771065,0.19218114018440247,0.03422393649816513
0.109200002043508,0.192153662443161,0.03445519879460335
0.10959999781334773,0.19212600588798523,0.03468642011284828
0.11000000085914508,0.21190616488456726,0.03492056950926781
0.11039999662898481,0.23168610036373138,0.03519674390554428
0.11079999967478216,0.23165783286094666,0.035475846379995346
0.1112000027205795,0.23162934184074402,0.03575490042567253
0.11159999849041924,0.23160062730312347,0.036033906042575836
0.11200000153621659,0.23157168924808502,0.03631286323070526
0.11239999730605632,0.23154252767562866,0.03659176826477051
0.11280000035185367,0.2315131425857544,0.03687062859535217
0.11320000339765102,0.23148353397846222,0.03714943677186966
0.11359999916749075,0.23145370185375214,0.037428200244903564
0.1140000022132881,0.23142364621162415,0.03770690783858299
0.11439999798312783,0.23139338195323944,0.03798557072877884
0.11480000102892518,0.23136287927627563,0.03826417773962021
0.11519999679876491,0.23133215308189392,0.038542740046978
0.11559999984456226,0.2313012033700943,0.03882124647498131
0.11600000289035961,0.23127004504203796,0.03909970447421074
0.11639999866019934,0.23123864829540253,0.03937811031937599
0.11680000170599669,0.23120702803134918,0.039656464010477066
0.11719999747583643,0.23117519915103912,0.03993476554751396
0.11760000052163377,0.23114313185214996,0.04021301493048668
0.11800000356743112,0.2311108559370041,0.04049121215939522
0.11839999933727086,0.2310783565044403,0.04076935723423958
0.1188000023830682,0.23104561865329742,0.04104745015501976
0.11919999815290794,0.23101267218589783,0.041325487196445465
0.11960000119870529,0.23097950220108032,0.04160347208380699
0.11999999696854502,0.2309461086988449,0.04188140481710434
0.12040000001434237,0.2309124916791916,0.04215928167104721
0.12080000306013972,0.23087865114212036,0.042437102645635605
0.12119999882997945,0.23084458708763123,0.04271487146615982
0.1216000018757768,0.23081031441688538,0.04299258440732956
0.12199999764561653,0.23077580332756042,0.04327024519443512
0.12240000069141388,0.23074108362197876,0.043547846376895905
0.12280000373721123,0.230706125497818,0.04382539168000221
0.12320000678300858,0.2306709587574005,0.04410288482904434
0.1235999952768907,0.23063556849956512,0.044380318373441696
0.12399999832268804,0.23059995472431183,0.04465769603848457
0.12440000136848539,0.23056411743164062,0.044935017824172974
0.12480000441428274,0.2305280566215515,0.0452122837305069
0.12519999290816486,0.2304917722940445,0.045489490032196045
0.1255999959539622,0.23045526444911957,0.045766640454530716
0.12599999899975955,0.23041854798793793,0.04604373127222061
0.1264000020455569,0.23038159310817719,0.04632076621055603
0.12680000509135425,0.23034442961215973,0.046597741544246674
0.12719999358523637,0.23030704259872437,0.04687465727329254
0.12759999663103372,0.2302694320678711,0.047151513397693634
0.12799999967683107,0.23023159801959991,0.04742831364274025
0.12840000272262841,0.23019354045391083,0.04770505428314209
0.12880000576842576,0.23015527427196503,0.047981731593608856
0.12919999426230788,0.23011676967144012,0.048258353024721146
0.12959999730810523,0.2300780564546585,0.04853491112589836
0.13000000035390258,0.24998944997787476,0.048814427107572556
0.13040000339969993,0.2699005901813507,0.0491362102329731
0.13080000644549727,0.2698611617088318,0.04946095123887062
0.1311999949393794,0.2698214650154114,0.04978562518954277
0.13159999798517674,0.2697815001010895,0.050110235810279846
0.1320000010309741,0.2697412967681885,0.05043477937579155
0.13240000407677144,0.269700825214386,0.05075926333665848
0.1328000071225688,0.269660085439682,0.051083680242300034
0.1331999956164509,0.26961907744407654,0.05140803009271622
0.13359999866224825,0.26957783102989197,0.05173231661319733
0.1340000017080456,0.2695363163948059,0.052056536078453064
0.13440000475384295,0.26949453353881836,0.05238068848848343
0.13479999324772507,0.2694524824619293,0.05270477756857872
0.13519999629352242,0.2694101929664612,0.05302879586815834
0.13559999933931977,0.26936763525009155,0.05335275083780289
0.1360000023851171,0.2693248391151428,0.05367663502693176
0.13640000543091446,0.2692817747592926,0.054000452160835266
