time[s],iL[A],v out[V]
0.0,0.0,0.0
0.00040000000467443897,0.0,0.0
0.0008000000093488779,0.0,0.0
0.0012000000424450263,0.0,0.0
0.0016000000186977559,0.0,0.0
0.0019999999949504854,0.0,0.0
0.0024000000848900527,0.0,0.0
0.0027999999474559445,0.0,0.0
0.0032000000373955118,0.0,0.0
0.0035999998999614036,0.0,0.0
0.003999999989900971,0.0,0.0
0.004399999852466863,0.0,0.0
0.004800000169780105,0.0,0.0
0.005200000032345997,0.0,0.0
0.005599999894911889,0.0,0.0
0.006000000212225132,0.0,0.0
0.0064000000747910235,0.0,0.0
0.006799999937356915,0.0,0.0
0.007199999799922807,0.0,0.0
0.00760000011723605,0.0,0.0
0.007999999979801942,0.0,0.0
0.008400000297115184,0.0,0.0
0.008799999704933725,0.0,0.0
0.009200000022246968,0.0,0.0
0.00960000033956021,0.0,0.0
0.009999999747378752,0.010918974876403809,9.03210207070515e-07
0.010400000064691994,0.021837938576936722,2.6469591830391437e-05
0.010800000382005237,0.021837906911969185,5.293787762639113e-05
0.011199999789823778,0.021837854757905006,7.940483192214742e-05
0.01160000010713702,0.021837780252099037,0.00010587042197585106
0.012000000424450263,0.021837685257196426,0.00013233463687356561
0.012399999832268804,0.021837567910552025,0.0001587974256835878
0.012800000149582047,0.021837430074810982,0.00018525878840591758
0.013199999557400588,0.021837271749973297,0.00021171868138480932
0.01359999987471383,0.02183709293603897,0.00023817709006834775
0.014000000192027073,0.021836891770362854,0.0002646339708007872
0.014399999599845614,0.021836668252944946,0.0002910893235821277
0.014799999917158857,0.021836426109075546,0.00031754313386045396
0.0152000002344721,0.021836161613464355,0.00034399531432427466
0.015600000551785342,0.021835874766111374,0.00037044589407742023
0.015999999959603883,0.02183556742966175,0.00039689484401606023
0.016399999367422424,0.021835239604115486,0.00042334210593253374
0.01680000059423037,0.02183489128947258,0.0004497877089306712
0.01720000000204891,0.021834520623087883,0.0004762315656989813
0.01759999940986745,0.021834129467606544,0.000502673676237464
0.018000000636675395,0.021833715960383415,0.0005291140405461192
0.018400000044493936,0.021833281964063644,0.0005555526004172862
0.018799999452312477,0.021832827478647232,0.0005819892976433039
0.01920000067912042,0.02183235064148903,0.0006084241904318333
0.019600000086938962,0.021831853315234184,0.0006348572205752134
0.019999999494757503,0.021831335499882698,0.0006612883298657835
0.020400000721565448,0.02183079533278942,0.0006877175183035433
0.02080000012938399,0.021830234676599503,0.0007141447858884931
0.02119999953720253,0.021829653531312943,0.0007405700744129717
0.021600000764010474,0.02182905003428459,0.0007669933256693184
0.022000000171829015,0.0218284260481596,0.0007934145978651941
0.022399999579647556,0.021827781572937965,0.0008198337745852768
0.0228000008064555,0.02182711474597454,0.0008462509140372276
0.02320000021427404,0.021826427429914474,0.0008726658998057246
0.023599999622092582,0.021825717762112617,0.0008990788483060896
0.024000000848900527,0.02182498760521412,0.00092548958491534
0.024400000256719068,0.02182423695921898,0.0009518981096334755
0.02479999966453761,0.021823465824127197,0.0009783045388758183
0.025200000891345553,0.021822672337293625,0.0010047085816040635
0.025600000299164094,0.02182185836136341,0.0010311105288565159
0.025999999706982635,0.021821022033691406,0.0010575101478025317
0.026399999114801176,0.02182016521692276,0.001083907438442111
0.02680000034160912,0.021819287911057472,0.0011103024007752538
0.02719999974942766,0.021818388253450394,0.0011366949183866382
0.027599999157246202,0.021817469969391823,0.0011630852241069078
0.028000000384054147,0.021816527470946312,0.0011894729686900973
0.028399999791872688,0.02181556634604931,0.0012158583849668503
0.02879999919969123,0.021814582869410515,0.0012422413565218449
0.029200000426499173,0.02181357890367508,0.0012686217669397593
0.029599999834317714,0.021812552586197853,0.0012949997326359153
0.029999999242136255,0.032720766961574554,0.001322276657447219
0.0304000004689442,0.04362894594669342,0.0013741939328610897
0.030800001695752144,0.04362782463431358,0.0014270090032368898
0.031200001103570685,0.04362666234374046,0.001479819999076426
0.031600000511389226,0.04362545907497406,0.00153262703679502
0.03199999991920777,0.043624211102724075,0.001585430116392672
0.03239999932702631,0.04362292215228081,0.0016382290050387383
0.03279999873484485,0.04362158849835396,0.0016910237027332187
0.0332000017806422,0.043620217591524124,0.0017438143258914351
0.03360000118846074,0.04361880198121071,0.001796600641682744
0.03400000059627928,0.04361734166741371,0.0018493826501071453
0.03440000000409782,0.04361584037542343,0.0019021602347493172
0.03479999941191636,0.04361429810523987,0.0019549333956092596
0.0351999988197349,0.04361271485686302,0.0020077023655176163
0.03559999822755344,0.043611086905002594,0.0020604666788131
0.03600000127335079,0.04360941797494888,0.0021132263354957104
0.03640000068116933,0.04360770434141159,0.002165981335565448
0.03680000008898787,0.043605949729681015,0.002218731911852956
0.03719999949680641,0.043604154139757156,0.002271477598696947
0.037599998904624954,0.043602317571640015,0.0023242186289280653
0.037999998312443495,0.04360043630003929,0.0023769547697156668
0.03840000135824084,0.043598514050245285,0.002429686253890395
0.038800000766059384,0.0435965470969677,0.002482412615790963
0.039200000173877925,0.043594542890787125,0.0025351340882480145
0.039599999581696466,0.04359249398112297,0.0025878504384309053
0.03999999898951501,0.043590400367975235,0.0026405618991702795
0.04039999839733355,0.043588265776634216,0.0026932682376354933
0.040800001443130895,0.043586090207099915,0.002745969220995903
0.041200000850949436,0.04358387365937233,0.0027986650820821524
0.04160000025876798,0.04358161240816116,0.0028513558208942413
0.04199999966658652,0.043579310178756714,0.0029040409717708826
0.04239999907440506,0.04357696697115898,0.0029567210003733635
0.0427999984822236,0.04357457906007767,0.0030093954410403967
0.04320000152802095,0.04357215017080307,0.003062064526602626
0.04360000093583949,0.04356968030333519,0.0031147280242294073
0.04400000034365803,0.043567169457674026,0.003167385933920741
0.04439999975147657,0.04356461390852928,0.0032200380228459835
0.04479999915929511,0.043562017381191254,0.003272684756666422
0.04519999856711365,0.043559376150369644,0.003325325669720769
0.045600001612911,0.04355669394135475,0.0033779607620090246
0.04600000102072954,0.043553970754146576,0.003430590033531189
0.04640000042854808,0.04355120658874512,0.003483213484287262
0.046799999836366624,0.04354839771986008,0.0035358308814466
0.047199999244185165,0.043545547872781754,0.0035884424578398466
0.047599998652003706,0.04354265704751015,0.0036410479806363583
0.048000001697801054,0.04353972524404526,0.003693647449836135
0.048400001105619594,0.043536748737096786,0.003746240632608533
0.048800000513438135,0.04353373125195503,0.003798827761784196
0.049199999921256676,0.0435306690633297,0.0038514086045324802
0.04959999932907522,0.04352756589651108,0.003903983160853386
0.04999999873689376,0.05444953590631485,0.003957455512136221
0.050400001782691106,0.06537145376205444,0.004035597667098045
0.05080000119050965,0.06536819785833359,0.004114636220037937
0.05120000059832819,0.06536487489938736,0.004193666856735945
0.05160000000614673,0.06536148488521576,0.004272690042853355
0.05199999941396527,0.06535803526639938,0.0043517048470675945
0.05239999882178381,0.06535451859235764,0.004430711735039949
0.05279999822960235,0.06535094231367111,0.004509710241109133
0.0532000012753997,0.06534730643033981,0.004588700830936432
0.05360000068321824,0.06534360349178314,0.0046676830388605595
0.05400000009103678,0.0653398409485817,0.0047466568648815155
0.05439999949885532,0.06533601135015488,0.0048256223089993
0.054799998906673864,0.06533211469650269,0.004904579371213913
0.055199998314492404,0.06532815843820572,0.004983527585864067
0.05560000136028975,0.06532414257526398,0.00506246741861105
0.05600000076810829,0.06532005965709686,0.005141397938132286
0.056400000175926834,0.06531591713428497,0.005220320075750351
0.056799999583745375,0.06531170755624771,0.005299233365803957
0.057199998991563916,0.06530743837356567,0.005378137808293104
0.05759999839938246,0.06530310213565826,0.005457032937556505
0.058000001445179805,0.06529870629310608,0.005535919219255447
0.058400000852998346,0.06529424339532852,0.005614796187728643
0.05880000026081689,0.06528972089290619,0.005693663842976093
0.05919999966863543,0.06528513878583908,0.005772522184997797
0.05959999907645397,0.0652804896235466,0.005851371213793755
0.05999999848427251,0.06527577340602875,0.005930210463702679
0.06040000153006986,0.06527099758386612,0.006009040400385857
0.0608000009378884,0.06526616215705872,0.006087860558182001
0.06120000034570694,0.06526125967502594,0.006166670937091112
0.06160000339150429,0.06525629013776779,0.00624547153711319
0.06199999916134402,0.06525126099586487,0.006324262358248234
0.06240000220714137,0.06524617224931717,0.006403042934834957
0.0627999979769811,0.0652410164475441,0.006481813732534647
0.06320000102277845,0.06523580104112625,0.006560574751347303
0.06359999679261819,0.06523052603006363,0.006639325059950352
0.06399999983841553,0.06522517651319504,0.006718065589666367
0.06440000288421288,0.06521977484226227,0.006796795409172773
0.06479999865405262,0.06521430611610413,0.006875514984130859
0.06520000169984996,0.06520877033472061,0.006954223848879337
0.0655999974696897,0.06520317494869232,0.0070329224690794945
0.06600000051548705,0.06519751995801926,0.0071116103790700436
0.0664000035612844,0.06519179791212082,0.007190287113189697
0.06679999933112413,0.0651860162615776,0.00726895360276103
0.06720000237692147,0.06518016755580902,0.007347608916461468
0.06759999814676121,0.06517425924539566,0.007426253519952297
0.06800000119255856,0.06516828387975693,0.007504886947572231
0.06839999696239829,0.06516224890947342,0.007583509664982557
0.06880000000819564,0.06515615433454514,0.007662120740860701
0.06920000305399299,0.06514999270439148,0.007740721106529236
0.06959999882383272,0.06514377146959305,0.007819309830665588
0.07000000186963007,0.07610408216714859,0.00789879821240902
0.0703999976394698,0.08706431835889816,0.008003037422895432
0.07080000068526715,0.08705787360668182,0.008108176290988922
0.07119999645510688,0.08705134689807892,0.008213301189243793
0.07159999950090423,0.08704473078250885,0.00831841304898262
0.07200000254670158,0.08703804016113281,0.008423511870205402
0.07239999831654131,0.08703125268220901,0.00852859765291214
0.07280000136233866,0.08702439069747925,0.008633669465780258
0.0731999971321784,0.08701743930578232,0.008738728240132332
0.07360000017797574,0.08701040595769882,0.008843773975968361
0.07400000322377309,0.08700329065322876,0.008948804810643196
0.07439999899361283,0.08699609339237213,0.009053822606801987
0.07480000203941017,0.08698880672454834,0.009158826433122158
0.07519999780924991,0.08698143810033798,0.00926381628960371
0.07560000085504726,0.08697398006916046,0.009368792176246643
0.07599999662488699,0.08696644753217697,0.009473754093050957
0.07639999967068434,0.08695882558822632,0.009578701108694077
0.07680000271648169,0.0869511216878891,0.009683634154498577
0.07719999848632142,0.08694332838058472,0.009788553230464458
0.07760000153211877,0.08693546056747437,0.009893457405269146
0.0779999973019585,0.08692750334739685,0.00999834667891264
0.07840000034775585,0.08691946417093277,0.01010322105139494
0.0788000033935532,0.08691133558750153,0.010208080522716045
0.07919999916339293,0.08690312504768372,0.010312925092875957
0.07960000220919028,0.08689484000205994,0.010417754761874676
0.07999999797903001,0.0868864580988884,0.010522568598389626
0.08040000102482736,0.08687800168991089,0.010627367533743382
0.0807999967946671,0.08686945587396622,0.010732151567935944
0.08119999984046444,0.08686082810163498,0.010836919769644737
0.08160000288626179,0.08685211837291718,0.010941672138869762
0.08199999865610152,0.08684331923723221,0.01104640867561102
0.08240000170189887,0.08683443814516068,0.011151130311191082
0.0827999974717386,0.08682547509670258,0.011255835182964802
0.08320000051753595,0.08681643009185791,0.011360525153577328
0.0836000035633333,0.08680730313062668,0.01146519836038351
0.08399999933317304,0.08679808676242828,0.01156985480338335
0.08440000237897038,0.08678878843784332,0.011674495413899422
0.08479999814881012,0.0867794081568718,0.011779120191931725
0.08520000119460747,0.0867699459195137,0.01188372727483511
0.0855999969644472,0.08676039427518845,0.011988318525254726
0.08600000001024455,0.08675076067447662,0.012092893011868
0.0864000030560419,0.08674104511737823,0.01219745073467493
0.08679999882588163,0.08673124760389328,0.012301991693675518
0.08720000187167898,0.08672136068344116,0.012406515888869762
0.08759999764151871,0.08671139180660248,0.012511022388935089
0.08800000068731606,0.08670134842395782,0.012615512125194073
0.0883999964571558,0.08669120818376541,0.012719984166324139
0.08879999950295314,0.08668099343776703,0.012824438512325287
0.08920000254875049,0.08667068928480148,0.012928876094520092
0.08959999831859022,0.08666030317544937,0.01303329598158598
0.09000000136438757,0.09764760732650757,0.01313861459493637
0.0903999971342273,0.1086348220705986,0.013268742710351944
0.09080000018002465,0.10862415283918381,0.013399768620729446
0.091200003225822,0.10861337929964066,0.013530774973332882
0.09159999899566174,0.10860250145196915,0.01366176176816225
0.09200000204145908,0.10859151929616928,0.013792729005217552
0.09239999781129882,0.10858043283224106,0.013923675753176212
0.09280000085709617,0.10856924206018448,0.01405460387468338
0.0931999966269359,0.10855794697999954,0.014185511507093906
0.09359999967273325,0.10854654759168625,0.014316398650407791
0.0940000027185306,0.1085350438952446,0.014447266235947609
0.09439999848837033,0.108523428440094,0.014578113332390785
0.09480000153416768,0.10851171612739563,0.01470893993973732
0.09519999730400741,0.10849989950656891,0.014839745126664639
0.09560000034980476,0.10848797112703323,0.01497053075581789
0.09600000339560211,0.1084759458899498,0.015101294964551926
0.09639999916544184,0.10846380889415741,0.015232037752866745
0.09680000221123919,0.10845157504081726,0.015362760052084923
0.09719999798107892,0.10843922942876816,0.015493460930883884
0.09760000102687627,0.1084267869591713,0.015624141320586205
0.097999996796716,0.10841423273086548,0.01575479842722416
0.09839999984251335,0.1084015741944313,0.015885435044765472
0.0988000028883107,0.10838881134986877,0.016016049310564995
0.09919999865815043,0.10837595164775848,0.016146643087267876
0.09960000170394778,0.10836298018693924,0.016277214512228966
0.09999999747378752,0.10834990441799164,0.016407763585448265
0.10040000051958486,0.10833672434091568,0.016538290306925774
0.10080000356538221,0.10832343995571136,0.01666879467666149
0.10119999933522195,0.10831005871295929,0.01679927669465542
0.1016000023810193,0.10829656571149826,0.016929734498262405
0.10199999815085903,0.10828296840190887,0.01706017181277275
0.10240000119665638,0.10826926678419113,0.017190584912896156
0.10279999696649611,0.10825546085834503,0.01732097566127777
0.10320000001229346,0.10824155807495117,0.017451342195272446
0.1036000030580908,0.10822754353284836,0.01758168637752533
0.10399999882793054,0.10821342468261719,0.017712008208036423
0.10440000187372789,0.10819920152425766,0.017842303961515427
0.10479999764356762,0.10818487405776978,0.01797257922589779
0.10520000068936497,0.10817044228315353,0.018102828413248062
0.1055999964592047,0.10815591365098953,0.018233055248856544
0.10599999950500205,0.10814127326011658,0.018363256007432938
0.1064000025507994,0.10812652856111526,0.01849343441426754
0.10679999832063913,0.10811168700456619,0.018623588606715202
0.10720000136643648,0.10809673368930817,0.018753716722130775
0.10759999713627622,0.10808167606592178,0.018883822485804558
0.10800000018207356,0.10806652158498764,0.01901390217244625
0.10840000322787091,0.10805125534534454,0.019143957644701004
0.10879999899771065,0.10803588479757309,0.019273988902568817
0.109200002043508,0.10802041739225388,0.01940399408340454
0.10959999781334773,0.10800483822822571,0.019533975049853325
0.11000000085914508,0.11903998255729675,0.019664853811264038
0.11039999662898481,0.13007500767707825,0.019820649176836014
0.11079999967478216,0.13005909323692322,0.01997734047472477
0.1112000027205795,0.13004304468631744,0.020134005695581436
0.11159999849041924,0.13002687692642212,0.020290644839406013
0.11200000153621659,0.13001057505607605,0.020447256043553352
0.11239999730605632,0.12999415397644043,0.020603839308023453
0.11280000035185367,0.12997761368751526,0.020760394632816315
0.11320000339765102,0.12996093928813934,0.020916922017931938
0.11359999916749075,0.12994414567947388,0.021073423326015472
0.1140000022132881,0.12992723286151886,0.02122989483177662
0.11439999798312783,0.1299101859331131,0.021386340260505676
0.11480000102892518,0.1298930048942566,0.021542755886912346
0.11519999679876491,0.12987570464611053,0.021699141710996628
0.11559999984456226,0.12985828518867493,0.02185550145804882
0.11600000289035961,0.12984074652194977,0.022011831402778625
0.11639999866019934,0.12982307374477386,0.022168131545186043
0.11680000170599669,0.12980526685714722,0.02232440374791622
0.11719999747583643,0.1297873556613922,0.022480646148324013
0.11760000052163377,0.12976931035518646,0.022636860609054565
0.11800000356743112,0.12975113093852997,0.02279304340481758
0.11839999933727086,0.12973283231258392,0.02294919826090336
0.1188000023830682,0.12971441447734833,0.0231053214520216
0.11919999815290794,0.129695862531662,0.0232614167034626
0.11960000119870529,0.1296771913766861,0.023417480289936066
0.11999999696854502,0.12965840101242065,0.023573514074087143
0.12040000001434237,0.12963947653770447,0.023729518055915833
0.12080000306013972,0.12962043285369873,0.023885490372776985
0.12119999882997945,0.12960126996040344,0.02404143288731575
0.1216000018757768,0.1295819729566574,0.024197343736886978
0.12199999764561653,0.12956254184246063,0.02435322478413582
0.12240000069141388,0.1295430064201355,0.024509074166417122
0.12280000373721123,0.12952333688735962,0.02466489188373089
0.12320000678300858,0.129503533244133,0.024820677936077118
0.1235999952768907,0.12948362529277802,0.02497643232345581
0.12399999832268804,0.1294635832309723,0.025132155045866966
0.12440000136848539,0.12944340705871582,0.025287846103310585
0.12480000441428274,0.1294231116771698,0.025443505495786667
0.12519999290816486,0.12940269708633423,0.025599131360650063
0.1255999959539622,0.1293821632862091,0.02575472556054592
0.12599999899975955,0.12936149537563324,0.025910288095474243
0.1264000020455569,0.12934069335460663,0.02606581710278988
0.12680000509135425,0.12931978702545166,0.026221314445137978
0.12719999358523637,0.12929874658584595,0.02637677639722824
0.12759999663103372,0.12927758693695068,0.026532206684350967
0.12799999967683107,0.12925629317760468,0.026687605306506157
0.12840000272262841,0.12923488020896912,0.02684296853840351
0.12880000576842576,0.129213348031044,0.02699829824268818
0.12919999426230788,0.12919168174266815,0.02715359441936016
0.12959999730810523,0.12916989624500275,0.027308857068419456
0.13000000035390258,0.14027421176433563,0.02746502310037613
0.13040000339969993,0.15137839317321777,0.027646251022815704
0.13080000644549727,0.15135619044303894,0.027828382328152657
0.1311999949393794,0.15133386850357056,0.028010478243231773
0.13159999798517674,0.15131138265132904,0.028192536905407906
0.1320000010309741,0.15128874778747559,0.028374558314681053
0.13240000407677144,0.1512659788131714,0.028556546196341515
0.1328000071225688,0.15124306082725525,0.028738494962453842
0.1331999956164509,0.15121999382972717,0.028920408338308334
0.13359999866224825,0.15119679272174835,0.029102284461259842
0.1340000017080456,0.1511734426021576,0.029284123331308365
0.13440000475384295,0.1511499434709549,0.029465926811099052
0.13479999324772507,0.15112629532814026,0.029647691175341606
0.13519999629352242,0.15110249817371368,0.029829418286681175
