time[s],iL[A],v out[V]
0.0,0.0,0.0
0.00040000000467443897,0.0,0.0
0.0008000000093488779,0.0,0.0
0.0012000000424450263,0.0,0.0
0.0016000000186977559,0.0,0.0
0.0019999999949504854,0.0,0.0
0.0024000000848900527,0.0,0.0
0.0027999999474559445,0.0,0.0
0.0032000000373955118,0.0,0.0
0.0035999998999614036,0.0,0.0
0.003999999989900971,0.0,0.0
0.004399999852466863,0.0,0.0
0.004800000169780105,0.0,0.0
0.005200000032345997,0.0,0.0
0.005599999894911889,0.0,0.0
0.006000000212225132,0.0,0.0
0.0064000000747910235,0.0,0.0
0.006799999937356915,0.0,0.0
0.007199999799922807,0.0,0.0
0.00760000011723605,0.018233973532915115,2.5187619030475616e-06
0.007999999979801942,0.09823395311832428,7.310394721571356e-05
0.008400000297115184,0.17823383212089539,0.00024065298202913254
0.008799999704933725,0.25823354721069336,0.0005051610060036182
0.009200000022246968,0.33823299407958984,0.0008666230132803321
0.00960000033956021,0.41823211312294006,0.0013250340707600117
0.009999999747378752,0.49823084473609924,0.001880388823337853
0.010400000064691994,0.5782290697097778,0.002532682381570339
0.010800000382005237,0.6582267880439758,0.003281909041106701
0.011199999789823778,0.7382237911224365,0.004128063563257456
0.01160000010713702,0.8182201385498047,0.005071140360087156
0.012000000424450263,0.898215651512146,0.006111133843660355
0.012399999832268804,0.9782103300094604,0.007248038426041603
0.012800000149582047,0.9964380264282227,0.008452946320176125
0.013199999557400588,0.9964308142662048,0.009660307317972183
0.01359999987471383,0.9964225888252258,0.01086759939789772
0.014000000192027073,0.9964134097099304,0.012074822559952736
0.014399999599845614,0.9964032769203186,0.013281975872814655
0.014799999917158857,0.9963921308517456,0.01448905747383833
0.0152000002344721,0.996380090713501,0.01569606550037861
0.015600000551785342,0.9963670372962952,0.016903001815080643
0.015999999959603883,0.996353030204773,0.018109861761331558
0.016399999367422424,0.9963380694389343,0.019316647201776505
0.01680000059423037,0.9963220953941345,0.020523354411125183
0.01720000000204891,0.9963052272796631,0.021729981526732445
0.01759999940986745,0.9962873458862305,0.022936532273888588
0.018000000636675395,0.9962685108184814,0.024142999202013016
0.018400000044493936,0.996248722076416,0.025349386036396027
0.018799999452312477,0.9962279796600342,0.026555689051747322
0.01920000067912042,0.9962062239646912,0.027761908248066902
0.019600000086938962,0.9961835741996765,0.028968041762709618
0.019999999494757503,0.9961599111557007,0.03017408959567547
0.020400000721565448,0.9961352944374084,0.031380049884319305
0.02080000012938399,0.9961097240447998,0.03258591890335083
0.02119999953720253,0.99608314037323,0.03379169851541519
0.021600000764010474,0.9960556626319885,0.03499738872051239
0.022000000171829015,0.9960271716117859,0.03620298579335213
0.022399999579647556,0.9959977269172668,0.0374084897339344
0.0228000008064555,0.9959673285484314,0.03861389681696892
0.02320000021427404,0.9959359169006348,0.03981921076774597
0.023599999622092582,0.9959036111831665,0.041024427860975266
0.024000000848900527,0.9958702921867371,0.0422295443713665
0.024400000256719068,0.9958360195159912,0.043434564024209976
0.02479999966453761,0.995800793170929,0.044639479368925095
0.025200000891345553,0.9957646131515503,0.04584429785609245
0.025600000299164094,0.9957274198532104,0.047049008309841156
0.025999999706982635,0.995689332485199,0.0482536181807518
0.026399999114801176,0.9956502318382263,0.04945812374353409
0.02680000034160912,0.9956101775169373,0.05066251754760742
0.02719999974942766,0.9955691695213318,0.0518668107688427
0.027599999157246202,1.0313975811004639,0.053080737590789795
0.028000000384054147,1.1113545894622803,0.05437676981091499
0.028399999791872688,1.1913105249404907,0.0557696558535099
0.02879999919969123,1.2712652683258057,0.05725938826799393
0.029200000426499173,1.351218819618225,0.05884595587849617
0.029599999834317714,1.431171178817749,0.06052935868501663
0.029999999242136255,1.5111219882965088,0.062309589236974716
0.0304000004689442,1.591071367263794,0.06418664008378983
0.030800001695752144,1.6710193157196045,0.06616050750017166
0.031200001103570685,1.7509654760360718,0.06823118031024933
0.031600000511389226,1.830910086631775,0.07039865106344223
0.03199999991920777,1.9108529090881348,0.07266291975975037
0.03239999932702631,1.9907938241958618,0.07502397894859314
0.03279999873484485,2.0266032218933105,0.07746705412864685
0.0332000017806422,2.0265402793884277,0.07991969585418701
0.03360000118846074,2.026475191116333,0.08237212896347046
0.03400000059627928,2.0264084339141846,0.08482436835765839
0.03440000000409782,2.026339530944824,0.0872764140367508
0.03479999941191636,2.026268720626831,0.08972824364900589
0.0351999988197349,2.026196002960205,0.09217987209558487
0.03559999822755344,2.026121139526367,0.09463129937648773
0.03600000127335079,2.0260446071624756,0.09708251059055328
0.03640000068116933,2.025965929031372,0.09953350573778152
0.03680000008898787,2.0258853435516357,0.10198428481817245
0.03719999949680641,2.0258028507232666,0.10443485528230667
0.037599998904624954,2.0257182121276855,0.10688519477844238
0.037999998312443495,2.0256316661834717,0.10933531820774078
0.03840000135824084,2.025543212890625,0.11178521811962128
0.038800000766059384,2.0254528522491455,0.11423488706350327
0.039200000173877925,2.025360584259033,0.11668432503938675
0.039599999581696466,2.025266170501709,0.11913353204727173
0.03999999898951501,2.025169849395752,0.1215825080871582
0.04039999839733355,2.025071620941162,0.12403124570846558
0.040800001443130895,2.0249714851379395,0.12647974491119385
0.041200000850949436,2.024869203567505,0.12892800569534302
0.04160000025876798,2.0247650146484375,0.1313760131597519
0.04199999966658652,2.0246589183807373,0.13382378220558167
0.04239999907440506,2.0245509147644043,0.13627129793167114
0.0427999984822236,2.0244410037994385,0.13871857523918152
0.04320000152802095,2.0243289470672607,0.1411655843257904
0.04360000093583949,2.0242152214050293,0.143612340092659
0.04400000034365803,2.024099349975586,0.1460588425397873
0.04439999975147657,2.0239813327789307,0.1485050916671753
0.04479999915929511,2.0238616466522217,0.1509510725736618
0.04519999856711365,2.023739814758301,0.15339678525924683
0.045600001612911,2.023616313934326,0.15584222972393036
0.04600000102072954,2.0234906673431396,0.1582874059677124
0.04640000042854808,2.023362874984741,0.16073231399059296
0.046799999836366624,2.023233413696289,0.16317693889141083
0.047199999244185165,2.023101806640625,0.1656212955713272
0.047599998652003706,2.0842885971069336,0.16809386014938354
0.048000001697801054,2.1641530990600586,0.17066045105457306
0.048400001105619594,2.2440154552459717,0.17332373559474945
0.048800000513438135,2.323875665664673,0.17608368396759033
0.049199999921256676,2.403733730316162,0.1789402961730957
0.04959999932907522,2.4835894107818604,0.18189355731010437
0.04999999873689376,2.5634427070617676,0.18494348227977753
0.050400001782691106,2.6432933807373047,0.1880900263786316
0.05080000119050965,2.723141670227051,0.19133321940898895
0.05120000059832819,2.8029873371124268,0.19467303156852722
0.05160000000614673,2.8828301429748535,0.1981094628572464
0.05199999941396527,2.96267032623291,0.2016424983739853
0.05239999882178381,3.0425074100494385,0.2052721381187439
0.05279999822960235,3.1036620140075684,0.20899571478366852
0.0532000012753997,3.1034932136535645,0.21274740993976593
0.05360000068321824,3.1033215522766113,0.2164987176656723
0.05400000009103678,3.10314679145813,0.22024962306022644
0.05439999949885532,3.102969169616699,0.22400012612342834
0.054799998906673864,3.1027884483337402,0.2277502417564392
0.055199998314492404,3.102604627609253,0.23149995505809784
0.05560000136028975,3.1024179458618164,0.23524926602840424
0.05600000076810829,3.1022284030914307,0.2389981597661972
0.056400000175926834,3.1020355224609375,0.24274663627147675
0.056799999583745375,3.101840019226074,0.24649471044540405
0.057199998991563916,3.1016411781311035,0.25024235248565674
0.05759999839938246,3.1014394760131836,0.253989577293396
0.058000001445179805,3.1012349128723145,0.25773635506629944
0.058400000852998346,3.101027250289917,0.26148271560668945
0.05880000026081689,3.100816488265991,0.26522862911224365
0.05919999966863543,3.100602865219116,0.2689741253852844
0.05959999907645397,3.100386142730713,0.2727191746234894
0.05999999848427251,3.1001663208007812,0.2764637768268585
0.06040000153006986,3.0999436378479004,0.28020793199539185
0.0608000009378884,3.0997180938720703,0.28395161032676697
0.06120000034570694,3.099489212036133,0.2876948416233063
0.06160000339150429,3.099257707595825,0.29143762588500977
0.06199999916134402,3.0990231037139893,0.29517993330955505
0.06240000220714137,3.098785400390625,0.2989217936992645
0.0627999979769811,3.0985448360443115,0.3026631772518158
0.06320000102277845,3.0983011722564697,0.3064040541648865
0.06359999679261819,3.0980544090270996,0.31014448404312134
0.06399999983841553,3.0978047847747803,0.313884437084198
0.06440000288421288,3.0975522994995117,0.31762388348579407
0.06479999865405262,3.097296714782715,0.32136285305023193
0.06520000169984996,3.0970380306243896,0.3251013159751892
0.0655999974696897,3.0967764854431152,0.3288392722606659
0.06600000051548705,3.0965120792388916,0.3325767517089844
0.0664000035612844,3.0962443351745605,0.33631372451782227
0.06679999933112413,3.0959739685058594,0.34005019068717957
0.06720000237692147,3.095700263977051,0.3437861502170563
0.06759999814676121,3.153627872467041,0.3475472629070282
0.06800000119255856,3.2333481311798096,0.3514012098312378
0.06839999696239829,3.313065528869629,0.35535159707069397
0.06880000000819564,3.392779588699341,0.35939842462539673
0.06920000305399299,3.4724905490875244,0.3635416626930237
0.06959999882383272,3.5521979331970215,0.36778131127357483
0.07000000186963007,3.631901979446411,0.37211737036705017
0.0703999976394698,3.7116024494171143,0.3765498399734497
0.07080000068526715,3.79129958152771,0.38107869029045105
0.07119999645510688,3.87099289894104,0.3857039213180542
0.07159999950090423,3.9506824016571045,0.39042550325393677
0.07200000254670158,4.030368328094482,0.39524346590042114
0.07239999831654131,4.110049724578857,0.40015777945518494
0.07280000136233866,4.167932033538818,0.40516480803489685
0.0731999971321784,4.167605876922607,0.4101969003677368
0.07360000017797574,4.167275428771973,0.41522830724716187
0.07400000322377309,4.166941165924072,0.42025911808013916
0.07439999899361283,4.166603088378906,0.42528924345970154
0.07480000203941017,4.166260719299316,0.4303187131881714
0.07519999780924991,4.165914535522461,0.4353475272655487
0.07560000085504726,4.16556453704834,0.4403756856918335
0.07599999662488699,4.165209770202637,0.44540318846702576
0.07639999967068434,4.164851665496826,0.4504299759864807
0.07680000271648169,4.164489269256592,0.45545610785484314
0.07719999848632142,4.164123058319092,0.46048155426979065
0.07760000153211877,4.163752555847168,0.46550628542900085
0.0779999973019585,4.1633782386779785,0.47053036093711853
0.07840000034775585,4.162999629974365,0.4755536913871765
0.0788000033935532,4.162617206573486,0.48057636618614197
0.07919999916339293,4.162230968475342,0.48559829592704773
0.07960000220919028,4.161840438842773,0.4906195104122162
0.07999999797903001,4.161445617675781,0.4956400394439697
0.08040000102482736,4.161046981811523,0.5006598234176636
0.0807999967946671,4.16064453125,0.5056788921356201
0.08119999984046444,4.160237789154053,0.5106971859931946
0.08160000288626179,4.15982723236084,0.5157147645950317
0.08199999865610152,4.159412860870361,0.5207316279411316
0.08240000170189887,4.158994197845459,0.5257477164268494
0.0827999974717386,4.158571720123291,0.5307630300521851
0.08320000051753595,4.158144950866699,0.5357776284217834
0.0836000035633333,4.157714366912842,0.5407914519309998
0.08399999933317304,4.157279968261719,0.545804500579834
0.08440000237897038,4.156841278076172,0.5508167743682861
0.08479999814881012,4.156398296356201,0.5558282732963562
0.08520000119460747,4.155951976776123,0.5608389973640442
0.0855999969644472,4.155501365661621,0.5658488869667053
0.08600000001024455,4.155046463012695,0.5708580613136292
0.0864000030560419,4.154587745666504,0.5758664011955261
0.08679999882588163,4.154125213623047,0.580873966217041
0.08720000187167898,4.153658390045166,0.585880696773529
0.08759999764151871,4.212089538574219,0.5909128785133362
0.08800000068731606,4.291615009307861,0.5960378646850586
0.0883999964571558,4.37113618850708,0.6012589931488037
0.08879999950295314,4.450653076171875,0.6065762639045715
0.08920000254875049,4.530165672302246,0.6119896173477173
0.08959999831859022,4.609673500061035,0.6174991130828857
0.09000000136438757,4.689177513122559,0.6231046915054321
0.0903999971342273,4.7686767578125,0.6288064122200012
0.09080000018002465,4.848171234130859,0.6346041560173035
0.091200003225822,4.927661418914795,0.6404979825019836
0.09159999899566174,5.00714635848999,0.6464878916740417
0.09200000204145908,5.086627006530762,0.652573823928833
0.09239999781129882,5.166102409362793,0.6587558388710022
0.09280000085709617,5.224474906921387,0.6650304794311523
0.0931999966269359,5.223940372467041,0.671330451965332
0.09359999967273325,5.223400592803955,0.6776294708251953
0.0940000027185306,5.222856044769287,0.6839275360107422
0.09439999848837033,5.222306251525879,0.6902246475219727
0.09480000153416768,5.221751689910889,0.6965207457542419
0.09519999730400741,5.221191883087158,0.7028158903121948
0.09560000034980476,5.220627307891846,0.7091100215911865
0.09600000339560211,5.220057487487793,0.7154031991958618
0.09639999916544184,5.219482421875,0.7216953039169312
0.09680000221123919,5.218902587890625,0.7279864549636841
0.09719999798107892,5.218317985534668,0.7342765927314758
0.09760000102687627,5.217728137969971,0.7405657172203064
0.097999996796716,5.217133045196533,0.7468538284301758
0.09839999984251335,5.216533184051514,0.753140926361084
0.0988000028883107,5.215928077697754,0.7594269514083862
0.09919999865815043,5.215317726135254,0.7657119631767273
0.09960000170394778,5.214702606201172,0.7719959020614624
0.09999999747378752,5.214082717895508,0.7782787680625916
0.10040000051958486,5.2134575843811035,0.7845606207847595
0.10080000356538221,5.212827205657959,0.7908414006233215
0.10119999933522195,5.212192058563232,0.7971210479736328
0.1016000023810193,5.211552143096924,0.8033996820449829
0.10199999815085903,5.210906982421875,0.809677243232727
0.10240000119665638,5.210256576538086,0.8159536719322205
0.10279999696649611,5.209601402282715,0.8222290277481079
0.10320000001229346,5.2089409828186035,0.8285032510757446
0.1036000030580908,5.20827579498291,0.8347764015197754
0.10399999882793054,5.207605361938477,0.8410484790802002
0.10440000187372789,5.206930160522461,0.8473193645477295
0.10479999764356762,5.206249713897705,0.8535891175270081
0.10520000068936497,5.205564022064209,0.8598577976226807
0.1055999964592047,5.204874038696289,0.8661252856254578
0.10599999950500205,5.204178333282471,0.8723917007446289
0.1064000025507994,5.20347785949707,0.8786569237709045
0.10679999832063913,5.202772617340088,0.8849209547042847
0.10720000136643648,5.202062129974365,0.8911838531494141
0.10759999713627622,5.23062801361084,0.8974521160125732
0.10800000018207356,5.30990743637085,0.9037966728210449
0.10840000322787091,5.389181613922119,0.9102369546890259
0.10879999899771065,5.468451023101807,0.9167730808258057
0.109200002043508,5.547714710235596,0.9234049320220947
0.10959999781334773,5.626973628997803,0.9301325082778931
0.11000000085914508,5.706226825714111,0.9369558691978455
0.11039999662898481,5.7854743003845215,0.9438749551773071
0.11079999967478216,5.864716529846191,0.9508897066116333
0.1112000027205795,5.943953037261963,0.9580002427101135
0.11159999849041924,6.023183822631836,0.9652063846588135
0.11200000153621659,6.102408409118652,0.9725082516670227
0.11239999730605632,6.1816277503967285,0.9799058437347412
0.11280000035185367,6.2101216316223145,0.9873795509338379
0.11320000339765102,6.209329128265381,0.9948583841323853
0.11359999916749075,6.208529949188232,1.002336025238037
0.1140000022132881,6.2077250480651855,1.0098122358322144
0.11439999798312783,6.20691442489624,1.0172871351242065
0.11480000102892518,6.206097602844238,1.0247606039047241
0.11519999679876491,6.20527458190918,1.0322327613830566
0.11559999984456226,6.204445838928223,1.039703607559204
0.11600000289035961,6.203611373901367,1.047173023223877
0.11639999866019934,6.202770709991455,1.0546411275863647
0.11680000170599669,6.201923847198486,1.062107801437378
0.11719999747583643,6.201071262359619,1.0695730447769165
0.11760000052163377,6.200212478637695,1.07703697681427
0.11800000356743112,6.199347972869873,1.084499478340149
0.11839999933727086,6.198477268218994,1.0919605493545532
0.1188000023830682,6.197600841522217,1.099420189857483
0.11919999815290794,6.196718215942383,1.106878399848938
0.11960000119870529,6.19582986831665,1.1143351793289185
0.11999999696854502,6.194935321807861,1.1217905282974243
0.12040000001434237,6.194035053253174,1.1292444467544556
0.12080000306013972,6.19312858581543,1.1366968154907227
0.12119999882997945,6.192216396331787,1.1441478729248047
0.1216000018757768,6.191298007965088,1.1515973806381226
0.12199999764561653,6.190373420715332,1.1590453386306763
0.12240000069141388,6.189443588256836,1.1664918661117554
0.12280000373721123,6.188507080078125,1.1739369630813599
0.12320000678300858,6.187565326690674,1.1813805103302002
0.1235999952768907,6.186616897583008,1.188822627067566
0.12399999832268804,6.185663223266602,1.196263074874878
0.12440000136848539,6.1847028732299805,1.2037020921707153
0.12480000441428274,6.183737277984619,1.2111395597457886
0.12519999290816486,6.182765007019043,1.2185755968093872
0.1255999959539622,6.181787490844727,1.2260099649429321
0.12599999899975955,6.1808037757873535,1.233442783355713
0.1264000020455569,6.179813861846924,1.2408740520477295
0.12680000509135425,6.178818225860596,1.2483038902282715
0.12719999358523637,6.177816390991211,1.2557320594787598
0.12759999663103372,6.185193061828613,1.263159155845642
0.12799999967683107,6.264179229736328,1.2706427574157715
0.12840000272262841,6.3431596755981445,1.278221845626831
0.12880000576842576,6.4221343994140625,1.2858961820602417
0.12919999426230788,6.501102447509766,1.293665885925293
0.12959999730810523,6.580064296722412,1.3015309572219849
0.13000000035390258,6.659019947052002,1.3094913959503174
0.13040000339969993,6.737969398498535,1.317547082901001
0.13080000644549727,6.816911697387695,1.3256981372833252
0.1311999949393794,6.895847797393799,1.333944320678711
0.13159999798517674,6.974777698516846,1.3422858715057373
0.1320000010309741,7.0537004470825195,1.3507227897644043
0.13240000407677144,7.1326165199279785,1.3592548370361328
0.1328000071225688,7.139909267425537,1.3678432703018188
0.1331999956164509,7.1388115882873535,1.3764305114746094
0.13359999866224825,7.137707233428955,1.3850159645080566
0.1340000017080456,7.136595726013184,1.3935997486114502
0.13440000475384295,7.135477542877197,1.4021817445755005
0.13479999324772507,7.134352207183838,1.4107619524002075
0.13519999629352242,7.133220195770264,1.4193402528762817
0.13559999933931977,7.132081508636475,1.4279168844223022
0.1360000023851171,7.1309356689453125,1.4364917278289795
0.13640000543091446,7.129782676696777,1.4450647830963135
0.13679999392479658,7.1286234855651855,1.4536359310150146
0.13719999697059393,7.127457141876221,1.4622052907943726
0.13760000001639128,7.126284122467041,1.4707728624343872
0.13800000306218863,7.125103950500488,1.479338526725769
0.13840000610798597,7.123917102813721,1.4879024028778076
0.1387999946018681,7.12272310256958,1.4964643716812134
0.13919999764766544,7.121522426605225,1.5050244331359863
0.1396000006934628,7.120315074920654,1.513582706451416
0.14000000373926014,7.119101047515869,1.522139072418213
0.14040000678505749,7.117879867553711,1.530693531036377
0.1407999952789396,7.116652011871338,1.5392460823059082
0.14119999832473695,7.115417003631592,1.5477967262268066
0.1416000013705343,7.114175319671631,1.5563454627990723
