time[s],iL[A],v out[V]
0.0,0.0,0.0
0.00040000000467443897,0.0,0.0
0.0008000000093488779,0.0,0.0
0.0012000000424450263,0.0,0.0
0.0016000000186977559,0.0,0.0
0.0019999999949504854,0.0,0.0
0.0024000000848900527,0.0,0.0
0.0027999999474559445,0.0,0.0
0.0032000000373955118,0.03962261602282524,1.1893480404978618e-05
0.0035999998999614036,0.11962257325649261,0.00010840320464922115
0.003999999989900971,0.19962242245674133,0.0003018754650838673
0.004399999852466863,0.27962207794189453,0.0005923054413869977
0.004800000169780105,0.35962143540382385,0.0009796880185604095
0.005200000032345997,0.4396204650402069,0.0014640182489529252
0.005599999894911889,0.5196190476417542,0.0020452910102903843
0.006000000212225132,0.5996171832084656,0.002723500831052661
0.0064000000747910235,0.6796147227287292,0.003498642472550273
0.006799999937356915,0.7596115469932556,0.004370710346847773
0.007199999799922807,0.8396076560020447,0.0053396993316709995
0.00760000011723605,0.9196029901504517,0.006405603140592575
0.007999999979801942,0.9995973706245422,0.007568416651338339
0.008400000297115184,1.0795907974243164,0.008828134275972843
0.008799999704933725,1.1595832109451294,0.010184749029576778
0.009200000022246968,1.2395745515823364,0.01163825485855341
0.00960000033956021,1.3195645809173584,0.013188647106289864
0.009999999747378752,1.3995534181594849,0.014835918322205544
0.010400000064691994,1.4795408248901367,0.016580063849687576
0.010800000382005237,1.559526801109314,0.018421074375510216
0.011199999789823778,1.6395113468170166,0.020358946174383163
0.01160000010713702,1.7194942235946655,0.022393671795725822
0.012000000424450263,1.7994754314422607,0.024525243788957596
0.012399999832268804,1.8794549703598022,0.026753654703497887
0.012800000149582047,1.959432601928711,0.029078900814056396
0.013199999557400588,2.0394084453582764,0.03150097280740738
0.01359999987471383,2.11938214302063,0.03401986509561539
0.014000000192027073,2.1993539333343506,0.036635566502809525
0.014399999599845614,2.2793235778808594,0.03934807702898979
0.014799999917158857,2.3592910766601562,0.042157381772994995
0.0152000002344721,2.439256191253662,0.045063480734825134
0.015600000551785342,2.519218921661377,0.048066359013319016
0.015999999959603883,2.599179267883301,0.05116601288318634
0.016399999367422424,2.6791369915008545,0.05436243489384651
0.01680000059423037,2.759092092514038,0.05765561759471893
0.01720000000204891,2.7986674308776855,0.06103320047259331
0.01759999940986745,2.798617124557495,0.06442245095968246
0.018000000636675395,2.7985641956329346,0.06781147420406342
0.018400000044493936,2.798508644104004,0.07120027393102646
0.018799999452312477,2.798450231552124,0.0745888352394104
0.01920000067912042,2.798389196395874,0.07797715812921524
0.019600000086938962,2.798325538635254,0.08136525005102158
0.019999999494757503,2.7982590198516846,0.08475308865308762
0.020400000721565448,2.798189878463745,0.08814068138599396
0.02080000012938399,2.7981178760528564,0.0915280282497406
0.02119999953720253,2.7980434894561768,0.09491512179374695
0.021600000764010474,2.797966241836548,0.098301962018013
0.022000000171829015,2.7978861331939697,0.10168854147195816
0.022399999579647556,2.7978034019470215,0.10507485270500183
0.0228000008064555,2.797718048095703,0.10846090316772461
0.02320000021427404,2.814619541168213,0.1118488684296608
0.023599999622092582,2.894528865814209,0.11530344933271408
0.024000000848900527,2.9744350910186768,0.11885472387075424
0.024400000256719068,3.0543386936187744,0.12250267714262009
0.02479999966453761,3.1342391967773438,0.12624730169773102
0.025200000891345553,3.2141366004943848,0.13008858263492584
0.025600000299164094,3.2940309047698975,0.13402652740478516
0.025999999706982635,3.373922109603882,0.13806112110614777
0.026399999114801176,3.453809976577759,0.14219234883785248
0.02680000034160912,3.5336945056915283,0.1464201956987381
0.02719999974942766,3.6135756969451904,0.15074467658996582
0.027599999157246202,3.693453311920166,0.15516576170921326
0.028000000384054147,3.773327350616455,0.1596834510564804
0.028399999791872688,3.8531978130340576,0.16429772973060608
0.02879999919969123,3.9330644607543945,0.16900859773159027
0.029200000426499173,4.012927532196045,0.1738160401582718
0.029599999834317714,4.0927863121032715,0.17872005701065063
0.029999999242136255,4.172641277313232,0.18372061848640442
0.0304000004689442,4.252492427825928,0.18881772458553314
0.030800001695752144,4.332339286804199,0.1940113753080368
0.031200001103570685,4.412181854248047,0.1993015557527542
0.031600000511389226,4.492020606994629,0.20468825101852417
0.03199999991920777,4.571854591369629,0.21017144620418549
0.03239999932702631,4.651684284210205,0.21575114130973816
0.03279999873484485,4.731509208679199,0.2214273363351822
0.0332000017806422,4.8113298416137695,0.2272000014781952
0.03360000118846074,4.891145706176758,0.23306912183761597
0.03400000059627928,4.970956802368164,0.2390347123146057
0.03440000000409782,5.050763130187988,0.24509674310684204
0.03479999941191636,5.1305646896362305,0.25125521421432495
0.0351999988197349,5.210361003875732,0.25751012563705444
0.03559999822755344,5.290152549743652,0.26386141777038574
0.03600000127335079,5.369938850402832,0.2703091502189636
0.03640000068116933,5.4497199058532715,0.2768532335758209
0.03680000008898787,5.529496192932129,0.2834937274456024
0.03719999949680641,5.546256065368652,0.29020050168037415
0.037599998904624954,5.546021461486816,0.2969088554382324
0.037999998312443495,5.545781135559082,0.30361661314964294
0.03840000135824084,5.545535564422607,0.3103237450122833
0.038800000766059384,5.545284748077393,0.31703025102615356
0.039200000173877925,5.545028209686279,0.3237361013889313
0.039599999581696466,5.544766902923584,0.33044135570526123
0.03999999898951501,5.54449987411499,0.33714592456817627
0.04039999839733355,5.544227600097656,0.34384986758232117
0.040800001443130895,5.543949604034424,0.35055312514305115
0.041200000850949436,5.543666362762451,0.3572557270526886
0.04160000025876798,5.543377876281738,0.3639576733112335
0.04199999966658652,5.543084144592285,0.3706589341163635
0.04239999907440506,5.542785167694092,0.3773595094680786
0.0427999984822236,5.54248046875,0.3840593993663788
0.04320000152802095,5.542170524597168,0.39075857400894165
0.04360000093583949,5.541855335235596,0.3974570631980896
0.04400000034365803,5.595261096954346,0.4041767120361328
0.04439999975147657,5.6749348640441895,0.41098737716674805
0.04479999915929511,5.754603385925293,0.41789427399635315
0.04519999856711365,5.834266185760498,0.4248974025249481
0.045600001612911,5.913923740386963,0.43199673295021057
0.04600000102072954,5.993575096130371,0.4391922950744629
0.04640000042854808,6.073220729827881,0.4464840292930603
0.046799999836366624,6.152860641479492,0.4538719356060028
0.047199999244185165,6.232494831085205,0.4613560438156128
0.047599998652003706,6.312122344970703,0.4689362943172455
0.048000001697801054,6.391744136810303,0.4766126871109009
0.048400001105619594,6.471359729766846,0.4843851923942566
0.048800000513438135,6.550969123840332,0.492253839969635
0.049199999921256676,6.630572319030762,0.5002185702323914
0.04959999932907522,6.710168838500977,0.5082794427871704
0.04999999873689376,6.789759159088135,0.5164363980293274
0.050400001782691106,6.86934232711792,0.5246893763542175
0.05080000119050965,6.948919296264648,0.5330384373664856
0.05120000059832819,7.028489589691162,0.5414835810661316
0.05160000000614673,7.108053207397461,0.550024688243866
0.05199999941396527,7.187609672546387,0.5586618781089783
0.05239999882178381,7.2671589851379395,0.567395031452179
0.05279999822960235,7.346701622009277,0.5762242078781128
0.0532000012753997,7.426237106323242,0.585149347782135
0.05360000068321824,7.505765438079834,0.5941704511642456
0.05400000009103678,7.585286617279053,0.6032875180244446
0.05439999949885532,7.66480016708374,0.6125004887580872
0.054799998906673864,7.744306564331055,0.6218094229698181
0.055199998314492404,7.823805332183838,0.6312143206596375
0.05560000136028975,7.90329647064209,0.6407150626182556
0.05600000076810829,7.9827799797058105,0.6503116488456726
0.056400000175926834,8.035982131958008,0.6599989533424377
0.056799999583745375,8.03545093536377,0.6697069406509399
0.057199998991563916,8.034911155700684,0.6794138550758362
0.05759999839938246,8.034363746643066,0.6891196370124817
0.058000001445179805,8.033807754516602,0.6988242864608765
0.058400000852998346,8.033245086669922,0.7085278034210205
0.05880000026081689,8.032674789428711,0.718230128288269
0.05919999966863543,8.032095909118652,0.7279312610626221
0.05959999907645397,8.031510353088379,0.7376312613487244
0.05999999848427251,8.030916213989258,0.7473300695419312
0.06040000153006986,8.030314445495605,0.7570276856422424
0.0608000009378884,8.029705047607422,0.7667241096496582
0.06120000034570694,8.029088020324707,0.7764192819595337
0.06160000339150429,8.028462409973145,0.7861132621765137
0.06199999916134402,8.027830123901367,0.7958059906959534
0.06240000220714137,8.027189254760742,0.8054974675178528
0.0627999979769811,8.026540756225586,0.8151877522468567
0.06320000102277845,8.025885581970215,0.8248767256736755
0.06359999679261819,8.02522087097168,0.8345644474029541
0.06399999983841553,8.02454948425293,0.8442508578300476
0.06440000288421288,8.023870468139648,0.8539360165596008
0.06479999865405262,8.023183822631836,0.863619863986969
0.06520000169984996,8.022488594055176,0.8733024001121521
0.0655999974696897,8.0217866897583,0.8829836249351501
0.06600000051548705,8.07298469543457,0.8926839232444763
0.0664000035612844,8.152266502380371,0.9024739265441895
0.06679999933112413,8.23154067993164,0.9123594760894775
0.06720000237692147,8.310807228088379,0.9223406910896301
0.06759999814676121,8.39006519317627,0.9324174523353577
0.06800000119255856,8.469315528869629,0.9425898194313049
0.06839999696239829,8.54855728149414,0.9528577327728271
0.06880000000819564,8.627790451049805,0.9632211923599243
0.06920000305399299,8.707015991210938,0.9736801981925964
0.06959999882383272,8.786232948303223,0.9842346906661987
0.07000000186963007,8.86544132232666,0.9948846697807312
0.0703999976394698,8.94464111328125,1.0056301355361938
0.07080000068526715,9.023832321166992,1.0164711475372314
0.07119999645510688,9.103014945983887,1.0274075269699097
0.07159999950090423,9.182188034057617,1.038439393043518
0.07200000254670158,9.2613525390625,1.0495667457580566
0.07239999831654131,9.340508460998535,1.0607894659042358
0.07280000136233866,9.419655799865723,1.0721075534820557
0.0731999971321784,9.498793601989746,1.0835210084915161
0.07360000017797574,9.577921867370605,1.0950298309326172
0.07400000322377309,9.657041549682617,1.1066340208053589
0.07439999899361283,9.708060264587402,1.1183274984359741
0.07480000203941017,9.707160949707031,1.1300398111343384
0.07519999780924991,9.706252098083496,1.141750454902649
0.07560000085504726,9.705334663391113,1.1534594297409058
0.07599999662488699,9.70440673828125,1.1651667356491089
0.07639999967068434,9.703470230102539,1.1768722534179688
0.07680000271648169,9.702524185180664,1.188576102256775
0.07719999848632142,9.701568603515625,1.2002782821655273
0.07760000153211877,9.700603485107422,1.2119786739349365
0.0779999973019585,9.699628829956055,1.223677396774292
0.07840000034775585,9.69864559173584,1.2353743314743042
0.0788000033935532,9.697652816772461,1.2470694780349731
0.07919999916339293,9.696650505065918,1.2587628364562988
0.07960000220919028,9.695638656616211,1.2704544067382812
0.07999999797903001,9.69461727142334,1.2821441888809204
0.08040000102482736,9.693587303161621,1.2938321828842163
0.0807999967946671,9.692546844482422,1.3055182695388794
0.08119999984046444,9.691497802734375,1.3172026872634888
0.08160000288626179,9.690439224243164,1.3288850784301758
0.08199999865610152,9.689372062683105,1.340565800666809
0.08240000170189887,9.688294410705566,1.35224449634552
0.0827999974717386,9.68720817565918,1.3639214038848877
0.08320000051753595,9.686112403869629,1.3755964040756226
0.0836000035633333,9.685007095336914,1.3872694969177246
0.08399999933317304,9.683893203735352,1.3989406824111938
0.08440000237897038,9.682768821716309,1.4106099605560303
0.08479999814881012,9.681635856628418,1.4222772121429443
0.08520000119460747,9.680493354797363,1.4339426755905151
0.0855999969644472,9.679341316223145,1.4456061124801636
0.08600000001024455,9.678180694580078,1.4572675228118896
0.0864000030560419,9.677009582519531,1.468927025794983
0.08679999882588163,9.675829887390137,1.4805845022201538
0.08720000187167898,9.674640655517578,1.4922399520874023
0.08759999764151871,9.673442840576172,1.503893494606018
0.08800000068731606,9.736294746398926,1.5155760049819946
0.0883999964571558,9.81507682800293,1.5273516178131104
0.08879999950295314,9.893850326538086,1.539222002029419
0.08920000254875049,9.972614288330078,1.5511873960494995
0.08959999831859022,10.051368713378906,1.5632476806640625
0.09000000136438757,10.13011360168457,1.5754027366638184
0.0903999971342273,10.208847999572754,1.5876526832580566
0.09080000018002465,10.287572860717773,1.5999975204467773
0.091200003225822,10.366288185119629,1.612437129020691
0.09159999899566174,10.444993019104004,1.6249715089797974
0.09200000204145908,10.523688316345215,1.6376007795333862
0.09239999781129882,10.586432456970215,1.6503227949142456
0.09280000085709617,10.58510684967041,1.6630736589431763
0.0931999966269359,10.583771705627441,1.675822377204895
0.09359999967273325,10.582426071166992,1.6885688304901123
0.0940000027185306,10.581069946289062,1.7013130187988281
0.09439999848837033,10.579704284667969,1.7140549421310425
0.09480000153416768,10.578327178955078,1.7267946004867554
0.09519999730400741,10.576940536499023,1.7395318746566772
0.09560000034980476,10.575544357299805,1.7522670030593872
0.09600000339560211,10.574137687683105,1.7649996280670166
0.09639999916544184,10.572720527648926,1.777730107307434
0.09680000221123919,10.571292877197266,1.790458083152771
0.09719999798107892,10.569855690002441,1.8031837940216064
0.09760000102687627,10.568408012390137,1.8159071207046509
0.097999996796716,10.566949844360352,1.8286280632019043
0.09839999984251335,10.565482139587402,1.8413466215133667
0.0988000028883107,10.564003944396973,1.854062795639038
0.09919999865815043,10.562515258789062,1.8667765855789185
0.09960000170394778,10.561017036437988,1.8794878721237183
0.09999999747378752,10.559508323669434,1.892196774482727
0.10040000051958486,10.557989120483398,1.9049031734466553
0.10080000356538221,10.5564603805542,1.9176071882247925
0.10119999933522195,10.55492115020752,1.9303086996078491
0.1016000023810193,10.553372383117676,1.9430077075958252
0.10199999815085903,10.551812171936035,1.9557042121887207
0.10240000119665638,10.55024242401123,1.9683982133865356
0.10279999696649611,10.548663139343262,1.98108971118927
0.10320000001229346,10.547073364257812,1.9937785863876343
0.1036000030580908,10.545473098754883,2.006464958190918
0.10399999882793054,10.543862342834473,2.019148826599121
0.10440000187372789,10.542242050170898,2.031830072402954
0.10479999764356762,10.54061222076416,2.044508695602417
0.10520000068936497,10.538970947265625,2.0571846961975098
0.1055999964592047,10.537320137023926,2.0698583126068115
0.10599999950500205,10.535659790039062,2.082529067993164
0.1064000025507994,10.533987998962402,2.0951972007751465
0.10679999832063913,10.532306671142578,2.107862949371338
0.10720000136643648,10.53061580657959,2.12052583694458
0.10759999713627622,10.528914451599121,2.133186101913452
0.10800000018207356,10.527202606201172,2.145843505859375
0.10840000322787091,10.525481224060059,2.1584982872009277
0.10879999899771065,10.528779029846191,2.1711506843566895
0.109200002043508,10.607036590576172,2.183854818344116
0.10959999781334773,10.685284614562988,2.196652889251709
0.11000000085914508,10.763522148132324,2.209545373916626
0.11039999662898481,10.84174919128418,2.222532033920288
0.11079999967478216,10.919965744018555,2.2356128692626953
0.1112000027205795,10.99817180633545,2.2487878799438477
0.11159999849041924,11.001397132873535,2.262014627456665
0.11200000153621659,10.999582290649414,2.275238513946533
0.11239999730605632,10.997756958007812,2.288459539413452
0.11280000035185367,10.99592113494873,2.301677703857422
0.11320000339765102,10.994074821472168,2.3148932456970215
0.11359999916749075,10.992217063903809,2.3281056880950928
0.1140000022132881,10.990349769592285,2.341315269470215
0.11439999798312783,10.988471031188965,2.3545217514038086
0.11480000102892518,10.986581802368164,2.3677256107330322
0.11519999679876491,10.9846830368042,2.3809263706207275
0.11559999984456226,10.982772827148438,2.3941242694854736
0.11600000289035961,10.980852127075195,2.4073190689086914
0.11639999866019934,10.978920936584473,2.42051100730896
0.11680000170599669,10.97697925567627,2.4337000846862793
0.11719999747583643,10.975027084350586,2.446885824203491
0.11760000052163377,10.973064422607422,2.460068941116333
0.11800000356743112,10.971091270446777,2.4732487201690674
0.11839999933727086,10.969106674194336,2.4864256381988525
0.1188000023830682,10.96711254119873,2.4995994567871094
0.11919999815290794,10.965107917785645,2.512770175933838
0.11960000119870529,10.963091850280762,2.525937795639038
0.11999999696854502,10.961066246032715,2.53910231590271
0.12040000001434237,10.959030151367188,2.5522637367248535
0.12080000306013972,10.956982612609863,2.5654220581054688
0.12119999882997945,10.954924583435059,2.5785775184631348
0.1216000018757768,10.95285701751709,2.5917294025421143
0.12199999764561653,10.950778007507324,2.6048784255981445
0.12240000069141388,10.948689460754395,2.6180243492126465
0.12280000373721123,10.946589469909668,2.631166934967041
0.12320000678300858,10.944478988647461,2.644306182861328
0.1235999952768907,10.94235897064209,2.657442569732666
0.12399999832268804,10.940227508544922,2.6705756187438965
0.12440000136848539,10.938085556030273,2.6837053298950195
0.12480000441428274,10.935933113098145,2.6968319416046143
0.12519999290816486,10.933771133422852,2.7099552154541016
0.1255999959539622,10.931597709655762,2.7230751514434814
0.12599999899975955,10.929413795471191,2.736191987991333
0.1264000020455569,10.92721939086914,2.749305486679077
0.12680000509135425,10.92501449584961,2.762415647506714
0.12719999358523637,10.922800064086914,2.775522470474243
0.12759999663103372,10.920574188232422,2.788625955581665
0.12799999967683107,10.91833782196045,2.8017261028289795
0.12840000272262841,10.916090965270996,2.8148229122161865
0.12880000576842576,10.913834571838379,2.827916383743286
0.12919999426230788,10.915926933288574,2.8410065174102783
0.12959999730810523,10.99364948272705,2.85414719581604
0.13000000035390258,11.07136058807373,2.8673810958862305
0.13040000339969993,11.14906120300293,2.880708694458008
0.13080000644549727,11.226751327514648,2.894129753112793
0.1311999949393794,11.228791236877441,2.9076011180877686
0.13159999798517674,11.226459503173828,2.9210691452026367
0.1320000010309741,11.224117279052734,2.9345335960388184
0.13240000407677144,11.22176456451416,2.9479944705963135
0.1328000071225688,11.219401359558105,2.961452007293701
0.1331999956164509,11.217026710510254,2.9749057292938232
0.13359999866224825,11.214640617370605,2.988356113433838
0.1340000017080456,11.212244987487793,3.001803159713745
0.13440000475384295,11.209837913513184,3.0152463912963867
0.13479999324772507,11.207420349121094,3.028686046600342
0.13519999629352242,11.204992294311523,3.0421221256256104
0.13559999933931977,11.202552795410156,3.0555546283721924
0.1360000023851171,11.200103759765625,3.068983554840088
0.13640000543091446,11.197643280029297,3.082408905029297
0.13679999392479658,11.195171356201172,3.0958304405212402
0.13719999697059393,11.192689895629883,3.109248399734497
0.13760000001639128,11.190196990966797,3.1226627826690674
0.13800000306218863,11.18769359588623,3.136073350906372
0.13840000610798597,11.185178756713867,3.1494803428649902
0.1387999946018681,11.18265438079834,3.1628835201263428
0.13919999764766544,11.180118560791016,3.176283121109009
0.1396000006934628,11.177572250366211,3.189678907394409
0.14000000373926014,11.17501449584961,3.203070878982544
