time[s],iL[A],v out[V]
0.0,0.0,0.0
0.00040000000467443897,0.0,0.0
0.0008000000093488779,0.0,0.0
0.0012000000424450263,0.0,0.0
0.0016000000186977559,0.0,0.0
0.0019999999949504854,0.0,0.0
0.0024000000848900527,0.0,0.0
0.0027999999474559445,0.0,0.0
0.0032000000373955118,0.0,0.0
0.0035999998999614036,0.0,0.0
0.003999999989900971,0.012331518344581127,1.1520148746058112e-06
0.004399999852466863,0.09233149886131287,6.458294956246391e-05
0.004800000169780105,0.17233139276504517,0.0002249780809506774
0.005200000032345997,0.25233110785484314,0.0004823325725737959
0.005599999894911889,0.332330584526062,0.0008366414112970233
0.006000000212225132,0.412329763174057,0.0012878996785730124
0.0064000000747910235,0.4923284947872162,0.0018361021066084504
0.006799999937356915,0.5723267793655396,0.002481243573129177
0.007199999799922807,0.6523244976997375,0.0032233186066150665
0.00760000011723605,0.7323216199874878,0.0040623219683766365
0.007999999979801942,0.812317967414856,0.004998248070478439
0.008400000297115184,0.8923135995864868,0.00603109085932374
0.008799999704933725,0.972308337688446,0.0071608456782996655
0.009200000022246968,1.0523021221160889,0.008387506008148193
0.00960000033956021,1.1322948932647705,0.009711065329611301
0.009999999747378752,1.2122864723205566,0.011131519451737404
0.010400000064691994,1.2922769784927368,0.012648860923945904
0.010800000382005237,1.3722662925720215,0.014263083226978779
0.011199999789823778,1.4522541761398315,0.01597418077290058
0.01160000010713702,1.532240629196167,0.017782147973775864
0.012000000424450263,1.6122256517410278,0.019686978310346603
0.012399999832268804,1.6922091245651245,0.021688662469387054
0.012800000149582047,1.7721909284591675,0.023787198588252068
0.013199999557400588,1.8521710634231567,0.025982575491070747
0.01359999987471383,1.9321494102478027,0.028274787589907646
0.014000000192027073,2.0121257305145264,0.030663829296827316
0.014399999599845614,2.0921003818511963,0.03314969316124916
0.014799999917158857,2.172072649002075,0.035732369869947433
0.0152000002344721,2.2520430088043213,0.038411855697631836
0.015600000551785342,2.3320112228393555,0.04118814319372177
0.015999999959603883,2.4119770526885986,0.044061221182346344
0.016399999367422424,2.424272298812866,0.04699639603495598
0.01680000059423037,2.4242334365844727,0.049932532012462616
0.01720000000204891,2.424192428588867,0.05286848172545433
0.01759999940986745,2.4241487979888916,0.055804237723350525
0.018000000636675395,2.424103021621704,0.0587397925555706
0.018400000044493936,2.4240548610687256,0.06167515367269516
0.018799999452312477,2.424004316329956,0.0646103098988533
0.01920000067912042,2.4239516258239746,0.06754525750875473
0.019600000086938962,2.423896312713623,0.07048000395298004
0.019999999494757503,2.4238388538360596,0.07341453433036804
0.020400000721565448,2.423779010772705,0.07634885609149933
0.02080000012938399,2.4237167835235596,0.07928295433521271
0.02119999953720253,2.423652172088623,0.08221684396266937
0.021600000764010474,2.4235851764678955,0.08515050262212753
0.022000000171829015,2.423515796661377,0.08808394521474838
0.022399999579647556,2.4234442710876465,0.09101714938879013
0.0228000008064555,2.423370122909546,0.09395013004541397
0.02320000021427404,2.4232938289642334,0.0968828797340393
0.023599999622092582,2.42321515083313,0.09981539100408554
0.024000000848900527,2.4231340885162354,0.10274765640497208
0.024400000256719068,2.4626402854919434,0.10569155961275101
0.02479999966453761,2.5425543785095215,0.10871981829404831
0.025200000891345553,2.6224660873413086,0.11184478551149368
0.025600000299164094,2.7023754119873047,0.11506646126508713
0.025999999706982635,2.7822821140289307,0.11838483810424805
0.026399999114801176,2.8621859550476074,0.12179990857839584
0.02680000034160912,2.942087173461914,0.12531165778636932
0.02719999974942766,3.0219855308532715,0.1289200782775879
0.027599999157246202,3.1018807888031006,0.13262517750263214
0.028000000384054147,3.1817731857299805,0.1364269256591797
0.028399999791872688,3.261662483215332,0.14032533764839172
0.02879999919969123,3.3415486812591553,0.14432038366794586
0.029200000426499173,3.421431541442871,0.1484120637178421
0.029599999834317714,3.5013113021850586,0.15260036289691925
0.029999999242136255,3.5811874866485596,0.1568852812051773
0.0304000004689442,3.661060094833374,0.16126681864261627
0.030800001695752144,3.740929365158081,0.16574494540691376
0.031200001103570685,3.8207950592041016,0.17031966149806976
0.031600000511389226,3.9006569385528564,0.1749909520149231
0.03199999991920777,3.9805150032043457,0.17975883185863495
0.03239999932702631,4.06036901473999,0.18462325632572174
0.03279999873484485,4.140219688415527,0.18958424031734467
0.0332000017806422,4.220066070556641,0.19464176893234253
0.03360000118846074,4.29990816116333,0.19979582726955414
0.03400000059627928,4.379745960235596,0.2050464153289795
0.03440000000409782,4.459579944610596,0.2103935033082962
0.03479999941191636,4.539409637451172,0.21583710610866547
0.0351999988197349,4.619234561920166,0.2213772088289261
0.03559999822755344,4.699055194854736,0.22701378166675568
0.03600000127335079,4.738460540771484,0.23273445665836334
0.03640000068116933,4.738272190093994,0.2384665161371231
0.03680000008898787,4.738079071044922,0.2441980540752411
0.03719999949680641,4.737881660461426,0.24992908537387848
0.037599998904624954,4.737679481506348,0.2556595802307129
0.037999998312443495,4.7374725341796875,0.2613895833492279
0.03840000135824084,4.7372612953186035,0.26711902022361755
0.038800000766059384,4.7370452880859375,0.2728479504585266
0.039200000173877925,4.7368245124816895,0.2785763144493103
0.039599999581696466,4.736599445343018,0.284304141998291
0.03999999898951501,4.736369609832764,0.29003140330314636
0.04039999839733355,4.736135482788086,0.29575812816619873
0.040800001443130895,4.735896587371826,0.30148425698280334
0.041200000850949436,4.735652923583984,0.307209849357605
0.04160000025876798,4.735404968261719,0.31293484568595886
0.04199999966658652,4.735152244567871,0.3186592757701874
0.04239999907440506,4.7348952293396,0.32438310980796814
0.0427999984822236,4.734633445739746,0.33010634779930115
0.04320000152802095,4.7343668937683105,0.3358289897441864
0.04360000093583949,4.734096050262451,0.3415510356426239
0.04400000034365803,4.73382043838501,0.34727245569229126
0.04439999975147657,4.733540058135986,0.35299327969551086
0.04479999915929511,4.733255386352539,0.3587134778499603
0.04519999856711365,4.7999348640441895,0.3644670248031616
0.045600001612911,4.879641056060791,0.3703156113624573
0.04600000102072954,4.9593424797058105,0.37626054883003235
0.04640000042854808,5.039039134979248,0.38230177760124207
0.046799999836366624,5.118730545043945,0.3884393274784088
0.047199999244185165,5.198417663574219,0.3946731388568878
0.047599998652003706,5.278099060058594,0.40100327134132385
0.048000001697801054,5.357775688171387,0.40742966532707214
0.048400001105619594,5.437447547912598,0.4139522910118103
0.048800000513438135,5.51711368560791,0.4205712080001831
0.049199999921256676,5.596774578094482,0.4272863268852234
0.04959999932907522,5.676429748535156,0.4340977072715759
0.04999999873689376,5.75607967376709,0.44100528955459595
0.050400001782691106,5.835724353790283,0.44800907373428345
0.05080000119050965,5.91536283493042,0.4551090598106384
0.05120000059832819,5.994996070861816,0.4623052179813385
0.05160000000614673,6.074623107910156,0.46959754824638367
0.05199999941396527,6.154244422912598,0.47698602080345154
0.05239999882178381,6.233860015869141,0.4844706654548645
0.05279999822960235,6.313469409942627,0.4920514225959778
0.0532000012753997,6.393072605133057,0.49972832202911377
0.05360000068321824,6.472670078277588,0.5075013041496277
0.05400000009103678,6.552260875701904,0.5153704285621643
0.05439999949885532,6.631845474243164,0.5233356356620789
0.054799998906673864,6.711423397064209,0.5313968658447266
0.055199998314492404,6.777963638305664,0.5395529270172119
0.05560000136028975,6.777528762817383,0.5477420091629028
0.05600000076810829,6.777087211608887,0.5559301972389221
0.056400000175926834,6.776639461517334,0.5641173720359802
0.056799999583745375,6.776184558868408,0.5723036527633667
0.057199998991563916,6.775723457336426,0.5804890394210815
0.05759999839938246,6.775256156921387,0.5886734127998352
0.058000001445179805,6.774781703948975,0.5968567728996277
0.058400000852998346,6.774301052093506,0.6050392389297485
0.05880000026081689,6.773813724517822,0.6132206916809082
0.05919999966863543,6.773319721221924,0.6214011311531067
0.05959999907645397,6.772819519042969,0.629580557346344
0.05999999848427251,6.772312641143799,0.6377590298652649
0.06040000153006986,6.771799087524414,0.6459364891052246
0.0608000009378884,6.771279335021973,0.6541128754615784
0.06120000034570694,6.770752429962158,0.662288248538971
0.06160000339150429,6.770219326019287,0.6704626083374023
0.06199999916134402,6.769680023193359,0.6786358952522278
0.06240000220714137,6.769133567810059,0.6868081092834473
0.0627999979769811,6.768580913543701,0.6949793100357056
0.06320000102277845,6.768021583557129,0.7031494379043579
0.06359999679261819,6.7674560546875,0.7113184332847595
0.06399999983841553,6.766883373260498,0.7194864153862
0.06440000288421288,6.766304969787598,0.7276532649993896
0.06479999865405262,6.765719413757324,0.7358189821243286
0.06520000169984996,6.765127658843994,0.7439836263656616
0.0655999974696897,6.764528751373291,0.7521471381187439
0.06600000051548705,6.7639241218566895,0.7603095769882202
0.0664000035612844,6.7867112159729,0.7684749364852905
0.06679999933112413,6.866093158721924,0.7767119407653809
0.06720000237692147,6.945468425750732,0.7850447297096252
0.06759999814676121,7.024837017059326,0.7934733033180237
0.06800000119255856,7.104198932647705,0.8019976615905762
0.06839999696239829,7.183553695678711,0.8106178045272827
0.06880000000819564,7.262901782989502,0.8193337321281433
0.06920000305399299,7.34224271774292,0.8281453847885132
0.06959999882383272,7.421576976776123,0.8370528221130371
0.07000000186963007,7.500903606414795,0.8460559248924255
0.0703999976394698,7.580223083496094,0.8551547527313232
0.07080000068526715,7.6595354080200195,0.8643493056297302
0.07119999645510688,7.738840103149414,0.8736395239830017
0.07159999950090423,7.8181376457214355,0.8830254077911377
0.07200000254670158,7.897427082061768,0.8925069570541382
0.07239999831654131,7.976709365844727,0.9020841121673584
0.07280000136233866,8.055983543395996,0.9117569327354431
0.0731999971321784,8.13525104522705,0.9215253591537476
0.07360000017797574,8.214509010314941,0.9313893914222717
0.07400000322377309,8.23715877532959,0.941324770450592
0.07439999899361283,8.23640251159668,0.9512628316879272
0.07480000203941017,8.235636711120605,0.9611995220184326
0.07519999780924991,8.234864234924316,0.9711348414421082
0.07560000085504726,8.23408317565918,0.9810686707496643
0.07599999662488699,8.233294486999512,0.9910010695457458
0.07639999967068434,8.232497215270996,1.0009320974349976
0.07680000271648169,8.231693267822266,1.0108616352081299
0.07719999848632142,8.230880737304688,1.020789623260498
0.07760000153211877,8.230059623718262,1.0307163000106812
0.0779999973019585,8.229230880737305,1.0406414270401
0.07840000034775585,8.228394508361816,1.0505650043487549
0.0788000033935532,8.227550506591797,1.060487151145935
0.07919999916339293,8.22669792175293,1.070407748222351
0.07960000220919028,8.225837707519531,1.080326795578003
0.07999999797903001,8.224968910217285,1.0902444124221802
0.08040000102482736,8.224092483520508,1.1001604795455933
0.0807999967946671,8.2232084274292,1.1100748777389526
0.08119999984046444,8.22231674194336,1.1199878454208374
0.08160000288626179,8.221416473388672,1.1298991441726685
0.08199999865610152,8.220508575439453,1.139809012413025
0.08240000170189887,8.219593048095703,1.1497172117233276
0.0827999974717386,8.218668937683105,1.1596237421035767
0.08320000051753595,8.217737197875977,1.1695287227630615
0.0836000035633333,8.216797828674316,1.1794321537017822
0.08399999933317304,8.215850830078125,1.1893339157104492
0.08440000237897038,8.214895248413086,1.1992340087890625
0.08479999814881012,8.213932037353516,1.2091325521469116
0.08520000119460747,8.212960243225098,1.2190293073654175
0.0855999969644472,8.211980819702148,1.2289245128631592
0.08600000001024455,8.210993766784668,1.2388180494308472
0.0864000030560419,8.209999084472656,1.248709797859192
0.08679999882588163,8.208995819091797,1.2585999965667725
0.08720000187167898,8.207985877990723,1.2684884071350098
0.08759999764151871,8.22174072265625,1.2783766984939575
0.08800000068731606,8.300713539123535,1.2883281707763672
0.0883999964571558,8.379678726196289,1.2983747720718384
0.08879999950295314,8.458636283874512,1.3085166215896606
0.08920000254875049,8.537585258483887,1.3187536001205444
0.08959999831859022,8.61652660369873,1.3290858268737793
0.09000000136438757,8.695459365844727,1.3395133018493652
0.0903999971342273,8.774383544921875,1.3500359058380127
0.09080000018002465,8.853299140930176,1.3606536388397217
0.091200003225822,8.932206153869629,1.3713665008544922
0.09159999899566174,9.011104583740234,1.3821744918823242
0.09200000204145908,9.089994430541992,1.3930774927139282
0.09239999781129882,9.168875694274902,1.4040757417678833
0.09280000085709617,9.18252182006836,1.415136694908142
0.0931999966269359,9.181385040283203,1.4261975288391113
0.09359999967273325,9.1802396774292,1.4372563362121582
0.0940000027185306,9.179085731506348,1.4483132362365723
0.09439999848837033,9.177922248840332,1.4593682289123535
0.09480000153416768,9.176750183105469,1.4704211950302124
0.09519999730400741,9.175569534301758,1.4814722537994385
0.09560000034980476,9.1743803024292,1.4925214052200317
0.09600000339560211,9.173181533813477,1.5035685300827026
0.09639999916544184,9.171974182128906,1.5146136283874512
0.09680000221123919,9.170758247375488,1.5256567001342773
0.09719999798107892,9.169533729553223,1.5366977453231812
0.09760000102687627,9.168299674987793,1.5477368831634521
0.097999996796716,9.167057037353516,1.5587738752365112
0.09839999984251335,9.16580581665039,1.569808840751648
0.0988000028883107,9.164545059204102,1.5808417797088623
0.09919999865815043,9.163276672363281,1.5918726921081543
0.09960000170394778,9.161998748779297,1.6029014587402344
0.09999999747378752,9.160711288452148,1.6139280796051025
0.10040000051958486,9.159416198730469,1.6249526739120483
0.10080000356538221,9.158111572265625,1.6359751224517822
0.10119999933522195,9.156798362731934,1.6469955444335938
0.1016000023810193,9.155476570129395,1.6580137014389038
0.10199999815085903,9.154145240783691,1.6690298318862915
0.10240000119665638,9.15280532836914,1.6800436973571777
0.10279999696649611,9.151456832885742,1.6910555362701416
0.10320000001229346,9.150099754333496,1.702065110206604
0.1036000030580908,9.148734092712402,1.7130725383758545
0.10399999882793054,9.147358894348145,1.7240777015686035
0.10440000187372789,9.145975112915039,1.7350807189941406
0.10479999764356762,9.144582748413086,1.7460815906524658
0.10520000068936497,9.143181800842285,1.757080078125
0.1055999964592047,9.14177131652832,1.7680764198303223
0.10599999950500205,9.140353202819824,1.779070496559143
0.1064000025507994,9.138925552368164,1.790062427520752
0.10679999832063913,9.13748836517334,1.8010519742965698
0.10720000136643648,9.136043548583984,1.8120392560958862
0.10759999713627622,9.134589195251465,1.8230241537094116
0.10800000018207356,9.133126258850098,1.834006905555725
0.10840000322787091,9.147640228271484,1.8449891805648804
0.10879999899771065,9.226160049438477,1.8560351133346558
0.109200002043508,9.304670333862305,1.8671756982803345
0.10959999781334773,9.383172035217285,1.878410816192627
0.11000000085914508,9.461665153503418,1.8897405862808228
0.11039999662898481,9.540148735046387,1.9011648893356323
0.11079999967478216,9.618622779846191,1.9126838445663452
0.1112000027205795,9.697088241577148,1.9242973327636719
0.11159999849041924,9.775544166564941,1.9360053539276123
0.11200000153621659,9.789976119995117,1.9477767944335938
0.11239999730605632,9.788413047790527,1.959547758102417
0.11280000035185367,9.786840438842773,1.9713163375854492
0.11320000339765102,9.785259246826172,1.9830822944641113
0.11359999916749075,9.78366756439209,1.9948458671569824
0.1140000022132881,9.78206729888916,2.0066068172454834
0.11439999798312783,9.780457496643066,2.0183653831481934
0.11480000102892518,9.778838157653809,2.030121326446533
0.11519999679876491,9.777209281921387,2.041874885559082
0.11559999984456226,9.7755708694458,2.0536255836486816
0.11600000289035961,9.77392292022705,2.0653738975524902
0.11639999866019934,9.772266387939453,2.077119827270508
0.11680000170599669,9.770600318908691,2.088862895965576
0.11719999747583643,9.76892375946045,2.1006035804748535
0.11760000052163377,9.76723861694336,2.1123414039611816
0.11800000356743112,9.765543937683105,2.1240768432617188
0.11839999933727086,9.763840675354004,2.1358094215393066
0.1188000023830682,9.762126922607422,2.1475396156311035
0.11919999815290794,9.760404586791992,2.159266948699951
0.11960000119870529,9.758672714233398,2.170991897583008
0.11999999696854502,9.756930351257324,2.1827139854431152
0.12040000001434237,9.755179405212402,2.1944334506988525
0.12080000306013972,9.753418922424316,2.2061500549316406
0.12119999882997945,9.751649856567383,2.2178640365600586
0.1216000018757768,9.749870300292969,2.2295753955841064
0.12199999764561653,9.748082160949707,2.241283893585205
0.12240000069141388,9.746284484863281,2.2529897689819336
0.12280000373721123,9.744477272033691,2.264692783355713
0.12320000678300858,9.742661476135254,2.276393175125122
0.1235999952768907,9.740835189819336,2.288090705871582
0.12399999832268804,9.73900032043457,2.2997853755950928
0.12440000136848539,9.73715591430664,2.3114774227142334
0.12480000441428274,9.735301971435547,2.3231663703918457
0.12519999290816486,9.733438491821289,2.334852695465088
0.1255999959539622,9.731566429138184,2.34653639793396
0.12599999899975955,9.729683876037598,2.3582170009613037
0.1264000020455569,9.727792739868164,2.3698947429656982
0.12680000509135425,9.725892066955566,2.3815696239471436
0.12719999358523637,9.723982810974121,2.3932416439056396
0.12759999663103372,9.722063064575195,2.4049108028411865
0.12799999967683107,9.720134735107422,2.416577100753784
0.12840000272262841,9.718196868896484,2.4282405376434326
0.12880000576842576,9.719566345214844,2.439901113510132
0.12919999426230788,9.797609329223633,2.451611042022705
0.12959999730810523,9.875643730163574,2.4634151458740234
0.13000000035390258,9.953667640686035,2.475313186645508
0.13040000339969993,10.031682968139648,2.487305164337158
0.13080000644549727,10.109687805175781,2.4993910789489746
0.1311999949393794,10.187684059143066,2.511571168899536
0.13159999798517674,10.188986778259277,2.5238003730773926
0.1320000010309741,10.186962127685547,2.536026954650879
0.13240000407677144,10.184928894042969,2.548250198364258
0.1328000071225688,10.18288516998291,2.5604705810546875
0.1331999956164509,10.180831909179688,2.5726876258850098
0.13359999866224825,10.1787691116333,2.584901809692383
0.1340000017080456,10.176695823669434,2.5971128940582275
0.13440000475384295,10.174613952636719,2.609320640563965
0.13479999324772507,10.172521591186523,2.621525526046753
0.13519999629352242,10.170418739318848,2.6337270736694336
0.13559999933931977,10.168307304382324,2.645925760269165
0.1360000023851171,10.16618537902832,2.658121109008789
0.13640000543091446,10.164053916931152,2.6703131198883057
0.13679999392479658,10.16191291809082,2.682502269744873
0.13719999697059393,10.159762382507324,2.694688081741333
0.13760000001639128,10.157601356506348,2.7068705558776855
0.13800000306218863,10.155431747436523,2.7190499305725098
0.13840000610798597,10.153251647949219,2.7312262058258057
0.1387999946018681,10.151061058044434,2.743399143218994
0.13919999764766544,10.1488618850708,2.755568742752075
0.1396000006934628,10.146652221679688,2.767735242843628
0.14000000373926014,10.14443302154541,2.7798984050750732
0.14040000678505749,10.142204284667969,2.792058229446411
0.1407999952789396,10.139966011047363,2.8042147159576416
