time[s],iL[A],v out[V]
0.0,0.0,0.0
0.00040000000467443897,0.0,0.0
0.0008000000093488779,0.0,0.0
0.0012000000424450263,0.0,0.0
0.0016000000186977559,0.0,0.0
0.0019999999949504854,0.0,0.0
0.0024000000848900527,0.0,0.0
0.0027999999474559445,0.0,0.0
0.0032000000373955118,0.0,0.0
0.0035999998999614036,0.0,0.0
0.003999999989900971,0.0,0.0
0.004399999852466863,0.0,0.0
0.004800000169780105,0.0,0.0
0.005200000032345997,0.0,0.0
0.005599999894911889,0.0,0.0
0.006000000212225132,0.0,0.0
0.0064000000747910235,0.0,0.0
0.006799999937356915,0.0,0.0
0.007199999799922807,0.0,0.0
0.00760000011723605,0.0,0.0
0.007999999979801942,0.0,0.0
0.008400000297115184,0.0,0.0
0.008799999704933725,0.0,0.0
0.009200000022246968,0.0,0.0
0.00960000033956021,0.022190434858202934,3.7304030229279306e-06
0.009999999747378752,0.10219040513038635,7.911112334113568e-05
0.010400000064691994,0.18219028413295746,0.00025145543622784317
0.010800000382005237,0.20438042283058167,0.0004954410251230001
0.011199999789823778,0.20437993109226227,0.0007431445992551744
0.01160000010713702,0.20437923073768616,0.0009908353677019477
0.012000000424450263,0.20437833666801453,0.0012385131558403373
0.012399999832268804,0.20437724888324738,0.0014861777890473604
0.012800000149582047,0.2043759673833847,0.0017338290344923735
0.013199999557400588,0.20437447726726532,0.001981466542929411
0.01359999987471383,0.20437279343605042,0.002229090081527829
0.014000000192027073,0.2043709009885788,0.0024766994174569845
0.014399999599845614,0.20436882972717285,0.002724294550716877
0.014799999917158857,0.2043665498495102,0.0029718747828155756
0.0152000002344721,0.20436407625675201,0.003219440346583724
0.015600000551785342,0.20436139404773712,0.0034669905435293913
0.015999999959603883,0.2043585330247879,0.003714525606483221
0.016399999367422424,0.20435544848442078,0.003962045069783926
0.01680000059423037,0.20435218513011932,0.004209548234939575
0.01720000000204891,0.20434871315956116,0.004457036033272743
0.01759999940986745,0.20434506237506866,0.004704507067799568
0.018000000636675395,0.20434118807315826,0.00495196133852005
0.018400000044493936,0.20433713495731354,0.005199399311095476
0.018799999452312477,0.2043328732252121,0.005446820054203272
0.01920000067912042,0.20432841777801514,0.005694223567843437
0.019600000086938962,0.20432376861572266,0.005941609386354685
0.019999999494757503,0.20431891083717346,0.006188977509737015
0.020400000721565448,0.20431385934352875,0.00643632747232914
0.02080000012938399,0.2043086141347885,0.006683659739792347
0.02119999953720253,0.20430316030979156,0.006930972915142775
0.021600000764010474,0.2042975276708603,0.007178267929702997
0.022000000171829015,0.2042916864156723,0.00742554385215044
0.022399999579647556,0.2042856365442276,0.007672800216823816
0.0228000008064555,0.20427940785884857,0.007920037023723125
0.02320000021427404,0.20427297055721283,0.008167254738509655
0.023599999622092582,0.20426633954048157,0.008414452895522118
0.024000000848900527,0.2042594999074936,0.008661630563437939
0.024400000256719068,0.2042524814605713,0.008908786810934544
0.02479999966453761,0.20424525439739227,0.009155923500657082
0.025200000891345553,0.20423783361911774,0.009403039701282978
0.025600000299164094,0.2042302042245865,0.009650133550167084
0.025999999706982635,0.2042223960161209,0.009897206909954548
0.026399999114801176,0.20421437919139862,0.010144258849322796
0.02680000034160912,0.20420615375041962,0.010391288436949253
0.02719999974942766,0.2041977494955063,0.01063829567283392
0.027599999157246202,0.20418913662433624,0.01088528148829937
0.028000000384054147,0.20418033003807068,0.011132244020700455
0.028399999791872688,0.2041713297367096,0.011379184201359749
0.02879999919969123,0.2041621208190918,0.011626102030277252
0.029200000426499173,0.20415271818637848,0.011872995644807816
0.029599999834317714,0.21077364683151245,0.012120199389755726
0.029999999242136255,0.29076382517814636,0.012423566542565823
0.0304000004689442,0.3707537353038788,0.012823875062167645
0.030800001695752144,0.3773738145828247,0.013280337676405907
0.031200001103570685,0.37736302614212036,0.01373709924519062
0.031600000511389226,0.377351850271225,0.014193825423717499
0.03199999991920777,0.37734031677246094,0.014650515280663967
0.03239999932702631,0.37732839584350586,0.015107168816030025
0.03279999873484485,0.3773161470890045,0.015563786029815674
0.0332000017806422,0.37730351090431213,0.016020365059375763
0.03360000118846074,0.3772905170917511,0.016476906836032867
0.03400000059627928,0.377277135848999,0.016933411359786987
0.03440000000409782,0.3772634267807007,0.017389876767992973
0.03479999941191636,0.3772493302822113,0.017846303060650826
0.0351999988197349,0.3772348463535309,0.018302690237760544
0.03559999822755344,0.3772200345993042,0.01875903643667698
0.03600000127335079,0.3772048354148865,0.01921534352004528
0.03640000068116933,0.3771892786026001,0.0196716096252203
0.03680000008898787,0.37717336416244507,0.020127832889556885
0.03719999949680641,0.3771570920944214,0.020584017038345337
0.037599998904624954,0.37714043259620667,0.021040158346295357
0.037999998312443495,0.3771234154701233,0.021496256813406944
0.03840000135824084,0.37710604071617126,0.0219523124396801
0.038800000766059384,0.3770883083343506,0.022408323362469673
0.039200000173877925,0.37707018852233887,0.022864291444420815
0.039599999581696466,0.3770517110824585,0.023320216685533524
0.03999999898951501,0.3770328760147095,0.023776095360517502
0.04039999839733355,0.3770136833190918,0.0242319293320179
0.040800001443130895,0.3769941031932831,0.024687718600034714
0.041200000850949436,0.3769741654396057,0.025143461301922798
0.04160000025876798,0.3769538700580597,0.025599155575037003
0.04199999966658652,0.376933217048645,0.026054805144667625
0.04239999907440506,0.3769121766090393,0.026510408148169518
0.0427999984822236,0.37689080834388733,0.02696596086025238
0.04320000152802095,0.3768690526485443,0.027421467006206512
0.04360000093583949,0.37684690952301025,0.027876924723386765
0.04400000034365803,0.37682443857192993,0.028332332149147987
0.04439999975147657,0.37680158019065857,0.02878768928349018
0.04479999915929511,0.37677836418151855,0.029242997989058495
0.04519999856711365,0.3767547905445099,0.02969825640320778
0.045600001612911,0.37673085927963257,0.030153462663292885
0.04600000102072954,0.3767065703868866,0.03060861863195896
0.04640000042854808,0.3766818940639496,0.03106372244656086
0.046799999836366624,0.3766568601131439,0.03151877596974373
0.047199999244185165,0.3766314685344696,0.03197377547621727
0.047599998652003706,0.37660568952560425,0.032428719103336334
0.048000001697801054,0.3765795826911926,0.03288361430168152
0.048400001105619594,0.37655308842658997,0.033338453620672226
0.048800000513438135,0.37652623653411865,0.033793237060308456
0.049199999921256676,0.3764990270137787,0.03424796462059021
0.04959999932907522,0.3764714300632477,0.034702640026807785
0.04999999873689376,0.4472396671772003,0.03519522771239281
0.050400001782691106,0.5180074572563171,0.035783443599939346
0.05080000119050965,0.5179786086082458,0.036409564316272736
0.05120000059832819,0.5179492235183716,0.03703561797738075
0.05160000000614673,0.5179193615913391,0.0376616045832634
0.05199999941396527,0.5178889632225037,0.03828752785921097
0.05239999882178381,0.51785808801651,0.03891338035464287
0.05279999822960235,0.5178266763687134,0.039539165794849396
0.0532000012753997,0.5177948474884033,0.04016488417983055
0.05360000068321824,0.5177624225616455,0.040790531784296036
0.05400000009103678,0.5177295804023743,0.04141611233353615
0.05439999949885532,0.5176962018013,0.04204161837697029
0.054799998906673864,0.5176622867584229,0.04266705363988876
0.055199998314492404,0.5176278948783875,0.043292418122291565
0.05560000136028975,0.5175930261611938,0.043917711824178696
0.05600000076810829,0.5175576210021973,0.04454293102025986
0.056400000175926834,0.5175217390060425,0.04516807571053505
0.056799999583745375,0.5174853801727295,0.04579314962029457
0.057199998991563916,0.5174484848976135,0.046418145298957825
0.05759999839938246,0.5174111127853394,0.04704307019710541
0.058000001445179805,0.5173732042312622,0.047667913138866425
0.058400000852998346,0.5173348188400269,0.04829268530011177
0.05880000026081689,0.5172959566116333,0.04891737550497055
0.05919999966863543,0.5172565579414368,0.04954199120402336
0.05959999907645397,0.517216682434082,0.050166528671979904
0.05999999848427251,0.5171762704849243,0.05079098418354988
0.06040000153006986,0.5171353816986084,0.05141536146402359
0.0608000009378884,0.5170940160751343,0.05203966051340103
0.06120000034570694,0.5170521140098572,0.05266387760639191
0.06160000339150429,0.5170097351074219,0.053288012742996216
0.06199999916134402,0.5169668793678284,0.05391206592321396
0.06240000220714137,0.5169234871864319,0.054536037147045135
0.0627999979769811,0.5168796181678772,0.055159926414489746
0.06320000102277845,0.5168352127075195,0.05578373000025749
0.06359999679261819,0.5167903304100037,0.05640745162963867
0.06399999983841553,0.5167449712753296,0.05703108385205269
0.06440000288421288,0.5166990756988525,0.05765463411808014
0.06479999865405262,0.5166527032852173,0.058278098702430725
0.06520000169984996,0.5166058540344238,0.05890147387981415
0.0655999974696897,0.5165584683418274,0.059524763375520706
0.06600000051548705,0.5165106058120728,0.0601479634642601
0.0664000035612844,0.5164622664451599,0.06077107787132263
0.06679999933112413,0.5164133906364441,0.061394102871418
0.06720000237692147,0.5163640379905701,0.062017034739255905
0.06759999814676121,0.5163141489028931,0.06263987720012665
0.06800000119255856,0.5162637829780579,0.06326263397932053
0.06839999696239829,0.5162129402160645,0.06388529390096664
0.06880000000819564,0.5161615610122681,0.0645078644156456
0.06920000305399299,0.5161097049713135,0.0651303380727768
0.06959999882383272,0.5160573720932007,0.06575272232294083
0.07000000186963007,0.5753107070922852,0.0664016529917717
0.0703999976394698,0.6345635056495667,0.06714097410440445
0.07080000068526715,0.6345095038414001,0.06790683418512344
0.07119999645510688,0.6344548463821411,0.06867258995771408
0.07159999950090423,0.6343995928764343,0.06943824887275696
0.07200000254670158,0.6343437433242798,0.07020379602909088
0.07239999831654131,0.6342872977256775,0.07096924632787704
0.07280000136233866,0.6342301964759827,0.07173458486795425
0.0731999971321784,0.6341724991798401,0.07249981164932251
0.07360000017797574,0.6341142058372498,0.073264941573143
0.07400000322377309,0.6340553164482117,0.07402995973825455
0.07439999899361283,0.633995771408081,0.07479486614465714
0.07480000203941017,0.6339356303215027,0.07555966079235077
0.07519999780924991,0.6338748931884766,0.07632435113191605
0.07560000085504726,0.6338135004043579,0.07708892971277237
0.07599999662488699,0.6337515115737915,0.07785338908433914
0.07639999967068434,0.6336889266967773,0.07861774414777756
0.07680000271648169,0.6336257457733154,0.07938198745250702
0.07719999848632142,0.633561909198761,0.08014611154794693
0.07760000153211877,0.6334974765777588,0.08091011643409729
0.0779999973019585,0.6334324479103088,0.0816740170121193
0.07840000034775585,0.6333668231964111,0.08243779093027115
0.0788000033935532,0.6333005428314209,0.08320145308971405
0.07919999916339293,0.6332337260246277,0.0839649960398674
0.07960000220919028,0.6331661939620972,0.0847284272313118
0.07999999797903001,0.6330981254577637,0.08549173176288605
0.08040000102482736,0.6330294013023376,0.08625491708517075
0.0807999967946671,0.6329601407051086,0.0870179831981659
0.08119999984046444,0.6328902244567871,0.08778093010187149
0.08160000288626179,0.632819652557373,0.08854375034570694
0.08199999865610152,0.632748544216156,0.08930645138025284
0.08240000170189887,0.6326767802238464,0.09006902575492859
0.0827999974717386,0.6326044201850891,0.09083148092031479
0.08320000051753595,0.632531464099884,0.09159380197525024
0.0836000035633333,0.6324578523635864,0.09235600382089615
0.08399999933317304,0.6323837041854858,0.0931180790066719
0.08440000237897038,0.6323089003562927,0.09388002753257751
0.08479999814881012,0.6322334408760071,0.09464184939861298
0.08520000119460747,0.6321574449539185,0.09540353715419769
0.0855999969644472,0.6320808529853821,0.09616509824991226
0.08600000001024455,0.6320036053657532,0.09692652523517609
0.0864000030560419,0.6319257616996765,0.09768782556056976
0.08679999882588163,0.6318472623825073,0.09844899922609329
0.08720000187167898,0.6317682266235352,0.09921003133058548
0.08759999764151871,0.6316885352134705,0.09997093677520752
0.08800000068731606,0.631608247756958,0.10073170810937881
0.0883999964571558,0.6315273642539978,0.10149233788251877
0.08879999950295314,0.6314458847045898,0.10225284099578857
0.08920000254875049,0.6313637495040894,0.10301320254802704
0.08959999831859022,0.6312810778617859,0.10377342998981476
0.09000000136438757,0.6822602152824402,0.10455326735973358
0.0903999971342273,0.733238697052002,0.10541725158691406
0.09080000018002465,0.7331539988517761,0.10630083829164505
0.091200003225822,0.733068585395813,0.1071842834353447
0.09159999899566174,0.7329825162887573,0.108067587018013
0.09200000204145908,0.7328956723213196,0.10895073413848877
0.09239999781129882,0.7328081727027893,0.1098337322473526
0.09280000085709617,0.7327199578285217,0.11071658879518509
0.0931999966269359,0.7326310276985168,0.11159928888082504
0.09359999967273325,0.7325413823127747,0.11248183995485306
0.0940000027185306,0.7324510812759399,0.11336424201726913
0.09439999848837033,0.7323600053787231,0.11424648761749268
0.09480000153416768,0.7322682738304138,0.11512857675552368
0.09519999730400741,0.7321758270263672,0.11601051688194275
0.09560000034980476,0.7320826649665833,0.11689230054616928
0.09600000339560211,0.731988787651062,0.11777392774820328
0.09639999916544184,0.7318941950798035,0.11865539848804474
0.09680000221123919,0.7317989468574524,0.11953671276569366
0.09719999798107892,0.7317029237747192,0.12041786313056946
0.09760000102687627,0.7316062450408936,0.12129885703325272
0.097999996796716,0.7315088510513306,0.12217969447374344
0.09839999984251335,0.731410801410675,0.12306036800146103
0.0988000028883107,0.7313119769096375,0.12394087761640549
0.09919999865815043,0.7312124967575073,0.12482122331857681
0.09960000170394778,0.7311122417449951,0.1257014125585556
0.09999999747378752,0.7310113310813904,0.12658143043518066
0.10040000051958486,0.7309097051620483,0.1274612843990326
0.10080000356538221,0.730807363986969,0.1283409744501114
0.10119999933522195,0.7307043671607971,0.12922050058841705
0.1016000023810193,0.7306006550788879,0.1300998479127884
0.10199999815085903,0.7304962277412415,0.1309790313243866
0.10240000119665638,0.7303910851478577,0.13185805082321167
0.10279999696649611,0.7302852272987366,0.13273689150810242
0.10320000001229346,0.730178713798523,0.13361556828022003
0.1036000030580908,0.7300714254379272,0.13449406623840332
0.10399999882793054,0.729963481426239,0.13537238538265228
0.10440000187372789,0.7298548817634583,0.1362505406141281
0.10479999764356762,0.7297455072402954,0.13712851703166962
0.10520000068936497,0.72963547706604,0.138006329536438
0.1055999964592047,0.7295246720314026,0.13888394832611084
0.10599999950500205,0.7294132113456726,0.13976140320301056
0.1064000025507994,0.7293010950088501,0.14063867926597595
0.10679999832063913,0.7291882038116455,0.14151576161384583
0.10720000136643648,0.7290746569633484,0.14239268004894257
0.10759999713627622,0.728960394859314,0.14326941967010498
0.10800000018207356,0.7288454174995422,0.14414596557617188
0.10840000322787091,0.7287297248840332,0.14502233266830444
0.10879999899771065,0.7286133766174316,0.14589852094650269
0.109200002043508,0.7284963130950928,0.1467745155096054
0.10959999781334773,0.7283785343170166,0.1476503312587738
0.11000000085914508,0.7736268043518066,0.14854155480861664
0.11039999662898481,0.8188742399215698,0.1495113968849182
0.11079999967478216,0.818754255771637,0.15049661695957184
0.1112000027205795,0.818633496761322,0.15148165822029114
0.11159999849041924,0.8185119032859802,0.15246649086475372
0.11200000153621659,0.8183895349502563,0.15345114469528198
0.11239999730605632,0.8182663917541504,0.15443558990955353
0.11280000035185367,0.8181424140930176,0.15541984140872955
0.11320000339765102,0.8180177211761475,0.15640389919281006
0.11359999916749075,0.8178921937942505,0.15738774836063385
0.1140000022132881,0.8177658915519714,0.15837140381336212
0.11439999798312783,0.8176388144493103,0.15935485064983368
0.11480000102892518,0.8175109028816223,0.16033810377120972
0.11519999679876491,0.8173822164535522,0.16132114827632904
0.11559999984456226,0.8172528147697449,0.16230399906635284
0.11600000289035961,0.8171225786209106,0.16328662633895874
0.11639999866019934,0.8169915080070496,0.16426905989646912
0.11680000170599669,0.8168597221374512,0.16525128483772278
0.11719999747583643,0.8167271614074707,0.16623330116271973
0.11760000052163377,0.8165937662124634,0.16721510887145996
0.11800000356743112,0.816459596157074,0.16819670796394348
0.11839999933727086,0.8163246512413025,0.1691780984401703
0.1188000023830682,0.8161889314651489,0.1701592653989792
0.11919999815290794,0.8160523772239685,0.17114023864269257
0.11960000119870529,0.8159151077270508,0.17212098836898804
0.11999999696854502,0.8157770037651062,0.1731015145778656
0.12040000001434237,0.8156381249427795,0.17408183217048645
0.12080000306013972,0.8154984712600708,0.17506194114685059
0.12119999882997945,0.81535804271698,0.17604182660579681
0.1216000018757768,0.8152167797088623,0.17702148854732513
0.12199999764561653,0.8150748014450073,0.17800094187259674
0.12240000069141388,0.8149319887161255,0.17898017168045044
0.12280000373721123,0.8147884011268616,0.17995917797088623
0.12320000678300858,0.8146440982818604,0.1809379607439041
0.1235999952768907,0.8144989013671875,0.1819165199995041
0.12399999832268804,0.8143529891967773,0.18289487063884735
0.12440000136848539,0.8142063021659851,0.1838729828596115
0.12480000441428274,0.814058780670166,0.18485087156295776
0.12519999290816486,0.8139105439186096,0.1858285367488861
0.1255999959539622,0.8137614727020264,0.18680596351623535
0.12599999899975955,0.813611626625061,0.1877831667661667
0.1264000020455569,0.8134610056877136,0.18876014649868011
0.12680000509135425,0.8133096098899841,0.18973688781261444
0.12719999358523637,0.8131574392318726,0.19071340560913086
0.12759999663103372,0.8130044937133789,0.19168968498706818
0.12799999967683107,0.8128507733345032,0.19266574084758759
0.12840000272262841,0.8126962184906006,0.1936415582895279
0.12880000576842576,0.8125409483909607,0.1946171373128891
0.12919999426230788,0.812384843826294,0.1955924779176712
0.12959999730810523,0.8122279644012451,0.1965675801038742
0.13000000035390258,0.8530871868133545,0.19755519926548004
0.13040000339969993,0.8939456343650818,0.19861651957035065
0.13080000644549727,0.8937863111495972,0.1996903419494629
0.1311999949393794,0.8936260938644409,0.20076391100883484
0.13159999798517674,0.8934650421142578,0.2018372267484665
0.1320000010309741,0.8933031558990479,0.20291031897068024
0.13240000407677144,0.893140435218811,0.2039831429719925
0.1328000071225688,0.8929768204689026,0.20505571365356445
0.1331999956164509,0.8928123116493225,0.2061280459165573
0.13359999866224825,0.8926469683647156,0.20720012485980988
0.1340000017080456,0.8924807906150818,0.20827195048332214
0.13440000475384295,0.8923137784004211,0.20934352278709412
0.13479999324772507,0.8921458721160889,0.2104148268699646
0.13519999629352242,0.891977071762085,0.21148589253425598
0.13559999933931977,0.891807496547699,0.21255668997764587
0.1360000023851171,0.8916370272636414,0.21362723410129547
0.13640000543091446,0.8914656639099121,0.21469752490520477
0.13679999392479658,0.891293466091156,0.21576754748821259
0.13719999697059393,0.891120433807373,0.2168373167514801
0.13760000001639128,0.8909465670585632,0.21790681779384613
0.13800000306218863,0.8907718062400818,0.21897605061531067
0.13840000610798597,0.8905962109565735,0.2200450301170349
0.1387999946018681,0.8904197216033936,0.22111372649669647
0.13919999764766544,0.8902423977851868,0.22218216955661774
