time[s],iL[A],v out[V]
0.0,0.0,0.0
0.00040000000467443897,0.0,0.0
0.0008000000093488779,0.0,0.0
0.0012000000424450263,0.0,0.0
0.0016000000186977559,0.0,0.0
0.0019999999949504854,0.0,0.0
0.0024000000848900527,0.0,0.0
0.0027999999474559445,0.0,0.0
0.0032000000373955118,0.0,0.0
0.0035999998999614036,0.0,0.0
0.003999999989900971,0.0,0.0
0.004399999852466863,0.0,0.0
0.004800000169780105,0.0,0.0
0.005200000032345997,0.0,0.0
0.005599999894911889,0.0,0.0
0.006000000212225132,0.0,0.0
0.0064000000747910235,0.0,0.0
0.006799999937356915,0.0,0.0
0.007199999799922807,0.0,0.0
0.00760000011723605,0.0,0.0
0.007999999979801942,0.0,0.0
0.008400000297115184,0.0,0.0
0.008799999704933725,0.0,0.0
0.009200000022246968,0.0,0.0
0.00960000033956021,0.0,0.0
0.009999999747378752,0.07971028983592987,4.8133559175767004e-05
0.010400000064691994,0.15942050516605377,0.00019323080778121948
0.010800000382005237,0.15942028164863586,0.00038645361200906336
0.011199999789823778,0.15941989421844482,0.0005796666373498738
0.01160000010713702,0.15941934287548065,0.0007728697964921594
0.012000000424450263,0.15941865742206573,0.000966062827501446
0.012399999832268804,0.15941780805587769,0.00115924549754709
0.012800000149582047,0.1594167947769165,0.0013524177484214306
0.013199999557400588,0.15941563248634338,0.001545579289086163
0.01359999987471383,0.15941432118415833,0.0017387298867106438
0.014000000192027073,0.15941286087036133,0.0019318695412948728
0.014399999599845614,0.1594112366437912,0.0021249980200082064
0.014799999917158857,0.15940944850444794,0.002318114973604679
0.0152000002344721,0.15940752625465393,0.002511220285668969
0.015600000551785342,0.1594054400920868,0.002704313723370433
0.015999999959603883,0.15940319001674652,0.00289739528670907
0.016399999367422424,0.1594008058309555,0.0030904647428542376
0.01680000059423037,0.15939825773239136,0.0032835218589752913
0.01720000000204891,0.15939554572105408,0.0034765664022415876
0.01759999940986745,0.15939268469810486,0.003669598139822483
0.018000000636675395,0.1593896746635437,0.003862616838887334
0.018400000044493936,0.1593865156173706,0.00405562249943614
0.018799999452312477,0.15938319265842438,0.004248615354299545
0.01920000067912042,0.15937970578670502,0.004441594239324331
0.019600000086938962,0.1593760848045349,0.004634559620171785
0.019999999494757503,0.15937229990959167,0.00482751103118062
0.020400000721565448,0.1593683660030365,0.005020448472350836
0.02080000012938399,0.1593642681837082,0.005213371478021145
0.02119999953720253,0.15936002135276794,0.005406280513852835
0.021600000764010474,0.15935561060905457,0.005599174648523331
0.022000000171829015,0.15935106575489044,0.00579205434769392
0.022399999579647556,0.15934635698795319,0.005984918680042028
0.0228000008064555,0.1593414843082428,0.006177768111228943
0.02320000021427404,0.15933646261692047,0.006370601709932089
0.023599999622092582,0.1593312919139862,0.006563420407474041
0.024000000848900527,0.1593259572982788,0.006756222806870937
0.024400000256719068,0.15932048857212067,0.0069490098394453526
0.02479999966453761,0.1593148410320282,0.007141780573874712
0.025200000891345553,0.15930905938148499,0.007334535010159016
0.025600000299164094,0.15930311381816864,0.0075272731482982635
0.025999999706982635,0.15929700434207916,0.007719994522631168
0.026399999114801176,0.15929076075553894,0.00791269913315773
0.02680000034160912,0.15928435325622559,0.008105386048555374
0.02719999974942766,0.1592777967453003,0.00829805713146925
0.027599999157246202,0.15927107632160187,0.008490709587931633
0.028000000384054147,0.1592642068862915,0.008683345280587673
0.028399999791872688,0.159257173538208,0.008875962346792221
0.02879999919969123,0.15925000607967377,0.009068562649190426
0.029200000426499173,0.1592426747083664,0.009261144325137138
0.029599999834317714,0.1592351794242859,0.009453707374632359
0.029999999242136255,0.23667322099208832,0.009691689163446426
0.0304000004689442,0.31411102414131165,0.010026519186794758
0.030800001695752144,0.3141028583049774,0.010406759567558765
0.031200001103570685,0.3140943646430969,0.01078697107732296
0.031600000511389226,0.31408560276031494,0.011167153716087341
0.03199999991920777,0.3140765130519867,0.01154730748385191
0.03239999932702631,0.31406712532043457,0.01192743144929409
0.03279999873484485,0.3140574097633362,0.012307525612413883
0.0332000017806422,0.3140474259853363,0.012687589041888714
0.03360000118846074,0.31403711438179016,0.013067622669041157
0.03400000059627928,0.31402650475502014,0.013447624631226063
0.03440000000409782,0.31401559710502625,0.013827594928443432
0.03479999941191636,0.31400439143180847,0.014207533560693264
0.0351999988197349,0.3139928877353668,0.014587439596652985
0.03559999822755344,0.3139810562133789,0.014967313036322594
0.03600000127335079,0.3139689266681671,0.015347154811024666
0.03640000068116933,0.31395649909973145,0.015726961195468903
0.03680000008898787,0.3139437735080719,0.016106735914945602
0.03719999949680641,0.3139307200908661,0.016486475244164467
0.037599998904624954,0.3139173984527588,0.016866181045770645
0.037999998312443495,0.3139037489891052,0.017245851457118988
0.03840000135824084,0.3138898015022278,0.017625488340854645
0.038800000766059384,0.3138755261898041,0.018005087971687317
0.039200000173877925,0.3138609826564789,0.018384652212262154
0.039599999581696466,0.3138461112976074,0.018764179199934006
0.03999999898951501,0.3138309717178345,0.019143670797348022
0.04039999839733355,0.31381550431251526,0.019523125141859055
0.040800001443130895,0.31379973888397217,0.019902542233467102
0.041200000850949436,0.3137836754322052,0.020281922072172165
0.04160000025876798,0.31376728415489197,0.020661262795329094
0.04199999966658652,0.31375059485435486,0.02104056626558304
0.04239999907440506,0.31373360753059387,0.02141983062028885
0.0427999984822236,0.313716322183609,0.021799055859446526
0.04320000152802095,0.31369873881340027,0.02217824012041092
0.04360000093583949,0.31368085741996765,0.022557387128472328
0.04400000034365803,0.31366264820098877,0.022936491295695305
0.04439999975147657,0.313644140958786,0.023315556347370148
0.04479999915929511,0.3136253356933594,0.023694580420851707
0.04519999856711365,0.31360623240470886,0.024073561653494835
0.045600001612911,0.3135868310928345,0.02445250377058983
0.04600000102072954,0.3135671019554138,0.02483140118420124
0.04640000042854808,0.3135471045970917,0.02521025761961937
0.046799999836366624,0.31352677941322327,0.025589071214199066
0.047199999244185165,0.313506156206131,0.02596784196794033
0.047599998652003706,0.3134852349758148,0.026346568018198013
0.048000001697801054,0.3134639859199524,0.026725251227617264
0.048400001105619594,0.3134424686431885,0.027103889733552933
0.048800000513438135,0.3134206235408783,0.02748248353600502
0.049199999921256676,0.31339848041534424,0.027861030772328377
0.04959999932907522,0.3133760690689087,0.0282395351678133
0.04999999873689376,0.3897881507873535,0.02866225130856037
0.050400001782691106,0.4661998748779297,0.029181694611907005
0.05080000119050965,0.466176301240921,0.02974534220993519
0.05120000059832819,0.46615228056907654,0.030308933928608894
0.05160000000614673,0.46612781286239624,0.030872469767928123
0.05199999941396527,0.46610286831855774,0.031435947865247726
0.05239999882178381,0.4660775065422058,0.0319993682205677
0.05279999822960235,0.46605169773101807,0.032562728971242905
0.0532000012753997,0.4660254120826721,0.03312603011727333
0.05360000068321824,0.46599867939949036,0.03368927538394928
0.05400000009103678,0.4659714996814728,0.034252457320690155
0.05439999949885532,0.4659438729286194,0.034815579652786255
0.054799998906673864,0.4659157991409302,0.03537864238023758
0.055199998314492404,0.46588727831840515,0.03594164177775383
0.05560000136028975,0.4658582806587219,0.036504581570625305
0.05600000076810829,0.46582886576652527,0.03706745803356171
0.056400000175926834,0.4657989740371704,0.037630267441272736
0.056799999583745375,0.4657686650753021,0.03819301724433899
0.057199998991563916,0.46573787927627563,0.03875569999217987
0.05759999839938246,0.46570664644241333,0.03931831941008568
0.058000001445179805,0.4656749665737152,0.03988087549805641
0.058400000852998346,0.4656428396701813,0.040443360805511475
0.05880000026081689,0.4656102657318115,0.041005782783031464
0.05919999966863543,0.46557721495628357,0.04156813770532608
0.05959999907645397,0.4655437469482422,0.042130425572395325
0.05999999848427251,0.465509831905365,0.0426926426589489
0.06040000153006986,0.4654754400253296,0.0432547926902771
0.0608000009378884,0.46544063091278076,0.04381687194108963
0.06120000034570694,0.46540534496307373,0.04437888413667679
0.06160000339150429,0.4653696119785309,0.044940825551748276
0.06199999916134402,0.4653334319591522,0.04550269618630409
0.06240000220714137,0.46529680490493774,0.04606449231505394
0.0627999979769811,0.46525973081588745,0.046626221388578415
0.06320000102277845,0.46522220969200134,0.04718787595629692
0.06359999679261819,0.4651842415332794,0.04774945601820946
0.06399999983841553,0.4651458263397217,0.04831096529960632
0.06440000288421288,0.46510693430900574,0.04887239634990692
0.06479999865405262,0.46506762504577637,0.04943375661969185
0.06520000169984996,0.4650278389453888,0.04999503865838051
0.0655999974696897,0.4649876356124878,0.0505562499165535
0.06600000051548705,0.4649469554424286,0.05111737921833992
0.0664000035612844,0.46490582823753357,0.051678434014320374
0.06679999933112413,0.4648642838001251,0.05223941430449486
0.06720000237692147,0.46482226252555847,0.052800312638282776
0.06759999814676121,0.464779794216156,0.053361136466264725
0.06800000119255856,0.4647368788719177,0.05392187833786011
0.06839999696239829,0.46469351649284363,0.05448254197835922
0.06880000000819564,0.4646497070789337,0.05504312366247177
0.06920000305399299,0.464605450630188,0.05560362711548805
0.06959999882383272,0.46456074714660645,0.05616404861211777
0.07000000186963007,0.5368195176124573,0.056763991713523865
0.0703999976394698,0.6090778112411499,0.05745992437005043
0.07080000068526715,0.6090315580368042,0.05819536745548248
0.07119999645510688,0.6089847087860107,0.058930717408657074
0.07159999950090423,0.6089372634887695,0.0596659779548645
0.07200000254670158,0.6088892221450806,0.06040114536881447
0.07239999831654131,0.6088405847549438,0.061136215925216675
0.07280000136233866,0.6087914109230042,0.06187119334936142
0.0731999971321784,0.6087415814399719,0.0626060739159584
0.07360000017797574,0.6086912155151367,0.06334085762500763
0.07400000322377309,0.6086402535438538,0.0640755444765091
0.07439999899361283,0.608588695526123,0.0648101344704628
0.07480000203941017,0.6085365414619446,0.06554462760686874
0.07519999780924991,0.6084838509559631,0.06627902388572693
0.07560000085504726,0.6084305047988892,0.06701331585645676
0.07599999662488699,0.6083766222000122,0.06774750351905823
0.07639999967068434,0.6083221435546875,0.06848159432411194
0.07680000271648169,0.608267068862915,0.06921558827161789
0.07719999848632142,0.6082113981246948,0.06994947046041489
0.07760000153211877,0.6081551313400269,0.07068325579166412
0.0779999973019585,0.6080982685089111,0.0714169293642044
0.07840000034775585,0.6080408692359924,0.07215050607919693
0.0788000033935532,0.6079828143119812,0.0728839710354805
0.07919999916339293,0.607924222946167,0.07361733913421631
0.07960000220919028,0.607865035533905,0.07435058802366257
0.07999999797903001,0.6078052520751953,0.07508374005556107
0.08040000102482736,0.6077448725700378,0.07581678032875061
0.0807999967946671,0.6076839566230774,0.0765497088432312
0.08119999984046444,0.6076223850250244,0.07728252559900284
0.08160000288626179,0.6075602769851685,0.07801523804664612
0.08199999865610152,0.6074975728988647,0.07874783873558044
0.08240000170189887,0.6074342727661133,0.07948032021522522
0.0827999974717386,0.6073704361915588,0.08021269738674164
0.08320000051753595,0.6073059439659119,0.0809449553489685
0.0836000035633333,0.6072409152984619,0.08167710155248642
0.08399999933317304,0.6071752905845642,0.08240913599729538
0.08440000237897038,0.6071090698242188,0.08314105123281479
0.08479999814881012,0.6070422530174255,0.08387285470962524
0.08520000119460747,0.6069748401641846,0.08460453897714615
0.0855999969644472,0.6069068908691406,0.0853361040353775
0.08600000001024455,0.6068383455276489,0.0860675498843193
0.0864000030560419,0.6067691445350647,0.08679888397455215
0.08679999882588163,0.6066994667053223,0.08753009140491486
0.08720000187167898,0.6066291332244873,0.088261179625988
0.08759999764151871,0.6065582036972046,0.0889921486377716
0.08800000068731606,0.6064867377281189,0.08972299098968506
0.0883999964571558,0.6064146757125854,0.09045372158288956
0.08879999950295314,0.6063420176506042,0.09118431806564331
0.08920000254875049,0.6062687635421753,0.09191479533910751
0.08959999831859022,0.6061949729919434,0.09264514595270157
0.09000000136438757,0.6748231053352356,0.09341113269329071
0.0903999971342273,0.7434506416320801,0.09427202492952347
0.09080000018002465,0.7433748245239258,0.09516853839159012
0.091200003225822,0.743298351764679,0.09606491774320602
0.09159999899566174,0.7432211637496948,0.09696115553379059
0.09200000204145908,0.7431432008743286,0.09785725921392441
0.09239999781129882,0.7430645823478699,0.09875322878360748
0.09280000085709617,0.742985188961029,0.09964904934167862
0.0931999966269359,0.7429051399230957,0.10054473578929901
0.09359999967273325,0.7428243160247803,0.10144028812646866
0.0940000027185306,0.7427428364753723,0.10233569145202637
0.09439999848837033,0.7426605820655823,0.10323095321655273
0.09480000153416768,0.7425776720046997,0.10412606596946716
0.09519999730400741,0.7424939870834351,0.10502103716135025
0.09560000034980476,0.7424096465110779,0.105915866792202
0.09600000339560211,0.7423245310783386,0.1068105474114418
0.09639999916544184,0.7422387003898621,0.10770508646965027
0.09680000221123919,0.742152214050293,0.1085994765162468
0.09719999798107892,0.7420649528503418,0.10949371010065079
0.09760000102687627,0.7419770359992981,0.11038780212402344
0.097999996796716,0.7418883442878723,0.11128173768520355
0.09839999984251335,0.7417989373207092,0.11217552423477173
0.0988000028883107,0.7417088747024536,0.11306916177272797
0.09919999865815043,0.7416180372238159,0.11396264284849167
0.09960000170394778,0.7415265440940857,0.11485597491264343
0.09999999747378752,0.7414342761039734,0.11574914306402206
0.10040000051958486,0.7413412928581238,0.11664216220378876
0.10080000356538221,0.7412476539611816,0.11753502488136292
0.10119999933522195,0.7411532402038574,0.11842773109674454
0.1016000023810193,0.7410581707954407,0.11932027339935303
0.10199999815085903,0.7409623265266418,0.12021265923976898
0.10240000119665638,0.7408658266067505,0.1211048886179924
0.10279999696649611,0.7407686114311218,0.12199695408344269
0.10320000001229346,0.7406706213951111,0.12288886308670044
0.1036000030580908,0.7405719757080078,0.12378060817718506
0.10399999882793054,0.7404725551605225,0.12467218190431595
0.10440000187372789,0.7403724789619446,0.1255636066198349
0.10479999764356762,0.7402716875076294,0.12645484507083893
0.10520000068936497,0.7401701807975769,0.12734593451023102
0.1055999964592047,0.7400678992271423,0.12823686003684998
0.10599999950500205,0.7399649620056152,0.1291276067495346
0.1064000025507994,0.7398613095283508,0.1300181895494461
0.10679999832063913,0.7397569417953491,0.13090859353542328
0.10720000136643648,0.7396518588066101,0.1317988485097885
0.10759999713627622,0.7395460605621338,0.13268890976905823
0.10800000018207356,0.7394395470619202,0.1335788071155548
0.10840000322787091,0.7393323183059692,0.13446854054927826
0.10879999899771065,0.7392244338989258,0.13535809516906738
0.109200002043508,0.7391157746315002,0.13624747097492218
0.10959999781334773,0.7390064001083374,0.13713668286800385
0.11000000085914508,0.8044028282165527,0.13805821537971497
0.11039999662898481,0.8697984218597412,0.13907335698604584
0.11079999967478216,0.8696867227554321,0.14012081921100616
0.1112000027205795,0.869574248790741,0.14116810262203217
0.11159999849041924,0.8694608807563782,0.14221519231796265
0.11200000153621659,0.8693466782569885,0.1432620882987976
0.11239999730605632,0.869231641292572,0.14430880546569824
0.11280000035185367,0.8691157698631287,0.14535532891750336
0.11320000339765102,0.8689990639686584,0.14640165865421295
0.11359999916749075,0.8688815236091614,0.14744779467582703
0.1140000022132881,0.8687631487846375,0.14849373698234558
0.11439999798312783,0.8686439394950867,0.14953948557376862
0.11480000102892518,0.868523895740509,0.15058504045009613
0.11519999679876491,0.8684030175209045,0.15163040161132812
0.11559999984456226,0.8682813048362732,0.1526755541563034
0.11600000289035961,0.868158757686615,0.15372051298618317
0.11639999866019934,0.8680353164672852,0.1547652781009674
0.11680000170599669,0.8679111003875732,0.15580983459949493
0.11719999747583643,0.8677860498428345,0.15685419738292694
0.11760000052163377,0.8676601648330688,0.15789835155010223
0.11800000356743112,0.8675333857536316,0.1589422971010208
0.11839999933727086,0.8674058318138123,0.15998604893684387
0.1188000023830682,0.8672774434089661,0.16102959215641022
0.11919999815290794,0.8671481609344482,0.16207292675971985
0.11960000119870529,0.8670181035995483,0.16311605274677277
0.11999999696854502,0.8668872117996216,0.16415897011756897
0.12040000001434237,0.866755485534668,0.16520167887210846
0.12080000306013972,0.8666228652000427,0.16624417901039124
0.12119999882997945,0.8664894700050354,0.1672864556312561
0.1216000018757768,0.8663552403450012,0.16832853853702545
0.12199999764561653,0.8662201762199402,0.1693703979253769
0.12240000069141388,0.8660842180252075,0.17041203379631042
0.12280000373721123,0.8659474849700928,0.17145346105098724
0.12320000678300858,0.8658099174499512,0.17249467968940735
0.1235999952768907,0.8656715154647827,0.17353567481040955
0.12399999832268804,0.8655322790145874,0.17457644641399384
0.12440000136848539,0.8653922080993652,0.1756170094013214
0.12480000441428274,0.8652512431144714,0.17665733397006989
0.12519999290816486,0.8651095032691956,0.17769744992256165
0.1255999959539622,0.8649669289588928,0.1787373423576355
0.12599999899975955,0.8648235201835632,0.17977701127529144
0.1264000020455569,0.8646793365478516,0.18081645667552948
0.12680000509135425,0.8645342588424683,0.18185566365718842
0.12719999358523637,0.8643883466720581,0.18289466202259064
0.12759999663103372,0.8642416000366211,0.18393342196941376
0.12799999967683107,0.8640940189361572,0.18497195839881897
0.12840000272262841,0.8639456629753113,0.18601025640964508
0.12880000576842576,0.8637964129447937,0.18704833090305328
0.12919999426230788,0.863646388053894,0.18808616697788239
0.12959999730810523,0.8634954690933228,0.18912377953529358
0.13000000035390258,0.9260410070419312,0.19019092619419098
0.13040000339969993,0.9885856509208679,0.1913502812385559
0.13080000644549727,0.9884320497512817,0.19253917038440704
0.1311999949393794,0.9882775545120239,0.19372780621051788
0.13159999798517674,0.9881221055984497,0.19491620361804962
0.1320000010309741,0.9879657030105591,0.19610434770584106
0.13240000407677144,0.987808346748352,0.1972922533750534
0.1328000071225688,0.9876500368118286,0.19847990572452545
0.1331999956164509,0.9874907732009888,0.1996673047542572
0.13359999866224825,0.9873305559158325,0.20085446536540985
0.1340000017080456,0.9871693849563599,0.202041357755661
0.13440000475384295,0.9870073199272156,0.20322801172733307
0.13479999324772507,0.9868442416191101,0.20441439747810364
0.13519999629352242,0.9866802096366882,0.2056005299091339
0.13559999933931977,0.9865152835845947,0.2067864090204239
0.1360000023851171,0.9863494038581848,0.20797203481197357
0.13640000543091446,0.9861825108528137,0.20915739238262177
0.13679999392479658,0.986014723777771,0.21034249663352966
0.13719999697059393,0.9858459830284119,0.21152733266353607
0.13760000001639128,0.9856762886047363,0.21271191537380219
0.13800000306218863,0.9855056405067444,0.2138962298631668
0.13840000610798597,0.985334038734436,0.21508027613162994
0.1387999946018681,0.9851614832878113,0.21626406908035278
0.13919999764766544,0.9849880337715149,0.21744757890701294
