time[s],iL[A],v out[V]
0.0,0.0,0.0
0.00040000000467443897,0.0,0.0
0.0008000000093488779,0.0,0.0
0.0012000000424450263,0.0,0.0
0.0016000000186977559,0.0,0.0
0.0019999999949504854,0.0,0.0
0.0024000000848900527,0.0,0.0
0.0027999999474559445,0.0,0.0
0.0032000000373955118,0.0,0.0
0.0035999998999614036,0.0,0.0
0.003999999989900971,0.0,0.0
0.004399999852466863,0.0,0.0
0.004800000169780105,0.0,0.0
0.005200000032345997,0.0,0.0
0.005599999894911889,0.0,0.0
0.006000000212225132,0.0,0.0
0.0064000000747910235,0.0,0.0
0.006799999937356915,0.0,0.0
0.007199999799922807,0.0,0.0
0.00760000011723605,0.0,0.0
0.007999999979801942,0.0,0.0
0.008400000297115184,0.0,0.0
0.008799999704933725,0.0,0.0
0.009200000022246968,0.0,0.0
0.00960000033956021,0.017915112897753716,2.4314401798619656e-06
0.009999999747378752,0.09791509062051773,7.263013685587794e-05
0.010400000064691994,0.17791497707366943,0.00023979270190466195
0.010800000382005237,0.19582979381084442,0.0004747136263176799
0.011199999789823778,0.19582931697368622,0.0007120540249161422
0.01160000010713702,0.1958286613225937,0.0009493822581134737
0.012000000424450263,0.19582781195640564,0.0011866980930790305
0.012399999832268804,0.19582675397396088,0.0014240011805668473
0.012800000149582047,0.19582553207874298,0.0016612914623692632
0.013199999557400588,0.19582410156726837,0.0018985685892403126
0.01359999987471383,0.19582249224185944,0.002135832328349352
0.014000000192027073,0.19582068920135498,0.0023730825632810593
0.014399999599845614,0.195818692445755,0.002610319061204791
0.014799999917158857,0.1958165019750595,0.00284754135645926
0.0152000002344721,0.1958141326904297,0.003084749449044466
0.015600000551785342,0.19581156969070435,0.0033219431061297655
0.015999999959603883,0.19580882787704468,0.003559121862053871
0.016399999367422424,0.1958058774471283,0.0037962859496474266
0.01680000059423037,0.1958027482032776,0.004033434670418501
0.01720000000204891,0.19579942524433136,0.004270568024367094
0.01759999940986745,0.1957959085702896,0.004507685545831919
0.018000000636675395,0.19579221308231354,0.004744787700474262
0.018400000044493936,0.19578832387924194,0.00498187355697155
0.018799999452312477,0.19578424096107483,0.005218942649662495
0.01920000067912042,0.1957799792289734,0.005455995909869671
0.019600000086938962,0.19577550888061523,0.005693031940609217
0.019999999494757503,0.19577085971832275,0.005930050741881132
0.020400000721565448,0.19576601684093475,0.0061670527793467045
0.02080000012938399,0.19576099514961243,0.006404037121683359
0.02119999953720253,0.19575577974319458,0.006641003768891096
0.021600000764010474,0.1957503706216812,0.006877952255308628
0.022000000171829015,0.19574476778507233,0.007114883046597242
0.022399999579647556,0.1957389861345291,0.007351795211434364
0.0228000008064555,0.19573301076889038,0.007588688749819994
0.02320000021427404,0.19572684168815613,0.007825563661754131
0.023599999622092582,0.19572047889232635,0.008062419481575489
0.024000000848900527,0.19571393728256226,0.00829925574362278
0.024400000256719068,0.19570720195770264,0.008536072447896004
0.02479999966453761,0.1957002878189087,0.00877286959439516
0.025200000891345553,0.19569316506385803,0.009009646251797676
0.025600000299164094,0.19568586349487305,0.009246403351426125
0.025999999706982635,0.19567838311195374,0.009483139961957932
0.026399999114801176,0.1956706941127777,0.009719855152070522
0.02680000034160912,0.19566282629966736,0.009956549853086472
0.02719999974942766,0.1956547647714615,0.01019322406500578
0.027599999157246202,0.1956465095281601,0.010429875925183296
0.028000000384054147,0.19563807547092438,0.010666507296264172
0.028399999791872688,0.19562944769859314,0.010903116315603256
0.02879999919969123,0.19562062621116638,0.01113970298320055
0.029200000426499173,0.1956116259098053,0.011376267299056053
0.029599999834317714,0.21189528703689575,0.011614820919930935
0.029999999242136255,0.2918858826160431,0.011919572949409485
0.0304000004689442,0.37187618017196655,0.012321265414357185
0.030800001695752144,0.38815900683403015,0.012789147906005383
0.031200001103570685,0.38814857602119446,0.01325900573283434
0.031600000511389226,0.3881377875804901,0.01372882816940546
0.03199999991920777,0.3881266117095947,0.014198614284396172
0.03239999932702631,0.3881150782108307,0.014668364077806473
0.03279999873484485,0.3881031274795532,0.01513807661831379
0.0332000017806422,0.3880908489227295,0.015607751905918121
0.03360000118846074,0.3880781829357147,0.01607738994061947
0.03400000059627928,0.3880651295185089,0.016546988859772682
0.03440000000409782,0.38805168867111206,0.017016548663377762
0.03479999941191636,0.38803789019584656,0.017486069351434708
0.0351999988197349,0.38802370429039,0.01795555092394352
0.03559999822755344,0.3880091607570648,0.01842499151825905
0.03600000127335079,0.3879942297935486,0.018894392997026443
0.03640000068116933,0.3879789412021637,0.019363751634955406
0.03680000008898787,0.38796326518058777,0.019833069294691086
0.03719999949680641,0.3879472017288208,0.020302345976233482
0.037599998904624954,0.3879307806491852,0.020771577954292297
0.037999998312443495,0.3879139721393585,0.02124076895415783
0.03840000135824084,0.3878967761993408,0.02170991525053978
0.038800000766059384,0.38787922263145447,0.022179018706083298
0.039200000173877925,0.38786131143569946,0.022648079320788383
0.039599999581696466,0.38784298300743103,0.02311709336936474
0.03999999898951501,0.38782429695129395,0.023586062714457512
0.04039999839733355,0.3878052532672882,0.024054985493421555
0.040800001443130895,0.38778582215309143,0.024523863568902016
0.041200000850949436,0.3877660036087036,0.024992695078253746
0.04160000025876798,0.38774582743644714,0.025461478158831596
0.04199999966658652,0.38772526383399963,0.025930216535925865
0.04239999907440506,0.38770434260368347,0.026398904621601105
0.0427999984822236,0.38768303394317627,0.026867544278502464
0.04320000152802095,0.387661337852478,0.027336137369275093
0.04360000093583949,0.38763928413391113,0.027804678305983543
0.04400000034365803,0.3876168429851532,0.028273172676563263
0.04439999975147657,0.3875940442085266,0.028741614893078804
0.04479999915929511,0.387570858001709,0.029210006818175316
0.04519999856711365,0.3875473141670227,0.0296783484518528
0.045600001612911,0.3875233829021454,0.030146637931466103
0.04600000102072954,0.3874990940093994,0.03061487525701523
0.04640000042854808,0.38747438788414,0.031083060428500175
0.046799999836366624,0.38744935393333435,0.031551193445920944
0.047199999244185165,0.38742393255233765,0.032019272446632385
0.047599998652003706,0.3873981237411499,0.03248729556798935
0.048000001697801054,0.3873719274997711,0.032955266535282135
0.048400001105619594,0.3873453736305237,0.03342318534851074
0.048800000513438135,0.3873184621334076,0.033891044557094574
0.049199999921256676,0.38729116320610046,0.03435885161161423
0.04959999932907522,0.4035733938217163,0.03482861816883087
0.04999999873689376,0.48354530334472656,0.03536456450819969
0.050400001782691106,0.5635167956352234,0.0359974168241024
0.05080000119050965,0.579797625541687,0.03669644147157669
0.05120000059832819,0.5797679424285889,0.037397414445877075
0.05160000000614673,0.5797377824783325,0.03809831291437149
0.05199999941396527,0.5797070264816284,0.03879914432764053
0.05239999882178381,0.5796756744384766,0.03949990123510361
0.05279999822960235,0.5796437859535217,0.04020058736205101
0.0532000012753997,0.5796113610267639,0.040901198983192444
0.05360000068321824,0.5795783400535583,0.04160173982381821
0.05400000009103678,0.5795447826385498,0.0423022024333477
0.05439999949885532,0.5795106887817383,0.043002594262361526
0.054799998906673864,0.579475998878479,0.04370290786027908
0.055199998314492404,0.5794407725334167,0.04440314695239067
0.05560000136028975,0.5794049501419067,0.04510330781340599
0.05600000076810829,0.5793685913085938,0.04580339044332504
0.056400000175926834,0.5793316960334778,0.04650339484214783
0.056799999583745375,0.5792942047119141,0.047203321009874344
0.057199998991563916,0.5792561173439026,0.04790316894650459
0.05759999839938246,0.5792175531387329,0.048602934926748276
0.058000001445179805,0.5791783928871155,0.04930261895060539
0.058400000852998346,0.5791386365890503,0.05000222101807594
0.05880000026081689,0.5790984034538269,0.05070174112915993
0.05919999966863543,0.579057514667511,0.051401179283857346
0.05959999907645397,0.5790161490440369,0.0521005317568779
0.05999999848427251,0.578974187374115,0.05279980227351189
0.06040000153006986,0.5789316892623901,0.05349898710846901
0.0608000009378884,0.5788885951042175,0.05419808626174927
0.06120000034570694,0.5788449645042419,0.05489709600806236
0.06160000339150429,0.5788007378578186,0.05559602007269859
0.06199999916134402,0.5787559747695923,0.05629485845565796
0.06240000220714137,0.578710675239563,0.05699360743165016
0.0627999979769811,0.5786647796630859,0.0576922670006752
0.06320000102277845,0.5786183476448059,0.05839083716273308
0.06359999679261819,0.5785713791847229,0.05908931419253349
0.06399999983841553,0.5785238146781921,0.05978770554065704
0.06440000288421288,0.5784757137298584,0.060486000031232834
0.06479999865405262,0.5784270763397217,0.06118420511484146
0.06520000169984996,0.5783778429031372,0.06188231334090233
0.0655999974696897,0.578328013420105,0.06258033215999603
0.06600000051548705,0.5782777070999146,0.06327825039625168
0.0664000035612844,0.5782268047332764,0.06397607922554016
0.06679999933112413,0.5781753659248352,0.06467381119728088
0.06720000237692147,0.5781233310699463,0.06537144631147385
0.06759999814676121,0.5780707597732544,0.06606898456811905
0.06800000119255856,0.5780175924301147,0.0667664185166359
0.06839999696239829,0.5779638886451721,0.06746376305818558
0.06880000000819564,0.5779096484184265,0.0681610032916069
0.06920000305399299,0.5778548717498779,0.06885814666748047
0.06959999882383272,0.5949655771255493,0.06955742090940475
0.07000000186963007,0.6749095916748047,0.0703236535191536
0.0703999976394698,0.7548530101776123,0.07118674367666245
0.07080000068526715,0.7719617486000061,0.07211678475141525
0.07119999645510688,0.7719036936759949,0.07304894179105759
0.07159999950090423,0.7718448638916016,0.07398097962141037
0.07200000254670158,0.771785318851471,0.0749129056930542
0.07239999831654131,0.7717249989509583,0.07584471255540848
0.07280000136233866,0.7716639637947083,0.0767764002084732
0.0731999971321784,0.7716021537780762,0.07770796865224838
0.07360000017797574,0.7715396285057068,0.07863941043615341
0.07400000322377309,0.7714763283729553,0.07957074046134949
0.07439999899361283,0.7714123129844666,0.08050194382667542
0.07480000203941017,0.7713475227355957,0.0814330205321312
0.07519999780924991,0.7712820172309875,0.08236397802829742
0.07560000085504726,0.7712157368659973,0.0832948088645935
0.07599999662488699,0.7711487412452698,0.08422551304101944
0.07639999967068434,0.7710810303688049,0.08515609800815582
0.07680000271648169,0.7710124850273132,0.08608654886484146
0.07719999848632142,0.770943284034729,0.08701686561107635
0.07760000153211877,0.7708732485771179,0.0879470631480217
0.0779999973019585,0.7708025574684143,0.0888771265745163
0.07840000034775585,0.7707310914993286,0.08980705589056015
0.0788000033935532,0.7706588506698608,0.09073685109615326
0.07919999916339293,0.7705858945846558,0.09166651964187622
0.07960000220919028,0.7705121636390686,0.09259605407714844
0.07999999797903001,0.7704377174377441,0.09352544695138931
0.08040000102482736,0.7703624963760376,0.09445470571517944
0.0807999967946671,0.7702866196632385,0.09538383036851883
0.08119999984046444,0.7702099084854126,0.09631282091140747
0.08160000288626179,0.7701324820518494,0.09724166989326477
0.08199999865610152,0.7700543403625488,0.09817037731409073
0.08240000170189887,0.7699754238128662,0.09909895062446594
0.0827999974717386,0.7698957920074463,0.10002737492322922
0.08320000051753595,0.7698153853416443,0.10095565766096115
0.0836000035633333,0.769734263420105,0.10188380628824234
0.08399999933317304,0.7696523666381836,0.10281180590391159
0.08440000237897038,0.7695697546005249,0.1037396565079689
0.08479999814881012,0.7694863677024841,0.10466736555099487
0.08520000119460747,0.769402265548706,0.1055949330329895
0.0855999969644472,0.7693174481391907,0.1065223440527916
0.08600000001024455,0.7692318558692932,0.10744961351156235
0.0864000030560419,0.7691454887390137,0.10837672650814056
0.08679999882588163,0.7690584063529968,0.10930369794368744
0.08720000187167898,0.7689706087112427,0.11023051291704178
0.08759999764151871,0.7688820362091064,0.11115717887878418
0.08800000068731606,0.7687927484512329,0.11208368837833405
0.0883999964571558,0.7687027454376221,0.11301004886627197
0.08879999950295314,0.7686119675636292,0.11393625289201736
0.08920000254875049,0.7685204148292542,0.11486230045557022
0.08959999831859022,0.786071240901947,0.11579055339097977
0.09000000136438757,0.8659782409667969,0.1167861595749855
0.0903999971342273,0.9458843469619751,0.11787857115268707
0.09080000018002465,0.9634326696395874,0.11903832107782364
0.091200003225822,0.9633370041847229,0.1202002614736557
0.09159999899566174,0.963240385055542,0.12136203050613403
0.09200000204145908,0.9631428122520447,0.12252362072467804
0.09239999781129882,0.9630443453788757,0.12368503957986832
0.09280000085709617,0.9629449248313904,0.12484627962112427
0.0931999966269359,0.9628445506095886,0.1260073482990265
0.09359999967273325,0.9627432823181152,0.1271682232618332
0.0940000027185306,0.9626411199569702,0.12832893431186676
0.09439999848837033,0.962537944316864,0.129489466547966
0.09480000153416768,0.962433934211731,0.13064980506896973
0.09519999730400741,0.9623289108276367,0.13180996477603912
0.09560000034980476,0.9622229933738708,0.1329699456691742
0.09600000339560211,0.9621161818504333,0.13412973284721375
0.09639999916544184,0.9620084166526794,0.13528934121131897
0.09680000221123919,0.9618996977806091,0.13644875586032867
0.09719999798107892,0.9617900848388672,0.13760797679424286
0.09760000102687627,0.9616795182228088,0.13876701891422272
0.097999996796716,0.9615680575370789,0.13992586731910706
0.09839999984251335,0.9614556431770325,0.14108452200889587
0.0988000028883107,0.9613423347473145,0.14224299788475037
0.09919999865815043,0.96122807264328,0.14340126514434814
0.09960000170394778,0.9611128568649292,0.1445593386888504
0.09999999747378752,0.9609967470169067,0.14571721851825714
0.10040000051958486,0.9608796834945679,0.14687490463256836
0.10080000356538221,0.9607617259025574,0.14803238213062286
0.10119999933522195,0.9606428742408752,0.14918966591358185
0.1016000023810193,0.9605230689048767,0.15034674108028412
0.10199999815085903,0.9604023098945618,0.15150362253189087
0.10240000119665638,0.9602806568145752,0.1526602953672409
0.10279999696649611,0.9601580500602722,0.15381677448749542
0.10320000001229346,0.9600345492362976,0.15497304499149323
0.1036000030580908,0.9599100947380066,0.15612910687923431
0.10399999882793054,0.959784746170044,0.1572849601507187
0.10440000187372789,0.9596584439277649,0.15844060480594635
0.10479999764356762,0.9595312476158142,0.1595960408449173
0.10520000068936497,0.9594030976295471,0.16075126826763153
0.1055999964592047,0.9592739939689636,0.16190627217292786
0.10599999950500205,0.9591440558433533,0.16306106746196747
0.1064000025507994,0.9590131044387817,0.16421565413475037
0.10679999832063913,0.9588812589645386,0.16537003219127655
0.10720000136643648,0.9587485194206238,0.16652418673038483
0.10759999713627622,0.9586148262023926,0.1676781177520752
0.10800000018207356,0.9584802389144897,0.16883184015750885
0.10840000322787091,0.9583446979522705,0.1699853390455246
0.10879999899771065,0.9582082629203796,0.17113861441612244
0.109200002043508,0.9580708742141724,0.17229166626930237
0.10959999781334773,0.9765293002128601,0.1734471172094345
0.11000000085914508,1.0563900470733643,0.1746707558631897
0.11039999662898481,1.1362497806549072,0.17599113285541534
0.11079999967478216,1.1547051668167114,0.17737966775894165
0.1112000027205795,1.1545627117156982,0.17877058684825897
0.11159999849041924,1.1544190645217896,0.1801612675189972
0.11200000153621659,1.1542744636535645,0.1815517097711563
0.11239999730605632,1.1541286706924438,0.18294191360473633
0.11280000035185367,1.1539816856384277,0.18433186411857605
0.11320000339765102,1.1538337469100952,0.18572156131267548
0.11359999916749075,1.1536846160888672,0.1871110200881958
0.1140000022132881,1.1535342931747437,0.18850024044513702
0.11439999798312783,1.1533830165863037,0.18988919258117676
0.11480000102892518,1.1532305479049683,0.1912779062986374
0.11519999679876491,1.1530768871307373,0.19266635179519653
0.11559999984456226,1.15292227268219,0.19405455887317657
0.11600000289035961,1.152766466140747,0.19544249773025513
0.11639999866019934,1.1526094675064087,0.19683018326759338
0.11680000170599669,1.152451515197754,0.19821761548519135
0.11719999747583643,1.1522923707962036,0.19960477948188782
0.11760000052163377,1.1521321535110474,0.200991690158844
0.11800000356743112,1.1519707441329956,0.20237834751605988
0.11839999933727086,1.1518083810806274,0.20376472175121307
0.1188000023830682,1.1516447067260742,0.20515084266662598
0.11919999815290794,1.1514800786972046,0.2065366953611374
0.11960000119870529,1.1513142585754395,0.20792227983474731
0.11999999696854502,1.1511473655700684,0.20930759608745575
0.12040000001434237,1.1509793996810913,0.2106926441192627
0.12080000306013972,1.1508102416992188,0.21207742393016815
0.12119999882997945,1.1506400108337402,0.21346192061901093
0.1216000018757768,1.1504687070846558,0.2148461490869522
0.12199999764561653,1.1502963304519653,0.2162300944328308
0.12240000069141388,1.1501227617263794,0.21761377155780792
0.12280000373721123,1.1499481201171875,0.21899718046188354
0.12320000678300858,1.1497724056243896,0.2203802913427353
0.1235999952768907,1.1495954990386963,0.22176313400268555
0.12399999832268804,1.149417519569397,0.22314569354057312
0.12440000136848539,1.1492384672164917,0.22452795505523682
0.12480000441428274,1.1490583419799805,0.22590994834899902
0.12519999290816486,1.1488770246505737,0.22729164361953735
0.1255999959539622,1.148694634437561,0.228673055768013
0.12599999899975955,1.1485111713409424,0.23005418479442596
0.1264000020455569,1.1483265161514282,0.23143501579761505
0.12680000509135425,1.148140788078308,0.23281556367874146
0.12719999358523637,1.147953987121582,0.23419581353664398
0.12759999663103372,1.14776611328125,0.23557578027248383
0.12799999967683107,1.147577166557312,0.2369554340839386
0.12840000272262841,1.1473870277404785,0.2383348047733307
0.12880000576842576,1.147195816040039,0.2397138774394989
0.12919999426230788,1.147003412246704,0.24109263718128204
0.12959999730810523,1.166252851486206,0.24247397482395172
0.13000000035390258,1.2460583448410034,0.24392418563365936
0.13040000339969993,1.3258625268936157,0.2454710602760315
0.13080000644549727,1.3451083898544312,0.2470868080854416
0.1311999949393794,1.3449100255966187,0.24870510399341583
0.13159999798517674,1.3447104692459106,0.250323086977005
0.1320000010309741,1.3445096015930176,0.2519407272338867
0.13240000407677144,1.34430730342865,0.25355806946754456
0.1328000071225688,1.3441038131713867,0.25517508387565613
0.1331999956164509,1.3438990116119385,0.25679177045822144
0.13359999866224825,1.3436930179595947,0.2584080994129181
0.1340000017080456,1.3434855937957764,0.26002413034439087
0.13440000475384295,1.3432769775390625,0.2616398334503174
0.13479999324772507,1.343066930770874,0.26325517892837524
0.13519999629352242,1.34285569190979,0.26487022638320923
0.13559999933931977,1.342643141746521,0.26648491621017456
0.1360000023851171,1.3424293994903564,0.26809927821159363
0.13640000543091446,1.3422142267227173,0.26971328258514404
0.13679999392479658,1.3419978618621826,0.2713269591331482
0.13719999697059393,1.3417800664901733,0.2729403078556061
0.13760000001639128,1.3415610790252686,0.2745532989501953
0.13800000306218863,1.3413407802581787,0.2761659622192383
0.13840000610798597,1.3411192893981934,0.2777782678604126
0.1387999946018681,1.3408963680267334,0.27939021587371826
0.13919999764766544,1.340672254562378,0.28100183606147766
