time[s],iL[A],v out[V]
0.0,0.0,0.0
0.00040000000467443897,0.0,0.0
0.0008000000093488779,0.0,0.0
0.0012000000424450263,0.0,0.0
0.0016000000186977559,0.0,0.0
0.0019999999949504854,0.0,0.0
0.0024000000848900527,0.0,0.0
0.0027999999474559445,0.0,0.0
0.0032000000373955118,0.0,0.0
0.0035999998999614036,0.0,0.0
0.003999999989900971,0.0,0.0
0.004399999852466863,0.0,0.0
0.004800000169780105,0.0,0.0
0.005200000032345997,0.0,0.0
0.005599999894911889,0.0,0.0
0.006000000212225132,0.0,0.0
0.0064000000747910235,0.0,0.0
0.006799999937356915,0.0,0.0
0.007199999799922807,0.0,0.0
0.00760000011723605,0.0,0.0
0.007999999979801942,0.0,0.0
0.008400000297115184,0.0,0.0
0.008799999704933725,0.0,0.0
0.009200000022246968,0.0,0.0
0.00960000033956021,0.0,0.0
0.009999999747378752,0.06600730866193771,3.3006876037688926e-05
0.010400000064691994,0.13201455771923065,0.00016001293261069804
0.010800000382005237,0.13201436400413513,0.00032001882209442556
0.011199999789823778,0.13201403617858887,0.0004800166643690318
0.01160000010713702,0.13201358914375305,0.0006400062702596188
0.012000000424450263,0.13201302289962769,0.0007999875233508646
0.012399999832268804,0.13201230764389038,0.0009599602199159563
0.012800000149582047,0.13201148808002472,0.0011199242435395718
0.013199999557400588,0.13201051950454712,0.0012798793613910675
0.01359999987471383,0.13200943171977997,0.0014398255152627826
0.014000000192027073,0.13200822472572327,0.0015997625887393951
0.014399999599845614,0.13200686872005463,0.0017596903489902616
0.014799999917158857,0.13200540840625763,0.0019196085631847382
0.0152000002344721,0.1320037990808487,0.002079517114907503
0.015600000551785342,0.1320020705461502,0.0022394161205738783
0.015999999959603883,0.13200022280216217,0.0023993051145225763
0.016399999367422424,0.1319982409477234,0.0025591838639229536
0.01680000059423037,0.13199612498283386,0.0027190526016056538
0.01720000000204891,0.13199388980865479,0.0028789108619093895
0.01759999940986745,0.13199152052402496,0.003038758412003517
0.018000000636675395,0.1319890171289444,0.0031985954847186804
0.018400000044493936,0.13198639452457428,0.003358421614393592
0.018799999452312477,0.1319836527109146,0.0035182368010282516
0.01920000067912042,0.1319807767868042,0.003678040811792016
0.019600000086938962,0.13197776675224304,0.0038378334138542414
0.019999999494757503,0.13197463750839233,0.003997614607214928
0.020400000721565448,0.13197137415409088,0.004157384391874075
0.02080000012938399,0.13196799159049988,0.004317142069339752
0.02119999953720253,0.13196447491645813,0.004476888105273247
0.021600000764010474,0.13196082413196564,0.004636621568351984
0.022000000171829015,0.1319570541381836,0.004796343389898539
0.022399999579647556,0.1319531500339508,0.004956052638590336
0.0228000008064555,0.13194912672042847,0.0051157488487660885
0.02320000021427404,0.13194496929645538,0.005275432951748371
0.023599999622092582,0.13194067776203156,0.005435104016214609
0.024000000848900527,0.13193626701831818,0.0055947620421648026
0.024400000256719068,0.13193172216415405,0.005754407029598951
0.02479999966453761,0.13192705810070038,0.005914038512855768
0.025200000891345553,0.13192225992679596,0.006073656491935253
0.025600000299164094,0.131917342543602,0.006233260966837406
0.025999999706982635,0.13191229104995728,0.006392851937562227
0.026399999114801176,0.131907120347023,0.006552428472787142
0.02680000034160912,0.1319018006324768,0.006711991038173437
0.02719999974942766,0.13189637660980225,0.006871539633721113
0.027599999157246202,0.13189081847667694,0.0070310733281075954
0.028000000384054147,0.1318851262331009,0.0071905930526554585
0.028399999791872688,0.1318793147802353,0.007350097876042128
0.02879999919969123,0.13187336921691895,0.007509587798267603
0.029200000426499173,0.13186728954315186,0.007669062353670597
0.029599999834317714,0.13186109066009521,0.007828522473573685
0.029999999242136255,0.19680802524089813,0.008019927889108658
0.0304000004689442,0.2617547810077667,0.008304852992296219
0.030800001695752144,0.2617480158805847,0.008621716871857643
0.031200001103570685,0.2617409825325012,0.008938557468354702
0.031600000511389226,0.2617337107658386,0.00925537385046482
0.03199999991920777,0.26172617077827454,0.009572166018188
0.03239999932702631,0.26171839237213135,0.009888933040201664
0.03279999873484485,0.26171034574508667,0.010205675847828388
0.0332000017806422,0.2617020606994629,0.010522392578423023
0.03360000118846074,0.2616935074329376,0.010839084163308144
0.03400000059627928,0.26168471574783325,0.01115575060248375
0.03440000000409782,0.2616756558418274,0.011472390033304691
0.03479999941191636,0.26166635751724243,0.011789003387093544
0.0351999988197349,0.261656790971756,0.012105589732527733
0.03559999822755344,0.26164698600769043,0.012422148138284683
0.03600000127335079,0.2616369128227234,0.012738680467009544
0.03640000068116933,0.26162660121917725,0.013055184856057167
0.03680000008898787,0.2616160213947296,0.013371660374104977
0.03719999949680641,0.2616052031517029,0.013688107952475548
0.037599998904624954,0.26159414649009705,0.01400452759116888
0.037999998312443495,0.26158279180526733,0.014320917427539825
0.03840000135824084,0.2615712285041809,0.014637279324233532
0.038800000766059384,0.261559396982193,0.014953610487282276
0.039200000173877925,0.2615472972393036,0.015269911848008633
0.039599999581696466,0.2615349590778351,0.015586183406412601
0.03999999898951501,0.2615223526954651,0.015902424231171608
0.04039999839733355,0.261509507894516,0.016218634322285652
0.040800001443130895,0.2614963948726654,0.01653481461107731
0.041200000850949436,0.2614830434322357,0.01685096137225628
0.04160000025876798,0.26146945357322693,0.01716707833111286
0.04199999966658652,0.26145559549331665,0.017483161762356758
0.04239999907440506,0.2614414691925049,0.017799213528633118
0.0427999984822236,0.261427104473114,0.01811523362994194
0.04320000152802095,0.26141247153282166,0.018431220203638077
0.04360000093583949,0.2613976001739502,0.018747173249721527
0.04400000034365803,0.26138249039649963,0.01906309276819229
0.04439999975147657,0.2613671123981476,0.01937897875905037
0.04479999915929511,0.26135149598121643,0.01969483122229576
0.04519999856711365,0.2613356113433838,0.020010648295283318
0.045600001612911,0.26131945848464966,0.020326431840658188
0.04600000102072954,0.2613030672073364,0.020642179995775223
0.04640000042854808,0.2612864375114441,0.020957892760634422
0.046799999836366624,0.26126953959465027,0.021273568272590637
0.047199999244185165,0.26125240325927734,0.021589210256934166
0.047599998652003706,0.26123499870300293,0.02190481498837471
0.048000001697801054,0.2612173557281494,0.02222038246691227
0.048400001105619594,0.2611994445323944,0.022535914555191994
0.048800000513438135,0.2611812949180603,0.022851407527923584
0.049199999921256676,0.2611628770828247,0.02316686511039734
0.04959999932907522,0.26114422082901,0.02348228357732296
0.04999999873689376,0.3258800804615021,0.02382943034172058
0.050400001782691106,0.39061564207077026,0.024269983172416687
0.05080000119050965,0.39059603214263916,0.024742256850004196
0.05120000059832819,0.3905760645866394,0.025214483961462975
0.05160000000614673,0.3905557096004486,0.025686662644147873
0.05199999941396527,0.3905349671840668,0.02615879476070404
0.05239999882178381,0.3905138373374939,0.02663087658584118
0.05279999822960235,0.39049234986305237,0.027102911844849586
0.0532000012753997,0.3904704749584198,0.027574896812438965
0.05360000068321824,0.3904482424259186,0.028046833351254463
0.05400000009103678,0.39042559266090393,0.028518717736005783
0.05439999949885532,0.39040258526802063,0.028990553691983223
0.054799998906673864,0.3903792202472687,0.029462337493896484
0.055199998314492404,0.3903554677963257,0.029934071004390717
0.05560000136028975,0.39033132791519165,0.03040575049817562
0.05600000076810829,0.3903068006038666,0.030877379700541496
0.056400000175926834,0.39028191566467285,0.031348954886198044
0.056799999583745375,0.3902566432952881,0.031820476055145264
0.057199998991563916,0.39023101329803467,0.032291945070028305
0.05759999839938246,0.3902049958705902,0.03276336193084717
0.058000001445179805,0.3901785910129547,0.033234719187021255
0.058400000852998346,0.3901517987251282,0.033706024289131165
0.05880000026081689,0.390124648809433,0.0341772735118866
0.05919999966863543,0.39009711146354675,0.03464846685528755
0.05959999907645397,0.39006921648979187,0.03511960431933403
0.05999999848427251,0.39004093408584595,0.03559068590402603
0.06040000153006986,0.390012264251709,0.03606170788407326
0.0608000009378884,0.38998323678970337,0.036532673984766006
0.06120000034570694,0.3899538218975067,0.03700358048081398
0.06160000339150429,0.389924019575119,0.03747442737221718
0.06199999916134402,0.38989385962486267,0.0379452146589756
0.06240000220714137,0.3898633122444153,0.03841594606637955
0.0627999979769811,0.38983240723609924,0.03888661414384842
0.06320000102277845,0.3898010849952698,0.039357222616672516
0.06359999679261819,0.38976943492889404,0.03982776775956154
0.06399999983841553,0.3897373676300049,0.040298257023096085
0.06440000288421288,0.38970494270324707,0.04076867923140526
0.06479999865405262,0.3896721303462982,0.041239041835069656
0.06520000169984996,0.3896389603614807,0.04170934110879898
0.0655999974696897,0.38960540294647217,0.04217957705259323
0.06600000051548705,0.38957148790359497,0.04264974966645241
0.0664000035612844,0.38953715562820435,0.04311985522508621
0.06679999933112413,0.38950249552726746,0.04358989745378494
0.06720000237692147,0.38946741819381714,0.0440598763525486
0.06759999814676121,0.38943198323249817,0.044529788196086884
0.06800000119255856,0.38939619064331055,0.044999636709690094
0.06839999696239829,0.3893599808216095,0.04546941816806793
0.06880000000819564,0.3893234133720398,0.0459391288459301
0.06920000305399299,0.38928648829460144,0.04640877619385719
0.06959999882383272,0.38924917578697205,0.046878356486558914
0.07000000186963007,0.4525340795516968,0.04737824201583862
0.0703999976394698,0.5158185362815857,0.047970812767744064
0.07080000068526715,0.5157799124717712,0.048593681305646896
0.07119999645510688,0.5157408118247986,0.04921647533774376
0.07159999950090423,0.515701174736023,0.049839191138744354
0.07200000254670158,0.5156610608100891,0.05046182498335838
0.07239999831654131,0.5156204104423523,0.05108438432216644
0.07280000136233866,0.515579342842102,0.051706861704587936
0.0731999971321784,0.515537679195404,0.052329257130622864
0.07360000017797574,0.5154955983161926,0.05295157432556152
0.07400000322377309,0.5154529809951782,0.05357380956411362
0.07439999899361283,0.5154098868370056,0.054195962846279144
0.07480000203941017,0.51536625623703,0.054818034172058105
0.07519999780924991,0.5153221487998962,0.0554400198161602
0.07560000085504726,0.5152775645256042,0.05606192350387573
0.07599999662488699,0.5152324438095093,0.0566837415099144
0.07639999967068434,0.5151868462562561,0.0573054738342762
0.07680000271648169,0.5151407718658447,0.057927120476961136
0.07719999848632142,0.5150941610336304,0.05854868143796921
0.07760000153211877,0.5150470733642578,0.059170156717300415
0.0779999973019585,0.514999508857727,0.05979154258966446
0.07840000034775585,0.5149514079093933,0.06041284278035164
0.0788000033935532,0.5149028301239014,0.061034053564071655
0.07919999916339293,0.5148537755012512,0.06165517494082451
0.07960000220919028,0.5148041844367981,0.0622762031853199
0.07999999797903001,0.5147541165351868,0.06289714574813843
0.08040000102482736,0.5147035717964172,0.0635179951786995
0.0807999967946671,0.5146524906158447,0.0641387552022934
0.08119999984046444,0.514600932598114,0.06475941836833954
0.08160000288626179,0.5145488977432251,0.06537999212741852
0.08199999865610152,0.5144963264465332,0.06600046902894974
0.08240000170189887,0.5144432783126831,0.0666208565235138
0.0827999974717386,0.5143897533416748,0.06724114716053009
0.08320000051753595,0.5143356919288635,0.06786134093999863
0.0836000035633333,0.514281153678894,0.0684814378619194
0.08399999933317304,0.5142261385917664,0.06910143792629242
0.08440000237897038,0.5141705870628357,0.06972134858369827
0.08479999814881012,0.5141145586967468,0.07034115493297577
0.08520000119460747,0.5140580534934998,0.0709608644247055
0.0855999969644472,0.5140010118484497,0.07158046960830688
0.08600000001024455,0.5139434933662415,0.0721999853849411
0.0864000030560419,0.513885498046875,0.07281939685344696
0.08679999882588163,0.5138270258903503,0.07343870401382446
0.08720000187167898,0.5137680172920227,0.0740579143166542
0.08759999764151871,0.5137085318565369,0.07467702031135559
0.08800000068731606,0.513648509979248,0.07529602944850922
0.0883999964571558,0.513588011264801,0.07591492682695389
0.08879999950295314,0.5135270357131958,0.0765337273478508
0.08920000254875049,0.5134655833244324,0.07715242356061935
0.08959999831859022,0.513403594493866,0.07777100801467896
0.09000000136438757,0.5753446221351624,0.07841861993074417
0.0903999971342273,0.6372851133346558,0.07915817946195602
0.09080000018002465,0.6372214555740356,0.0799267515540123
0.091200003225822,0.6371572017669678,0.08069521188735962
0.09159999899566174,0.6370923519134521,0.08146355301141739
0.09200000204145908,0.6370269060134888,0.08223177492618561
0.09239999781129882,0.6369608044624329,0.08299988508224487
0.09280000085709617,0.6368941068649292,0.08376787602901459
0.0931999966269359,0.636826753616333,0.08453574776649475
0.09359999967273325,0.6367588043212891,0.08530350029468536
0.0940000027185306,0.6366902589797974,0.08607113361358643
0.09439999848837033,0.6366211175918579,0.08683864027261734
0.09480000153416768,0.6365513205528259,0.0876060351729393
0.09519999730400741,0.6364809274673462,0.08837330341339111
0.09560000034980476,0.6364099383354187,0.08914044499397278
0.09600000339560211,0.6363382935523987,0.08990746736526489
0.09639999916544184,0.6362660527229309,0.09067437052726746
0.09680000221123919,0.6361932158470154,0.09144113957881927
0.09719999798107892,0.6361197829246521,0.09220778942108154
0.09760000102687627,0.6360456943511963,0.09297430515289307
0.097999996796716,0.6359710097312927,0.09374070167541504
0.09839999984251335,0.6358957290649414,0.09450696408748627
0.0988000028883107,0.6358197927474976,0.09527309983968735
0.09919999865815043,0.635743260383606,0.09603910893201828
0.09960000170394778,0.6356661319732666,0.09680498391389847
0.09999999747378752,0.6355884075164795,0.09757073223590851
0.10040000051958486,0.6355100274085999,0.0983363464474678
0.10080000356538221,0.6354310512542725,0.09910182654857635
0.10119999933522195,0.6353514790534973,0.09986717253923416
0.1016000023810193,0.6352713108062744,0.10063239187002182
0.10199999815085903,0.635190486907959,0.10139746963977814
0.10240000119665638,0.6351090669631958,0.10216241329908371
0.10279999696649611,0.6350269913673401,0.10292721539735794
0.10320000001229346,0.6349443793296814,0.10369189083576202
0.1036000030580908,0.6348611116409302,0.10445642471313477
0.10399999882793054,0.6347772479057312,0.10522081702947617
0.10440000187372789,0.6346927285194397,0.10598507523536682
0.10479999764356762,0.6346076726913452,0.10674919188022614
0.10520000068936497,0.6345219612121582,0.10751316696405411
0.1055999964592047,0.6344356536865234,0.10827700048685074
0.10599999950500205,0.6343486905097961,0.10904069244861603
0.1064000025507994,0.6342611908912659,0.10980424284934998
0.10679999832063913,0.6341730356216431,0.11056764423847198
0.10720000136643648,0.6340842843055725,0.11133090406656265
0.10759999713627622,0.6339948773384094,0.11209402233362198
0.10800000018207356,0.6339049339294434,0.11285699158906937
0.10840000322787091,0.6338143348693848,0.11361981928348541
0.10879999899771065,0.6337231397628784,0.11438249796628952
0.109200002043508,0.6336312890052795,0.11514502763748169
0.10959999781334773,0.6335389018058777,0.11590740829706192
0.11000000085914508,0.6942394375801086,0.11669763922691345
0.11039999662898481,0.7549393177032471,0.11757909506559372
0.11079999967478216,0.7548449039459229,0.11848839372396469
0.1112000027205795,0.7547497153282166,0.11939752846956253
0.11159999849041924,0.754653811454773,0.12030650675296783
0.11200000153621659,0.7545572519302368,0.1212153285741806
0.11239999730605632,0.7544599175453186,0.12212398648262024
0.11280000035185367,0.7543618083000183,0.12303248047828674
0.11320000339765102,0.7542630434036255,0.12394081056118011
0.11359999916749075,0.7541635036468506,0.12484897673130035
0.1140000022132881,0.7540633082389832,0.12575697898864746
0.11439999798312783,0.7539623379707336,0.12666481733322144
0.11480000102892518,0.753860592842102,0.12757247686386108
0.11519999679876491,0.7537581920623779,0.1284799873828888
0.11559999984456226,0.7536550760269165,0.12938731908798218
0.11600000289035961,0.753551185131073,0.13029447197914124
0.11639999866019934,0.7534465789794922,0.13120147585868835
0.11680000170599669,0.7533412575721741,0.13210828602313995
0.11719999747583643,0.7532352209091187,0.13301494717597961
0.11760000052163377,0.7531284093856812,0.13392141461372375
0.11800000356743112,0.7530209422111511,0.13482771813869476
0.11839999933727086,0.752912700176239,0.13573384284973145
0.1188000023830682,0.7528037428855896,0.136639803647995
0.11919999815290794,0.7526940703392029,0.13754558563232422
0.11960000119870529,0.7525836825370789,0.13845117390155792
0.11999999696854502,0.7524725794792175,0.1393565982580185
0.12040000001434237,0.7523607611656189,0.14026184380054474
0.12080000306013972,0.7522481679916382,0.14116689562797546
0.12119999882997945,0.7521348595619202,0.14207178354263306
0.1216000018757768,0.7520208358764648,0.14297647774219513
0.12199999764561653,0.7519060969352722,0.14388099312782288
0.12240000069141388,0.7517906427383423,0.1447853296995163
0.12280000373721123,0.751674473285675,0.1456894874572754
0.12320000678300858,0.7515575289726257,0.14659345149993896
0.1235999952768907,0.7514398694038391,0.14749722182750702
0.12399999832268804,0.75132155418396,0.14840081334114075
0.12440000136848539,0.7512024641036987,0.14930421113967896
0.12480000441428274,0.7510826587677002,0.15020743012428284
0.12519999290816486,0.7509621381759644,0.1511104553937912
0.1255999959539622,0.7508409023284912,0.15201328694820404
0.12599999899975955,0.750718891620636,0.15291593968868256
0.1264000020455569,0.7505962252616882,0.15381838381290436
0.12680000509135425,0.7504727840423584,0.15472064912319183
0.12719999358523637,0.7503486275672913,0.1556227207183838
0.12759999663103372,0.7502238154411316,0.15652458369731903
0.12799999967683107,0.7500982284545898,0.15742626786231995
0.12840000272262841,0.7499719262123108,0.15832774341106415
0.12880000576842576,0.7498449087142944,0.15922902524471283
0.12919999426230788,0.7497171759605408,0.1601300984621048
0.12959999730810523,0.749588668346405,0.16103099286556244
0.13000000035390258,0.8092895746231079,0.16195879876613617
0.13040000339969993,0.8689896464347839,0.1629772037267685
0.13080000644549727,0.8688588738441467,0.1640225052833557
0.1311999949393794,0.8687272071838379,0.1650676131248474
0.13159999798517674,0.868594765663147,0.1661125123500824
0.1320000010309741,0.8684614300727844,0.16715718805789948
0.13240000407677144,0.8683273196220398,0.16820165514945984
0.1328000071225688,0.8681923151016235,0.1692459136247635
0.1331999956164509,0.8680565357208252,0.17028996348381042
0.13359999866224825,0.8679198622703552,0.17133378982543945
0.1340000017080456,0.8677823543548584,0.17237739264965057
0.13440000475384295,0.8676440715789795,0.17342078685760498
0.13479999324772507,0.867504894733429,0.17446395754814148
0.13519999629352242,0.8673649430274963,0.17550690472126007
0.13559999933931977,0.8672240972518921,0.17654964327812195
0.1360000023851171,0.867082417011261,0.17759214341640472
0.13640000543091446,0.8669399619102478,0.1786344349384308
0.13679999392479658,0.866796612739563,0.17967650294303894
0.13719999697059393,0.8666524887084961,0.180718332529068
0.13760000001639128,0.8665074706077576,0.18175995349884033
0.13800000306218863,0.8663616180419922,0.18280133605003357
0.13840000610798597,0.8662149906158447,0.1838424950838089
0.1387999946018681,0.8660675287246704,0.18488341569900513
