time[s],iL[A],v out[V]
0.0,0.0,0.0
0.00040000000467443897,0.0,0.0
0.0008000000093488779,0.0,0.0
0.0012000000424450263,0.0,0.0
0.0016000000186977559,0.0,0.0
0.0019999999949504854,0.0,0.0
0.0024000000848900527,0.0,0.0
0.0027999999474559445,0.0,0.0
0.0032000000373955118,0.0,0.0
0.0035999998999614036,0.0,0.0
0.003999999989900971,0.0,0.0
0.004399999852466863,0.0,0.0
0.004800000169780105,0.0,0.0
0.005200000032345997,0.0,0.0
0.005599999894911889,0.0,0.0
0.006000000212225132,0.025272857397794724,4.8387432798335794e-06
0.0064000000747910235,0.10527282953262329,8.395558688789606e-05
0.006799999937356915,0.1852726936340332,0.00026003585662692785
0.007199999799922807,0.2652723789215088,0.0005330746644176543
0.00760000011723605,0.3452718257904053,0.0009030670626088977
0.007999999979801942,0.4252709150314331,0.0013700079871341586
0.008400000297115184,0.5052695870399475,0.0019338922575116158
0.008799999704933725,0.5852677822113037,0.0025947147514671087
0.009200000022246968,0.6652654409408569,0.0033524699974805117
0.00960000033956021,0.7452623844146729,0.004207152407616377
0.009999999747378752,0.8252586722373962,0.005158756859600544
0.010400000064691994,0.9052541255950928,0.006207277532666922
0.010800000382005237,0.9852486848831177,0.007352708373218775
0.011199999789823778,1.0652422904968262,0.008595043793320656
0.01160000010713702,1.1452349424362183,0.009934278205037117
0.012000000424450263,1.2252264022827148,0.011370405554771423
0.012399999832268804,1.305216670036316,0.012903420254588127
0.012800000149582047,1.3852057456970215,0.014533313922584057
0.013199999557400588,1.4651933908462524,0.01626008376479149
0.01359999987471383,1.5451797246932983,0.018083719536662102
0.014000000192027073,1.62516450881958,0.020004216581583023
0.014399999599845614,1.6504205465316772,0.021998880431056023
0.014799999917158857,1.6504021883010864,0.023998264223337173
0.0152000002344721,1.650382161140442,0.025997526943683624
0.015600000551785342,1.6503605842590332,0.027996668592095375
0.015999999959603883,1.6503373384475708,0.029995685443282127
0.016399999367422424,1.6503125429153442,0.03199457749724388
0.01680000059423037,1.6502861976623535,0.03399334102869034
0.01720000000204891,1.650258183479309,0.03599197417497635
0.01759999940986745,1.6502286195755005,0.03799047693610191
0.018000000636675395,1.6501973867416382,0.03998884558677673
0.018400000044493936,1.6501646041870117,0.04198707640171051
0.018799999452312477,1.6501301527023315,0.043985169380903244
0.01920000067912042,1.6500941514968872,0.045983124524354935
0.019600000086938962,1.6500566005706787,0.047980938106775284
0.019999999494757503,1.6500173807144165,0.04997861012816429
0.020400000721565448,1.6499766111373901,0.05197613686323166
0.02080000012938399,1.64993417263031,0.05397351086139679
0.02119999953720253,1.6498901844024658,0.05597073957324028
0.021600000764010474,1.6498446464538574,0.05796781927347183
0.022000000171829015,1.6497974395751953,0.05996474251151085
0.022399999579647556,1.649748682975769,0.06196151301264763
0.0228000008064555,1.6496983766555786,0.06395812332630157
0.02320000021427404,1.6496464014053345,0.06595458090305328
0.023599999622092582,1.6495928764343262,0.06795087456703186
0.024000000848900527,1.6495376825332642,0.0699470043182373
0.024400000256719068,1.649480938911438,0.07194297015666962
0.02479999966453761,1.649422526359558,0.0739387646317482
0.025200000891345553,1.649362564086914,0.07593439519405365
0.025600000299164094,1.6493010520935059,0.07792985439300537
0.025999999706982635,1.6585677862167358,0.07992580533027649
0.026399999114801176,1.738503098487854,0.08198071271181107
0.02680000034160912,1.818436622619629,0.08413240313529968
0.02719999974942766,1.89836847782135,0.08638088405132294
0.027599999157246202,1.9782984256744385,0.08872613310813904
0.028000000384054147,2.0582263469696045,0.09116815030574799
0.028399999791872688,2.138152599334717,0.09370692819356918
0.02879999919969123,2.218076467514038,0.09634245932102203
0.029200000426499173,2.2979984283447266,0.09907473623752594
0.029599999834317714,2.377918004989624,0.1019037589430809
0.029999999242136255,2.4578351974487305,0.10482950508594513
0.0304000004689442,2.537750244140625,0.10785197466611862
0.030800001695752144,2.6176626682281494,0.11097116768360138
0.031200001103570685,2.697572708129883,0.11418706178665161
0.031600000511389226,2.777479887008667,0.11749965697526932
0.03199999991920777,2.85738468170166,0.1209089532494545
0.03239999932702631,2.937286376953125,0.12441492825746536
0.03279999873484485,3.0171854496002197,0.1280175745487213
0.0332000017806422,3.0970816612243652,0.13171689212322235
0.03360000118846074,3.1769747734069824,0.13551287353038788
0.03400000059627928,3.2568647861480713,0.1394055187702179
0.03440000000409782,3.2660815715789795,0.14335694909095764
0.03479999941191636,3.265965223312378,0.14730872213840485
0.0351999988197349,3.265845775604248,0.1512601524591446
0.03559999822755344,3.26572322845459,0.15521125495433807
0.03600000127335079,3.2655975818634033,0.1591620147228241
0.03640000068116933,3.2654685974121094,0.16311241686344147
0.03680000008898787,3.265336513519287,0.16706247627735138
0.03719999949680641,3.2652013301849365,0.17101219296455383
0.037599998904624954,3.2650628089904785,0.17496153712272644
0.037999998312443495,3.2649214267730713,0.1789105236530304
0.03840000135824084,3.2647767066955566,0.1828591525554657
0.038800000766059384,3.2646288871765137,0.18680739402770996
0.039200000173877925,3.2644777297973633,0.19075527787208557
0.039599999581696466,3.2643234729766846,0.19470278918743134
0.03999999898951501,3.2641663551330566,0.19864991307258606
0.04039999839733355,3.2640058994293213,0.20259664952754974
0.040800001443130895,3.2638421058654785,0.20654301345348358
0.041200000850949436,3.2636754512786865,0.21048897504806519
0.04160000025876798,3.263505458831787,0.21443453431129456
0.04199999966658652,3.2633323669433594,0.21837970614433289
0.04239999907440506,3.263155937194824,0.2223244607448578
0.0427999984822236,3.26297664642334,0.22626882791519165
0.04320000152802095,3.262794017791748,0.23021277785301208
0.04360000093583949,3.262608289718628,0.2341562956571579
0.04400000034365803,3.2624192237854004,0.23809941112995148
0.04439999975147657,3.2622272968292236,0.24204210937023163
0.04479999915929511,3.2620320320129395,0.24598437547683716
0.04519999856711365,3.261833667755127,0.24992620944976807
0.045600001612911,3.261632204055786,0.25386762619018555
0.04600000102072954,3.261427402496338,0.2578085660934448
0.04640000042854808,3.3038480281829834,0.2617628574371338
0.046799999836366624,3.383636951446533,0.26580309867858887
0.047199999244185165,3.4634225368499756,0.2699398398399353
0.047599998652003706,3.5432050228118896,0.2741731107234955
0.048000001697801054,3.622983932495117,0.27850285172462463
0.048400001105619594,3.702759265899658,0.28292909264564514
0.048800000513438135,3.782531261444092,0.2874518036842346
0.049199999921256676,3.8622994422912598,0.29207098484039307
0.04959999932907522,3.942063808441162,0.2967866063117981
0.04999999873689376,4.021824359893799,0.3015987277030945
0.050400001782691106,4.10158109664917,0.30650725960731506
0.05080000119050965,4.181334018707275,0.31151220202445984
0.05120000059832819,4.261082649230957,0.3166136145591736
0.05160000000614673,4.340827465057373,0.32181140780448914
0.05199999941396527,4.420567989349365,0.3271056115627289
0.05239999882178381,4.500304222106934,0.3324962258338928
0.05279999822960235,4.58003568649292,0.3379831910133362
0.0532000012753997,4.659763336181641,0.34356656670570374
0.05360000068321824,4.739486217498779,0.3492462635040283
0.05400000009103678,4.781832695007324,0.3550117611885071
0.05439999949885532,4.781546592712402,0.3607904016971588
0.054799998906673864,4.781255722045898,0.3665684163570404
0.055199998314492404,4.7809600830078125,0.37234577536582947
0.05560000136028975,4.7806596755981445,0.3781225085258484
0.05600000076810829,4.780354976654053,0.3838985860347748
0.056400000175926834,4.780045509338379,0.38967400789260864
0.056799999583745375,4.779731273651123,0.39544877409935
0.057199998991563916,4.779412746429443,0.4012228846549988
0.05759999839938246,4.779089450836182,0.40699633955955505
0.058000001445179805,4.778761386871338,0.4127691090106964
0.058400000852998346,4.77842903137207,0.41854119300842285
0.05880000026081689,4.778091907501221,0.4243125915527344
0.05919999966863543,4.777750015258789,0.4300832748413086
0.05959999907645397,4.777403831481934,0.4358533024787903
0.05999999848427251,4.777052879333496,0.44162261486053467
0.06040000153006986,4.776697158813477,0.44739121198654175
0.0608000009378884,4.776337146759033,0.4531590938568115
0.06120000034570694,4.775972366333008,0.458926260471344
0.06160000339150429,4.7756028175354,0.46469271183013916
0.06199999916134402,4.775228500366211,0.47045841813087463
0.06240000220714137,4.774849891662598,0.4762234091758728
0.0627999979769811,4.7744669914245605,0.4819876253604889
0.06320000102277845,4.774078845977783,0.4877511262893677
0.06359999679261819,4.773686408996582,0.4935138523578644
0.06399999983841553,4.773289203643799,0.4992758333683014
0.06440000288421288,4.772887706756592,0.5050370693206787
0.06479999865405262,4.7724809646606445,0.5107975006103516
0.06520000169984996,4.772070407867432,0.5165571570396423
0.0655999974696897,4.7716546058654785,0.522316038608551
0.06600000051548705,4.771234512329102,0.5280741453170776
0.0664000035612844,4.809803009033203,0.5338429808616638
0.06679999933112413,4.889373302459717,0.5396952629089355
0.06720000237692147,4.968939304351807,0.54564368724823
0.06759999814676121,5.0485005378723145,0.5516882538795471
0.06800000119255856,5.128056526184082,0.557828962802887
0.06839999696239829,5.207607746124268,0.5640658140182495
0.06880000000819564,5.287154197692871,0.5703988075256348
0.06920000305399299,5.366695404052734,0.5768278241157532
0.06959999882383272,5.446231365203857,0.5833530426025391
0.07000000186963007,5.52576208114624,0.5899742841720581
0.0703999976394698,5.605287075042725,0.5966916084289551
0.07080000068526715,5.684807300567627,0.6035049557685852
0.07119999645510688,5.764321327209473,0.610414445400238
0.07159999950090423,5.843830585479736,0.6174198985099792
0.07200000254670158,5.923333644866943,0.6245213747024536
0.07239999831654131,6.002830982208252,0.6317189335823059
0.07280000136233866,6.08232307434082,0.6390124559402466
0.0731999971321784,6.161808490753174,0.6464020013809204
0.07360000017797574,6.241288661956787,0.6538875102996826
0.07400000322377309,6.279755592346191,0.6614562273025513
0.07439999899361283,6.279223442077637,0.6690354943275452
0.07480000203941017,6.278685092926025,0.6766136884689331
0.07519999780924991,6.278141021728516,0.6841909289360046
0.07560000085504726,6.277590274810791,0.6917670965194702
0.07599999662488699,6.277033805847168,0.6993422508239746
0.07639999967068434,6.2764716148376465,0.706916332244873
0.07680000271648169,6.27590274810791,0.7144894003868103
0.07719999848632142,6.275328159332275,0.7220613360404968
0.07760000153211877,6.274747848510742,0.7296322584152222
0.0779999973019585,6.274160861968994,0.7372021079063416
0.07840000034775585,6.273568153381348,0.744770884513855
0.0788000033935532,6.2729692459106445,0.7523385286331177
0.07919999916339293,6.272364616394043,0.7599050998687744
0.07960000220919028,6.271753311157227,0.7674705982208252
0.07999999797903001,6.271136283874512,0.7750349640846252
0.08040000102482736,6.27051305770874,0.7825981974601746
0.0807999967946671,6.26988410949707,0.7901602983474731
0.08119999984046444,6.269248962402344,0.7977213263511658
0.08160000288626179,6.2686076164245605,0.8052811622619629
0.08199999865610152,6.267960548400879,0.8128398060798645
0.08240000170189887,6.267307281494141,0.8203973770141602
0.0827999974717386,6.266647815704346,0.8279537558555603
0.08320000051753595,6.265982627868652,0.8355089426040649
0.0836000035633333,6.265311241149902,0.8430629968643188
0.08399999933317304,6.264633655548096,0.8506158590316772
0.08440000237897038,6.263949871063232,0.8581674695014954
0.08479999814881012,6.263260364532471,0.8657179474830627
0.08520000119460747,6.2625651359558105,0.8732672333717346
0.0855999969644472,6.2618632316589355,0.8808152675628662
0.08600000001024455,6.261155605316162,0.8883620500564575
0.0864000030560419,6.260441780090332,0.8959076404571533
0.08679999882588163,6.317997455596924,0.9034777283668518
0.08720000187167898,6.397271633148193,0.911139965057373
0.08759999764151871,6.476539611816406,0.9188979268074036
0.08800000068731606,6.5558013916015625,0.9267515540122986
0.0883999964571558,6.635056972503662,0.9347009062767029
0.08879999950295314,6.714305877685547,0.9427459239959717
0.08920000254875049,6.793548583984375,0.950886607170105
0.08959999831859022,6.872784614562988,0.959122896194458
0.09000000136438757,6.952013969421387,0.9674548506736755
0.0903999971342273,7.03123664855957,0.9758824706077576
0.09080000018002465,7.110452651977539,0.9844056367874146
0.091200003225822,7.189661502838135,0.993024468421936
0.09159999899566174,7.268863677978516,1.0017387866973877
0.09200000204145908,7.348058700561523,1.0105488300323486
0.09239999781129882,7.427246570587158,1.0194543600082397
0.09280000085709617,7.50642728805542,1.028455376625061
0.0931999966269359,7.585601329803467,1.037551999092102
0.09359999967273325,7.643043041229248,1.0467405319213867
0.0940000027185306,7.642201900482178,1.0559533834457397
0.09439999848837033,7.641353130340576,1.0651646852493286
0.09480000153416768,7.64049768447876,1.0743745565414429
0.09519999730400741,7.639634132385254,1.083582878112793
0.09560000034980476,7.638763904571533,1.0927897691726685
0.09600000339560211,7.637886047363281,1.1019951105117798
0.09639999916544184,7.637000560760498,1.1111990213394165
0.09680000221123919,7.636107921600342,1.120401382446289
0.09719999798107892,7.6352081298828125,1.1296021938323975
0.09760000102687627,7.634300708770752,1.1388014554977417
0.097999996796716,7.63338565826416,1.1479991674423218
0.09839999984251335,7.6324639320373535,1.1571952104568481
0.0988000028883107,7.631534099578857,1.1663898229599
0.09919999865815043,7.6305975914001465,1.1755828857421875
0.09960000170394778,7.629653453826904,1.1847742795944214
0.09999999747378752,7.628701686859131,1.1939641237258911
0.10040000051958486,7.627742767333984,1.2031522989273071
0.10080000356538221,7.626776695251465,1.212338924407959
0.10119999933522195,7.625802993774414,1.2215238809585571
0.1016000023810193,7.62482213973999,1.2307072877883911
0.10199999815085903,7.623834133148193,1.2398890256881714
0.10240000119665638,7.622838497161865,1.249069094657898
0.10279999696649611,7.621835231781006,1.2582474946975708
0.10320000001229346,7.620825290679932,1.26742422580719
0.1036000030580908,7.619807720184326,1.2765992879867554
0.10399999882793054,7.6187825202941895,1.285772681236267
0.10440000187372789,7.61775016784668,1.294944405555725
0.10479999764356762,7.616710662841797,1.3041144609451294
0.10520000068936497,7.615663528442383,1.3132827281951904
0.1055999964592047,7.614609241485596,1.3224493265151978
0.10599999950500205,7.6135478019714355,1.3316141366958618
0.1064000025507994,7.612478733062744,1.3407772779464722
0.10679999832063913,7.61140251159668,1.3499386310577393
0.10720000136643648,7.662264823913574,1.3591187000274658
0.10759999713627622,7.74117374420166,1.3683879375457764
0.10800000018207356,7.820075511932373,1.377752423286438
0.10840000322787091,7.898969650268555,1.3872121572494507
0.10879999899771065,7.977855682373047,1.3967669010162354
0.109200002043508,8.056735038757324,1.406416893005371
0.10959999781334773,8.135605812072754,1.4161620140075684
0.11000000085914508,8.214468955993652,1.4260022640228271
0.11039999662898481,8.293323516845703,1.4359376430511475
0.11079999967478216,8.372171401977539,1.4459680318832397
0.1112000027205795,8.451010704040527,1.4560935497283936
0.11159999849041924,8.529841423034668,1.4663140773773193
0.11200000153621659,8.608664512634277,1.4766297340393066
0.11239999730605632,8.687479019165039,1.487040400505066
0.11280000035185367,8.766284942626953,1.4975460767745972
0.11320000339765102,8.817028999328613,1.5081408023834229
0.11359999916749075,8.815817832946777,1.518754005432129
0.1140000022132881,8.81459903717041,1.5293653011322021
0.11439999798312783,8.813370704650879,1.5399744510650635
0.11480000102892518,8.812134742736816,1.550581693649292
0.11519999679876491,8.810890197753906,1.5611867904663086
0.11559999984456226,8.809637069702148,1.5717899799346924
0.11600000289035961,8.808375358581543,1.5823911428451538
0.11639999866019934,8.80710506439209,1.5929901599884033
0.11680000170599669,8.805826187133789,1.6035871505737305
0.11719999747583643,8.80453872680664,1.6141821146011353
0.11760000052163377,8.803243637084961,1.6247750520706177
0.11800000356743112,8.801939964294434,1.6353658437728882
0.11839999933727086,8.800626754760742,1.6459544897079468
0.1188000023830682,8.79930591583252,1.6565409898757935
0.11919999815290794,8.79797649383545,1.6671254634857178
0.11960000119870529,8.796638488769531,1.6777077913284302
0.11999999696854502,8.795291900634766,1.6882879734039307
0.12040000001434237,8.793936729431152,1.6988660097122192
0.12080000306013972,8.792573928833008,1.709441900253296
0.12119999882997945,8.7912015914917,1.720015525817871
0.1216000018757768,8.78982162475586,1.730587124824524
0.12199999764561653,8.788433074951172,1.7411564588546753
0.12240000069141388,8.787035942077637,1.7517235279083252
0.12280000373721123,8.785630226135254,1.7622884511947632
0.12320000678300858,8.784215927124023,1.7728511095046997
0.1235999952768907,8.782793998718262,1.7834116220474243
0.12399999832268804,8.781362533569336,1.7939698696136475
0.12440000136848539,8.779923439025879,1.8045257329940796
0.12480000441428274,8.778475761413574,1.8150794506072998
0.12519999290816486,8.777019500732422,1.8256309032440186
0.1255999959539622,8.775554656982422,1.8361800909042358
0.12599999899975955,8.774081230163574,1.846726894378662
0.1264000020455569,8.772600173950195,1.8572715520858765
0.12680000509135425,8.771109580993652,1.8678137063980103
0.12719999358523637,8.769611358642578,1.8783537149429321
0.12759999663103372,8.768858909606934,1.8888912200927734
0.12799999967683107,8.847343444824219,1.8994759321212769
0.12840000272262841,8.925820350646973,1.910155177116394
0.12880000576842576,9.004287719726562,1.9209290742874146
0.12919999426230788,9.082746505737305,1.9317975044250488
0.12959999730810523,9.1611967086792,1.9427604675292969
0.13000000035390258,9.239638328552246,1.9538180828094482
0.13040000339969993,9.318070411682129,1.9649701118469238
0.13080000644549727,9.396493911743164,1.9762167930603027
0.1311999949393794,9.474908828735352,1.9875578880310059
0.13159999798517674,9.553314208984375,1.9989935159683228
0.1320000010309741,9.631710052490234,2.010523557662964
0.13240000407677144,9.710097312927246,2.0221481323242188
0.1328000071225688,9.709229469299316,2.0338194370269775
0.1331999956164509,9.707597732543945,2.0454883575439453
0.13359999866224825,9.70595645904541,2.057154655456543
0.1340000017080456,9.704306602478027,2.0688185691833496
0.13440000475384295,9.702646255493164,2.080479621887207
0.13479999324772507,9.700977325439453,2.0921382904052734
0.13519999629352242,9.699298858642578,2.1037943363189697
0.13559999933931977,9.697611808776855,2.115447759628296
0.1360000023851171,9.695914268493652,2.127098560333252
0.13640000543091446,9.694208145141602,2.138746738433838
0.13679999392479658,9.692492485046387,2.1503922939300537
0.13719999697059393,9.690767288208008,2.1620352268218994
0.13760000001639128,9.689033508300781,2.173675537109375
0.13800000306218863,9.687289237976074,2.1853129863739014
0.13840000610798597,9.68553638458252,2.1969478130340576
0.1387999946018681,9.6837739944458,2.2085800170898438
0.13919999764766544,9.682003021240234,2.2202095985412598
0.1396000006934628,9.680222511291504,2.2318363189697266
0.14000000373926014,9.678431510925293,2.243460178375244
0.14040000678505749,9.676631927490234,2.2550814151763916
0.1407999952789396,9.674823760986328,2.266700029373169
0.14119999832473695,9.673005104064941,2.278315782546997
0.1416000013705343,9.671177864074707,2.289928674697876
