time[s],iL[A],v out[V]
0.0,0.0,0.0
0.00040000000467443897,0.0796244814991951,4.802997864317149e-05
0.0008000000093488779,0.159624382853508,0.00019302385044284165
0.0012000000424450263,0.23962414264678955,0.00043497784645296633
0.0016000000186977559,0.3196236789226532,0.0007738870335742831
0.0019999999949504854,0.3996228873729706,0.0012097463477402925
0.0024000000848900527,0.4796217083930969,0.0017425507539883256
0.0027999999474559445,0.5596200823783875,0.0023722948972135782
0.0032000000373955118,0.6396178603172302,0.0030989735387265682
0.0035999998999614036,0.71961510181427,0.00392258120700717
0.003999999989900971,0.7996115684509277,0.004843113012611866
0.004399999852466863,0.8796073198318481,0.005860561970621347
0.004800000169780105,0.9596021771430969,0.006974923890084028
0.005200000032345997,1.0395960807800293,0.008186192251741886
0.005599999894911889,1.11958909034729,0.009494361467659473
0.006000000212225132,1.1995809078216553,0.01089942455291748
0.0064000000747910235,1.279571533203125,0.012401376850903034
0.006799999937356915,1.3595610857009888,0.014000211842358112
0.007199999799922807,1.439549207687378,0.015695922076702118
0.00760000011723605,1.5195358991622925,0.017488503828644753
0.007999999979801942,1.5995211601257324,0.019377948716282845
0.008400000297115184,1.6795048713684082,0.021364249289035797
0.008799999704933725,1.7594869136810303,0.023447401821613312
0.009200000022246968,1.8394672870635986,0.025627397000789642
0.00960000033956021,1.9194458723068237,0.02790422923862934
0.009999999747378752,1.9994226694107056,0.03027789108455181
0.010400000064691994,2.079397439956665,0.032748375087976456
0.010800000382005237,2.159370183944702,0.035315677523612976
0.011199999789823778,2.2393410205841064,0.03797978535294533
0.01160000010713702,2.3193094730377197,0.04074069485068321
0.012000000424450263,2.399275779724121,0.04359840229153633
0.012399999832268804,2.4792397022247314,0.04655289277434349
0.012800000149582047,2.559201240539551,0.04960416257381439
0.013199999557400588,2.63916015625,0.05275220423936844
0.01359999987471383,2.719116687774658,0.055997006595134735
0.014000000192027073,2.7990705966949463,0.05933856964111328
0.014399999599845614,2.8790218830108643,0.06277687847614288
0.014799999917158857,2.958970069885254,0.06631192564964294
0.0152000002344721,3.0389156341552734,0.06994370371103287
0.015600000551785342,3.1188583374023438,0.07367220520973206
0.015999999959603883,3.1987977027893066,0.07749743014574051
0.016399999367422424,3.2787342071533203,0.08141934871673584
0.01680000059423037,3.3586673736572266,0.08543797582387924
0.01720000000204891,3.4385974407196045,0.08955328911542892
0.01759999940986745,3.518524169921875,0.09376528114080429
0.018000000636675395,3.598447322845459,0.09807395190000534
0.018400000044493936,3.6783671379089355,0.10247927904129028
0.018799999452312477,3.7582833766937256,0.10698126256465912
0.01920000067912042,3.838196039199829,0.11157989501953125
0.019600000086938962,3.918104887008667,0.11627515405416489
0.019999999494757503,3.9976344108581543,0.12106704711914062
0.020400000721565448,4.0688395500183105,0.12594513595104218
0.02080000012938399,4.148736953735352,0.13091926276683807
0.02119999953720253,4.228630065917969,0.1359899789094925
0.021600000764010474,4.30851936340332,0.14115729928016663
0.022000000171829015,4.388404369354248,0.1464211791753769
0.022399999579647556,4.468285083770752,0.15178164839744568
0.0228000008064555,4.548161506652832,0.1572386622428894
0.02320000021427404,4.62803316116333,0.16279223561286926
0.023599999622092582,4.7079010009765625,0.16844235360622406
0.024000000848900527,4.787763595581055,0.1741890013217926
0.024400000256719068,4.867621898651123,0.1800321638584137
0.02479999966453761,4.947475910186768,0.18597182631492615
0.025200000891345553,5.027324676513672,0.19200800359249115
0.025600000299164094,5.107168674468994,0.19814066588878632
0.025999999706982635,5.187007427215576,0.20436979830265045
0.026399999114801176,5.266841411590576,0.21069540083408356
0.02680000034160912,5.346670150756836,0.21711745858192444
0.02719999974942766,5.426494121551514,0.2236359715461731
0.027599999157246202,5.506312370300293,0.23025090992450714
0.028000000384054147,5.58612585067749,0.23696227371692657
0.028399999791872688,5.665933132171631,0.2437700480222702
0.02879999919969123,5.7457356452941895,0.25067421793937683
0.029200000426499173,5.82553243637085,0.25767481327056885
0.029599999834317714,5.905323028564453,0.2647717297077179
0.029999999242136255,5.985108375549316,0.27196505665779114
0.0304000004689442,6.064888000488281,0.2792547345161438
0.030800001695752144,6.144661903381348,0.2866407334804535
0.031200001103570685,6.224429607391357,0.2941230833530426
0.031600000511389226,6.3041911125183105,0.30170172452926636
0.03199999991920777,6.383946895599365,0.30937668681144714
0.03239999932702631,6.463696002960205,0.31714797019958496
0.03279999873484485,6.5434393882751465,0.32501551508903503
0.0332000017806422,6.623176097869873,0.33297932147979736
0.03360000118846074,6.702906608581543,0.34103938937187195
0.03400000059627928,6.782630443572998,0.3491957187652588
0.03440000000409782,6.862347602844238,0.3574482798576355
0.03479999941191636,6.942058563232422,0.3657970428466797
0.0351999988197349,7.021762371063232,0.37424203753471375
0.03559999822755344,7.101459503173828,0.3827832043170929
0.03600000127335079,7.181149959564209,0.3914205729961395
0.03640000068116933,7.260833263397217,0.40015408396720886
0.03680000008898787,7.340509414672852,0.4089837670326233
0.03719999949680641,7.4201788902282715,0.4179096221923828
0.037599998904624954,7.49984073638916,0.42693156003952026
0.037999998312443495,7.579495906829834,0.4360496401786804
0.03840000135824084,7.659143447875977,0.4452638030052185
0.038800000766059384,7.738783359527588,0.4545740783214569
0.039200000173877925,7.818416118621826,0.46398040652275085
0.039599999581696466,7.898040771484375,0.47348281741142273
0.03999999898951501,7.9689621925354,0.4830806851387024
0.04039999839733355,7.968571662902832,0.49271613359451294
0.040800001443130895,7.968173980712891,0.5023506283760071
0.041200000850949436,8.014028549194336,0.5120004415512085
0.04160000025876798,8.093615531921387,0.5217375755310059
0.04199999966658652,8.17319393157959,0.5315707325935364
0.04239999907440506,8.252764701843262,0.5414998531341553
0.0427999984822236,8.332327842712402,0.5515248775482178
0.04320000152802095,8.411882400512695,0.5616459250450134
0.04360000093583949,8.49142837524414,0.5718628764152527
0.04400000034365803,8.570966720581055,0.5821757316589355
0.04439999975147657,8.650497436523438,0.592584490776062
0.04479999915929511,8.730018615722656,0.6030891537666321
0.04519999856711365,8.809532165527344,0.6136897206306458
0.045600001612911,8.889037132263184,0.6243861317634583
0.04600000102072954,8.968533515930176,0.6351783275604248
0.04640000042854808,9.048020362854004,0.646066427230835
0.046799999836366624,9.1274995803833,0.6570503115653992
0.047199999244185165,9.206969261169434,0.6681299805641174
0.047599998652003706,9.286430358886719,0.6793054342269897
0.048000001697801054,9.365882873535156,0.6905766129493713
0.048400001105619594,9.44532585144043,0.7019436359405518
0.048800000513438135,9.524759292602539,0.7134063243865967
0.049199999921256676,9.6041841506958,0.7249647378921509
0.04959999932907522,9.683599472045898,0.7366188764572144
0.04999999873689376,9.763005256652832,0.7483687400817871
0.050400001782691106,9.842402458190918,0.7602142095565796
0.05080000119050965,9.921789169311523,0.7721553444862366
0.05120000059832819,10.001166343688965,0.7841921448707581
0.05160000000614673,10.080533981323242,0.7963245511054993
0.05199999941396527,10.159892082214355,0.8085525631904602
0.05239999882178381,10.239240646362305,0.8208761811256409
0.05279999822960235,10.318578720092773,0.8332954049110413
0.0532000012753997,10.397907257080078,0.8458101153373718
0.05360000068321824,10.477225303649902,0.8584204316139221
0.05400000009103678,10.556533813476562,0.8711262345314026
0.05439999949885532,10.635831832885742,0.8839275240898132
0.054799998906673864,10.715119361877441,0.896824300289154
0.055199998314492404,10.794397354125977,0.9098166227340698
0.05560000136028975,10.873663902282715,0.9229043126106262
0.05600000076810829,10.952919960021973,0.9360874891281128
0.056400000175926834,11.032166481018066,0.9493660926818848
0.056799999583745375,11.111401557922363,0.9627400636672974
0.057199998991563916,11.190625190734863,0.9762094616889954
0.05759999839938246,11.2698392868042,0.989774227142334
0.058000001445179805,11.349041938781738,1.0034343004226685
0.058400000852998346,11.428234100341797,1.0171897411346436
0.05880000026081689,11.507414817810059,1.0310404300689697
0.05919999966863543,11.552845001220703,1.0449779033660889
0.05959999907645397,11.552002906799316,1.0589298009872437
0.05999999848427251,11.55115032196045,1.0728800296783447
0.06040000153006986,11.550286293029785,1.086828589439392
0.0608000009378884,11.54941177368164,1.1007753610610962
0.06120000034570694,11.548524856567383,1.114720344543457
0.06160000339150429,11.547627449035645,1.1286636590957642
0.06199999916134402,11.546719551086426,1.142605185508728
0.06240000220714137,11.545799255371094,1.1565449237823486
0.0627999979769811,11.544868469238281,1.170482873916626
0.06320000102277845,11.543927192687988,1.1844189167022705
0.06359999679261819,11.542973518371582,1.1983532905578613
0.06399999983841553,11.542009353637695,1.2122857570648193
0.06440000288421288,11.541033744812012,1.2262163162231445
0.06479999865405262,11.540047645568848,1.2401450872421265
0.06520000169984996,11.539050102233887,1.2540719509124756
0.0655999974696897,11.538041114807129,1.267996907234192
0.06600000051548705,11.537020683288574,1.2819199562072754
0.0664000035612844,11.535989761352539,1.295841097831726
0.06679999933112413,11.534947395324707,1.309760332107544
0.06720000237692147,11.533894538879395,1.323677659034729
0.06759999814676121,11.532830238342285,1.3375929594039917
0.06800000119255856,11.531754493713379,1.3515063524246216
0.06839999696239829,11.54769229888916,1.365419864654541
0.06880000000819564,11.626593589782715,1.3793983459472656
0.06920000305399299,11.705484390258789,1.3934717178344727
0.06959999882383272,11.784364700317383,1.4076400995254517
0.07000000186963007,11.863232612609863,1.421903371810913
0.0703999976394698,11.942089080810547,1.4362616539001465
0.07080000068526715,12.020934104919434,1.4507147073745728
0.07119999645510688,12.099767684936523,1.465262532234192
0.07159999950090423,12.178589820861816,1.479905366897583
0.07200000254670158,12.194424629211426,1.4946129322052002
0.07239999831654131,12.193222999572754,1.5093204975128174
0.07280000136233866,12.192009925842285,1.524025797843933
0.0731999971321784,12.190784454345703,1.5387290716171265
0.07360000017797574,12.189547538757324,1.5534300804138184
0.07400000322377309,12.188299179077148,1.5681288242340088
0.07439999899361283,12.18703842163086,1.5828254222869873
0.07480000203941017,12.185766220092773,1.5975196361541748
0.07519999780924991,12.18448257446289,1.6122117042541504
0.07560000085504726,12.183187484741211,1.6269015073776245
0.07599999662488699,12.181879997253418,1.6415889263153076
0.07639999967068434,12.180560111999512,1.6562740802764893
0.07680000271648169,12.179229736328125,1.6709569692611694
0.07719999848632142,12.177886962890625,1.6856374740600586
0.07760000153211877,12.176532745361328,1.7003155946731567
0.0779999973019585,12.175166130065918,1.7149914503097534
0.07840000034775585,12.173789024353027,1.729664921760559
0.0788000033935532,12.172399520874023,1.7443360090255737
0.07919999916339293,12.170997619628906,1.7590045928955078
0.07960000220919028,12.169584274291992,1.7736707925796509
0.07999999797903001,12.168159484863281,1.788334608078003
0.08040000102482736,12.166723251342773,1.8029959201812744
0.0807999967946671,12.165274620056152,1.8176548480987549
0.08119999984046444,12.163814544677734,1.8323112726211548
0.08160000288626179,12.16234302520752,1.8469651937484741
0.08199999865610152,12.160859107971191,1.861616611480713
0.08240000170189887,12.159364700317383,1.876265525817871
0.0827999974717386,12.157857894897461,1.8909119367599487
0.08320000051753595,12.156338691711426,1.9055557250976562
0.0836000035633333,12.15480899810791,1.9201970100402832
0.08399999933317304,12.153266906738281,1.9348357915878296
0.08440000237897038,12.151713371276855,1.9494719505310059
0.08479999814881012,12.150147438049316,1.964105486869812
0.08520000119460747,12.14857006072998,1.978736400604248
0.0855999969644472,12.146981239318848,1.9933645725250244
0.08600000001024455,12.145380973815918,2.0079903602600098
0.0864000030560419,12.143768310546875,2.022613286972046
0.08679999882588163,12.142145156860352,2.037233591079712
0.08720000187167898,12.140509605407715,2.051851272583008
0.08759999764151871,12.138861656188965,2.0664660930633545
0.08800000068731606,12.137203216552734,2.081078290939331
0.0883999964571558,12.13553237915039,2.0956878662109375
0.08879999950295314,12.13385009765625,2.1102945804595947
0.08920000254875049,12.156200408935547,2.1249029636383057
0.08959999831859022,12.234495162963867,2.1395819187164307
0.09000000136438757,12.312777519226074,2.1543548107147217
0.0903999971342273,12.391047477722168,2.169222116470337
0.09080000018002465,12.469306945800781,2.184183359146118
0.091200003225822,12.491598129272461,2.1992151737213135
0.09159999899566174,12.489832878112793,2.2142484188079834
0.09200000204145908,12.488055229187012,2.229278802871704
0.09239999781129882,12.486266136169434,2.2443063259124756
0.09280000085709617,12.484464645385742,2.259330987930298
0.0931999966269359,12.482650756835938,2.274352550506592
0.09359999967273325,12.480825424194336,2.2893714904785156
0.0940000027185306,12.478987693786621,2.304387092590332
0.09439999848837033,12.47713851928711,2.3194000720977783
0.09480000153416768,12.475276947021484,2.3344099521636963
0.09519999730400741,12.473402976989746,2.349416732788086
0.09560000034980476,12.471517562866211,2.3644206523895264
0.09600000339560211,12.469620704650879,2.3794214725494385
0.09639999916544184,12.467710494995117,2.3944191932678223
0.09680000221123919,12.465788841247559,2.409414052963257
0.09719999798107892,12.463855743408203,2.424405574798584
0.09760000102687627,12.461910247802734,2.439394235610962
0.097999996796716,12.459952354431152,2.4543797969818115
0.09839999984251335,12.457983016967773,2.469362258911133
0.0988000028883107,12.456002235412598,2.484341621398926
0.09919999865815043,12.454008102416992,2.4993176460266113
0.09960000170394778,12.45200252532959,2.5142908096313477
0.09999999747378752,12.44998550415039,2.5292606353759766
0.10040000051958486,12.447956085205078,2.544227361679077
0.10080000356538221,12.445914268493652,2.5591907501220703
0.10119999933522195,12.44386100769043,2.574151039123535
0.1016000023810193,12.44179630279541,2.5891079902648926
0.10199999815085903,12.439719200134277,2.6040618419647217
0.10240000119665638,12.437629699707031,2.6190123558044434
0.10279999696649611,12.435528755187988,2.6339597702026367
0.10320000001229346,12.433415412902832,2.6489038467407227
0.1036000030580908,12.431290626525879,2.663844585418701
0.10399999882793054,12.429153442382812,2.6787819862365723
0.10440000187372789,12.427003860473633,2.693716049194336
0.10479999764356762,12.424842834472656,2.708646774291992
0.10520000068936497,12.422670364379883,2.723574161529541
0.1055999964592047,12.420485496520996,2.7384982109069824
0.10599999950500205,12.418288230895996,2.7534189224243164
0.1064000025507994,12.4160795211792,2.768336296081543
0.10679999832063913,12.413859367370605,2.783250093460083
0.10720000136643648,12.411626815795898,2.7981605529785156
0.10759999713627622,12.409381866455078,2.8130674362182617
0.10800000018207356,12.407125473022461,2.8279709815979004
0.10840000322787091,12.404857635498047,2.8428711891174316
0.10879999899771065,12.40257740020752,2.8577678203582764
0.109200002043508,12.400284767150879,2.8726608753204346
0.10959999781334773,12.470414161682129,2.887590169906616
0.11000000085914508,12.54809856414795,2.9026126861572266
0.11039999662898481,12.625770568847656,2.9177284240722656
0.11079999967478216,12.695862770080566,2.9329371452331543
0.1112000027205795,12.693511009216309,2.9481821060180664
0.11159999849041924,12.691145896911621,2.963423490524292
0.11200000153621659,12.688769340515137,2.978661060333252
0.11239999730605632,12.686380386352539,2.9938952922821045
0.11280000035185367,12.683979034423828,3.0091257095336914
0.11320000339765102,12.681565284729004,3.024352550506592
0.11359999916749075,12.679140090942383,3.0395755767822266
0.1140000022132881,12.676702499389648,3.054795026779175
0.11439999798312783,12.6742525100708,3.0700106620788574
0.11480000102892518,12.67179012298584,3.0852227210998535
0.11519999679876491,12.669316291809082,3.100430965423584
0.11559999984456226,12.666830062866211,3.115635633468628
0.11600000289035961,12.664331436157227,3.1308364868164062
0.11639999866019934,12.661820411682129,3.146033525466919
0.11680000170599669,12.659296989440918,3.161226749420166
0.11719999747583643,12.65676212310791,3.1764161586761475
0.11760000052163377,12.654214859008789,3.1916017532348633
0.11800000356743112,12.651656150817871,3.2067835330963135
0.11839999933727086,12.649084091186523,3.221961498260498
0.1188000023830682,12.646500587463379,3.237135410308838
0.11919999815290794,12.643904685974121,3.252305746078491
0.11960000119870529,12.641297340393066,3.2674720287323
0.11999999696854502,12.638676643371582,3.2826344966888428
0.12040000001434237,12.6360445022583,3.297792911529541
0.12080000306013972,12.633399963378906,3.3129475116729736
0.12119999882997945,12.630743980407715,3.3280980587005615
0.1216000018757768,12.62807559967041,3.343244791030884
0.12199999764561653,12.625394821166992,3.3583874702453613
0.12240000069141388,12.622701644897461,3.373526096343994
0.12280000373721123,12.619997024536133,3.3886609077453613
0.12320000678300858,12.617280006408691,3.4037914276123047
0.1235999952768907,12.614550590515137,3.4189181327819824
0.12399999832268804,12.611809730529785,3.4340407848358154
0.12440000136848539,12.60905647277832,3.4491591453552246
0.12480000441428274,12.606290817260742,3.464273691177368
0.12519999290816486,12.603513717651367,3.479383945465088
0.1255999959539622,12.600724220275879,3.494490146636963
0.12599999899975955,12.597922325134277,3.509592294692993
0.1264000020455569,12.595108985900879,3.5246903896331787
0.12680000509135425,12.592283248901367,3.5397841930389404
0.12719999358523637,12.589445114135742,3.5548737049102783
0.12759999663103372,12.58659553527832,3.5699591636657715
0.12799999967683107,12.583732604980469,3.58504056930542
0.12840000272262841,12.580859184265137,3.6001176834106445
0.12880000576842576,12.577973365783691,3.6151905059814453
0.12919999426230788,12.575075149536133,3.6302590370178223
0.12959999730810523,12.621840476989746,3.6453421115875244
0.13000000035390258,12.698918342590332,3.660511016845703
0.13040000339969993,12.775983810424805,3.6757724285125732
0.13080000644549727,12.822713851928711,3.69111967086792
0.1311999949393794,12.819754600524902,3.7064812183380127
0.13159999798517674,12.816783905029297,3.7218384742736816
0.1320000010309741,12.813799858093262,3.7371912002563477
0.13240000407677144,12.81080436706543,3.752539873123169
0.1328000071225688,12.807795524597168,3.767883777618408
0.1331999956164509,12.80477523803711,3.7832236289978027
0.13359999866224825,12.801742553710938,3.7985589504241943
0.1340000017080456,12.798697471618652,3.813889741897583
0.13440000475384295,12.795639991760254,3.829216241836548
0.13479999324772507,12.792571067810059,3.8445382118225098
0.13519999629352242,12.789488792419434,3.8598556518554688
0.13559999933931977,12.786395072937012,3.875168800354004
0.1360000023851171,12.783288955688477,3.890477180480957
0.13640000543091446,12.780170440673828,3.9057812690734863
0.13679999392479658,12.777039527893066,3.9210808277130127
0.13719999697059393,12.773896217346191,3.936375617980957
0.13760000001639128,12.77074146270752,3.9516661167144775
0.13800000306218863,12.767574310302734,3.966951847076416
