time[s],iL[A],v out[V]
0.0,0.0,0.0
0.00040000000467443897,0.0,0.0
0.0008000000093488779,0.0,0.0
0.0012000000424450263,0.0,0.0
0.0016000000186977559,0.0,0.0
0.0019999999949504854,0.0,0.0
0.0024000000848900527,0.0,0.0
0.0027999999474559445,0.0,0.0
0.0032000000373955118,0.0,0.0
0.0035999998999614036,0.0,0.0
0.003999999989900971,0.0,0.0
0.004399999852466863,0.0,0.0
0.004800000169780105,0.0,0.0
0.005200000032345997,0.0,0.0
0.005599999894911889,0.0,0.0
0.006000000212225132,0.0,0.0
0.0064000000747910235,0.0,0.0
0.006799999937356915,0.0,0.0
0.007199999799922807,0.0,0.0
0.00760000011723605,0.0,0.0
0.007999999979801942,0.0,0.0
0.008400000297115184,0.0,0.0
0.008799999704933725,0.0,0.0
0.009200000022246968,0.0,0.0
0.00960000033956021,0.0,0.0
0.009999999747378752,0.04980003461241722,1.8788021407090127e-05
0.010400000064691994,0.09960002452135086,0.00012072403478669003
0.010800000382005237,0.09959987550973892,0.00024144248163793236
0.011199999789823778,0.09959963709115982,0.0003621548239607364
0.01160000010713702,0.09959929436445236,0.00048286098171956837
0.012000000424450263,0.09959886223077774,0.0006035608239471912
0.012399999832268804,0.09959833323955536,0.0007242541760206223
0.012800000149582047,0.09959770739078522,0.0008449410670436919
0.013199999557400588,0.09959697723388672,0.0009656212059780955
0.01359999987471383,0.09959615767002106,0.0010862946510314941
0.014000000192027073,0.09959524124860764,0.0012069611111655831
0.014399999599845614,0.09959422796964645,0.0013276204699650407
0.014799999917158857,0.09959311783313751,0.0014482728438451886
0.0152000002344721,0.09959191083908081,0.0015689178835600615
0.015600000551785342,0.09959060698747635,0.0016895555891096592
0.015999999959603883,0.09958920627832413,0.00181018584407866
0.016399999367422424,0.09958770871162415,0.0019308084156364202
0.01680000059423037,0.099586121737957,0.00205142330378294
0.01720000000204891,0.0995844304561615,0.0021720302756875753
0.01759999940986745,0.09958264231681824,0.0022926293313503265
0.018000000636675395,0.09958075731992722,0.0024132204707711935
0.018400000044493936,0.09957878291606903,0.002533803228288889
0.018799999452312477,0.09957670420408249,0.0026543778367340565
0.01920000067912042,0.09957453608512878,0.002774943830445409
0.019600000086938962,0.09957226365804672,0.0028955014422535896
0.019999999494757503,0.0995699018239975,0.0030160504393279552
0.020400000721565448,0.09956744313240051,0.003136590588837862
0.02080000012938399,0.09956488013267517,0.00325712189078331
0.02119999953720253,0.09956222772598267,0.0033776441123336554
0.021600000764010474,0.0995594784617424,0.0034981572534888983
0.022000000171829015,0.09955663233995438,0.003618661081418395
0.022399999579647556,0.09955368936061859,0.0037391558289527893
0.0228000008064555,0.09955064952373505,0.00385964079760015
0.02320000021427404,0.09954751282930374,0.003980116453021765
0.023599999622092582,0.09954427927732468,0.004100582096725702
0.024000000848900527,0.09954095631837845,0.004221037961542606
0.024400000256719068,0.09953752905130386,0.004341484047472477
0.02479999966453761,0.09953400492668152,0.004461920354515314
0.025200000891345553,0.09953039139509201,0.004582345951348543
0.025600000299164094,0.09952667355537415,0.004702761769294739
0.025999999706982635,0.09952286630868912,0.004823166877031326
0.026399999114801176,0.09951895475387573,0.004943561274558306
0.02680000034160912,0.09951495379209518,0.005063945427536964
0.02719999974942766,0.09951085597276688,0.005184318870306015
0.027599999157246202,0.09950666129589081,0.00530468113720417
0.028000000384054147,0.09950236976146698,0.005425032693892717
0.028399999791872688,0.09949798136949539,0.005545373074710369
0.02879999919969123,0.09949349611997604,0.005665701813995838
0.029200000426499173,0.09948891401290894,0.005786019843071699
0.029599999834317714,0.09948423504829407,0.005906326230615377
0.029999999242136255,0.14860358834266663,0.0060449023731052876
0.0304000004689442,0.19772277772426605,0.006265989504754543
0.030800001695752144,0.19771768152713776,0.006505340803414583
0.031200001103570685,0.19771237671375275,0.006744674406945705
0.031600000511389226,0.19770687818527222,0.006983989384025335
0.03199999991920777,0.19770120084285736,0.00722328620031476
0.03239999932702631,0.19769532978534698,0.007462564390152693
0.03279999873484485,0.1976892650127411,0.007701823953539133
0.0332000017806422,0.19768300652503967,0.007941064424812794
0.03360000118846074,0.19767655432224274,0.008180285803973675
0.03400000059627928,0.19766992330551147,0.008419486694037914
0.03440000000409782,0.1976630836725235,0.008658668957650661
0.03479999941191636,0.1976560652256012,0.008897830732166767
0.0351999988197349,0.19764885306358337,0.009136972017586231
0.03559999822755344,0.19764144718647003,0.009376092813909054
0.03600000127335079,0.19763384759426117,0.009615193121135235
0.03640000068116933,0.1976260542869568,0.009854272939264774
0.03680000008898787,0.19761808216571808,0.010093331336975098
0.03719999949680641,0.19760991632938385,0.010332368314266205
0.037599998904624954,0.1976015418767929,0.010571383871138096
0.037999998312443495,0.19759298861026764,0.010810377076268196
0.03840000135824084,0.19758425652980804,0.01104934886097908
0.038800000766059384,0.19757531583309174,0.011288297362625599
0.039200000173877925,0.1975661963224411,0.011527224443852901
0.039599999581696466,0.19755686819553375,0.011766128242015839
0.03999999898951501,0.19754736125469208,0.01200500875711441
0.04039999839733355,0.19753766059875488,0.012243865989148617
0.040800001443130895,0.19752776622772217,0.012482700869441032
0.041200000850949436,0.19751769304275513,0.012721511535346508
0.04160000025876798,0.19750741124153137,0.012960297986865044
0.04199999966658652,0.1974969506263733,0.01319906022399664
0.04239999907440506,0.1974862962961197,0.013437798246741295
0.0427999984822236,0.19747544825077057,0.01367651205509901
0.04320000152802095,0.19746442139148712,0.013915200717747211
0.04360000093583949,0.19745318591594696,0.014153864234685898
0.04400000034365803,0.19744177162647247,0.014392501674592495
0.04439999975147657,0.19743016362190247,0.014631114900112152
0.04479999915929511,0.19741836190223694,0.01486970204859972
0.04519999856711365,0.1974063664674759,0.015108263120055199
0.045600001612911,0.19739419221878052,0.015346797183156013
0.04600000102072954,0.19738180935382843,0.015585306100547314
0.04640000042854808,0.19736924767494202,0.015823787078261375
0.046799999836366624,0.19735649228096008,0.016062242910265923
0.047199999244185165,0.19734354317188263,0.01630067080259323
0.047599998652003706,0.19733041524887085,0.0165390707552433
0.048000001697801054,0.19731709361076355,0.016777442768216133
0.048400001105619594,0.19730356335639954,0.017015786841511726
0.048800000513438135,0.1972898691892624,0.01725410483777523
0.049199999921256676,0.19727596640586853,0.017492393031716347
0.04959999932907522,0.19726186990737915,0.017730653285980225
0.04999999873689376,0.24566593766212463,0.017986644059419632
0.050400001782691106,0.294069766998291,0.018324460834264755
0.05080000119050965,0.29405495524406433,0.01868000254034996
0.05120000059832819,0.29403987526893616,0.01903551071882248
0.05160000000614673,0.2940244972705841,0.019390981644392014
0.05199999941396527,0.29400885105133057,0.019746415317058563
0.05239999882178381,0.29399290680885315,0.020101815462112427
0.05279999822960235,0.29397669434547424,0.020457176491618156
0.0532000012753997,0.29396018385887146,0.02081250213086605
0.05360000068321824,0.2939433753490448,0.02116778865456581
0.05400000009103678,0.29392629861831665,0.021523039788007736
0.05439999949885532,0.293908953666687,0.021878249943256378
0.054799998906673864,0.2938913106918335,0.022233424708247185
0.055199998314492404,0.2938733696937561,0.022588558495044708
0.05560000136028975,0.2938551604747772,0.022943653166294098
0.05600000076810829,0.29383665323257446,0.023298708721995354
0.056400000175926834,0.2938178777694702,0.023653725162148476
0.056799999583745375,0.2937988042831421,0.024008700624108315
0.057199998991563916,0.2937794625759125,0.02436363697052002
0.05759999839938246,0.293759822845459,0.02471853233873844
0.058000001445179805,0.293739914894104,0.02507338486611843
0.058400000852998346,0.29371970891952515,0.025428196415305138
0.05880000026081689,0.2936992347240448,0.02578296698629856
0.05919999966863543,0.2936784625053406,0.026137694716453552
0.05959999907645397,0.29365742206573486,0.02649237960577011
0.05999999848427251,0.2936360836029053,0.026847021654248238
0.06040000153006986,0.2936144769191742,0.027201620861887932
0.0608000009378884,0.29359257221221924,0.027556177228689194
0.06120000034570694,0.2935703694820404,0.027910688892006874
0.06160000339150429,0.2935478985309601,0.028265155851840973
0.06199999916134402,0.29352515935897827,0.02861957810819149
0.06240000220714137,0.2935021221637726,0.028973955661058426
0.0627999979769811,0.293478786945343,0.02932828851044178
0.06320000102277845,0.29345518350601196,0.029682576656341553
0.06359999679261819,0.2934313118457794,0.030036816373467445
0.06399999983841553,0.293407142162323,0.030391011387109756
0.06440000288421288,0.2933826744556427,0.030745159834623337
0.06479999865405262,0.2933579385280609,0.031099261716008186
0.06520000169984996,0.29333290457725525,0.031453315168619156
0.0655999974696897,0.2933076024055481,0.031807322055101395
0.06600000051548705,0.29328203201293945,0.03216128051280975
0.0664000035612844,0.29325616359710693,0.03251519054174423
0.06679999933112413,0.29322999715805054,0.03286904841661453
0.06720000237692147,0.29320356249809265,0.03322286158800125
0.06759999814676121,0.2931768298149109,0.03357662633061409
0.06800000119255856,0.29314982891082764,0.03393033891916275
0.06839999696239829,0.2931225597858429,0.03428399935364723
0.06880000000819564,0.2930949926376343,0.03463761508464813
0.06920000305399299,0.2930671274662018,0.034991174936294556
0.06959999882383272,0.2930389940738678,0.0353446863591671
0.07000000186963007,0.3413780927658081,0.03571586683392525
0.0703999976394698,0.38971683382987976,0.03616880252957344
0.07080000068526715,0.389687716960907,0.03663940727710724
0.07119999645510688,0.38965821266174316,0.03710994869470596
0.07159999950090423,0.3896283209323883,0.03758043423295021
0.07200000254670158,0.3895980715751648,0.038050856441259384
0.07239999831654131,0.38956746459007263,0.03852122277021408
0.07280000136233866,0.38953644037246704,0.038991529494524
0.0731999971321784,0.3895050585269928,0.03946177288889885
0.07360000017797574,0.3894733190536499,0.03993195667862892
0.07400000322377309,0.3894411623477936,0.04040207713842392
0.07439999899361283,0.3894086480140686,0.04087213799357414
0.07480000203941017,0.389375776052475,0.04134213551878929
0.07519999780924991,0.3893425166606903,0.041812069714069366
0.07560000085504726,0.3893088698387146,0.04228194057941437
0.07599999662488699,0.38927486538887024,0.042751748114824295
0.07639999967068434,0.38924047350883484,0.04322149232029915
0.07680000271648169,0.3892057240009308,0.04369116947054863
0.07719999848632142,0.3891705572605133,0.04416078329086304
0.07760000153211877,0.38913506269454956,0.04463033378124237
0.0779999973019585,0.3890991508960724,0.04509981349110603
0.07840000034775585,0.38906288146972656,0.04556922987103462
0.0788000033935532,0.3890262544155121,0.04603857919573784
0.07919999916339293,0.38898923993110657,0.046507857739925385
0.07960000220919028,0.38895183801651,0.046977072954177856
0.07999999797903001,0.3889140784740448,0.04744621738791466
0.08040000102482736,0.38887593150138855,0.047915294766426086
0.0807999967946671,0.38883742690086365,0.048384301364421844
0.08119999984046444,0.3887985050678253,0.04885323718190193
0.08160000288626179,0.3887592554092407,0.04932210594415665
0.08199999865610152,0.3887196183204651,0.04979090020060539
0.08240000170189887,0.3886795938014984,0.050259627401828766
0.0827999974717386,0.3886391818523407,0.05072828009724617
0.08320000051753595,0.38859841227531433,0.0511968620121479
0.0836000035633333,0.3885572850704193,0.051665373146533966
0.08399999933317304,0.38851574063301086,0.05213380977511406
0.08440000237897038,0.38847386837005615,0.05260217562317848
0.08479999814881012,0.388431578874588,0.05307046324014664
0.08520000119460747,0.3883889317512512,0.05353868007659912
0.0855999969644472,0.3883459270000458,0.054006822407245636
0.08600000001024455,0.3883025348186493,0.05447488650679588
0.0864000030560419,0.38825875520706177,0.05494287982583046
0.08679999882588163,0.3882146179676056,0.05541079118847847
0.08720000187167898,0.38817012310028076,0.05587863177061081
0.08759999764151871,0.3881252110004425,0.05634639412164688
0.08800000068731606,0.388079971075058,0.056814078241586685
0.0883999964571558,0.38803431391716003,0.05728168413043022
0.08879999950295314,0.38798829913139343,0.05774921178817749
0.08920000254875049,0.3879419267177582,0.05821666121482849
0.08959999831859022,0.3878951668739319,0.058684032410383224
0.09000000136438757,0.4359099268913269,0.059168823063373566
0.0903999971342273,0.4839242696762085,0.059735044836997986
0.09080000018002465,0.4838762581348419,0.06031867861747742
0.091200003225822,0.48382776975631714,0.060902226716279984
0.09159999899566174,0.48377880454063416,0.061485689133405685
0.09200000204145908,0.48372939229011536,0.062069062143564224
0.09239999781129882,0.48367950320243835,0.0626523494720459
0.09280000085709617,0.48362913727760315,0.06323554366827011
0.0931999966269359,0.48357832431793213,0.06381864845752716
0.09359999967273325,0.4835270345211029,0.06440166383981705
0.0940000027185306,0.48347529768943787,0.06498458981513977
0.09439999848837033,0.48342305421829224,0.06556742638349533
0.09480000153416768,0.4833703637123108,0.06615016609430313
0.09519999730400741,0.48331722617149353,0.06673281639814377
0.09560000034980476,0.48326361179351807,0.06731537729501724
0.09600000339560211,0.4832095205783844,0.06789784133434296
0.09639999916544184,0.4831549823284149,0.06848020851612091
0.09680000221123919,0.48309993743896484,0.0690624788403511
0.09719999798107892,0.48304447531700134,0.06964465975761414
0.09760000102687627,0.48298850655555725,0.0702267438173294
0.097999996796716,0.48293209075927734,0.07080873101949692
0.09839999984251335,0.4828752279281616,0.07139062136411667
0.0988000028883107,0.4828178882598877,0.07197241485118866
0.09919999865815043,0.48276007175445557,0.07255411148071289
0.09960000170394778,0.4827018082141876,0.07313571125268936
0.09999999747378752,0.4826430380344391,0.07371720671653748
0.10040000051958486,0.48258382081985474,0.07429860532283783
0.10080000356538221,0.48252415657043457,0.07487989962100983
0.10119999933522195,0.4824640154838562,0.07546109706163406
0.1016000023810193,0.482403427362442,0.07604219764471054
0.10199999815085903,0.48234236240386963,0.07662318646907806
0.10240000119665638,0.48228082060813904,0.07720407843589783
0.10279999696649611,0.48221883177757263,0.07778486609458923
0.10320000001229346,0.482156366109848,0.07836554944515228
0.1036000030580908,0.4820934534072876,0.07894612848758698
0.10399999882793054,0.48203006386756897,0.07952660322189331
0.10440000187372789,0.48196619749069214,0.08010697364807129
0.10479999764356762,0.4819018840789795,0.08068723976612091
0.10520000068936497,0.48183709383010864,0.08126740157604218
0.1055999964592047,0.481771856546402,0.08184745162725449
0.10599999950500205,0.4817061424255371,0.08242739737033844
0.1064000025507994,0.4816399812698364,0.08300723135471344
0.10679999832063913,0.48157334327697754,0.08358695358037949
0.10720000136643648,0.48150622844696045,0.08416657149791718
0.10759999713627622,0.48143866658210754,0.08474608510732651
0.10800000018207356,0.48137062788009644,0.08532547950744629
0.10840000322787091,0.4813021421432495,0.08590476959943771
0.10879999899771065,0.4812331795692444,0.08648394048213959
0.109200002043508,0.48116376996040344,0.0870630070567131
0.10959999781334773,0.4810938835144043,0.08764196187257767
0.11000000085914508,0.5287284851074219,0.08823803812265396
0.11039999662898481,0.5763625502586365,0.08891516923904419
0.11079999967478216,0.5762911438941956,0.08960941433906555
0.1112000027205795,0.5762192010879517,0.09030354768037796
0.11159999849041924,0.57614666223526,0.09099755436182022
0.11200000153621659,0.5760735869407654,0.09169144183397293
0.11239999730605632,0.5759999752044678,0.0923852026462555
0.11280000035185367,0.5759257674217224,0.0930788442492485
0.11320000339765102,0.5758510231971741,0.09377236664295197
0.11359999916749075,0.5757757425308228,0.09446575492620468
0.1140000022132881,0.5756998658180237,0.09515902400016785
0.11439999798312783,0.5756234526634216,0.09585216641426086
0.11480000102892518,0.5755465030670166,0.09654518216848373
0.11519999679876491,0.5754690170288086,0.09723806381225586
0.11559999984456226,0.5753909349441528,0.09793082624673843
0.11600000289035961,0.5753123164176941,0.09862345457077026
0.11639999866019934,0.5752331614494324,0.09931595623493195
0.11680000170599669,0.5751534104347229,0.10000833123922348
0.11719999747583643,0.5750731229782104,0.10070057213306427
0.11760000052163377,0.574992299079895,0.10139267891645432
0.11800000356743112,0.5749108791351318,0.10208465903997421
0.11839999933727086,0.5748289823532104,0.10277650505304337
0.1188000023830682,0.5747464299201965,0.10346821695566177
0.11919999815290794,0.5746634006500244,0.10415979474782944
0.11960000119870529,0.5745797753334045,0.10485123842954636
0.11999999696854502,0.5744956731796265,0.10554254800081253
0.12040000001434237,0.5744109749794006,0.10623372346162796
0.12080000306013972,0.574325680732727,0.10692475736141205
0.12119999882997945,0.5742399096488953,0.10761565715074539
0.1216000018757768,0.5741535425186157,0.1083064153790474
0.12199999764561653,0.5740665793418884,0.10899703949689865
0.12240000069141388,0.5739791393280029,0.10968752205371857
0.12280000373721123,0.5738911032676697,0.11037787050008774
0.12320000678300858,0.5738025307655334,0.11106806993484497
0.1235999952768907,0.5737133622169495,0.11175813525915146
0.12399999832268804,0.5736237168312073,0.1124480590224266
0.12440000136848539,0.5735334753990173,0.11313783377408981
0.12480000441428274,0.5734426975250244,0.11382746696472168
0.12519999290816486,0.5733513236045837,0.1145169585943222
0.1255999959539622,0.5732594728469849,0.11520630866289139
0.12599999899975955,0.5731670260429382,0.11589550971984863
0.1264000020455569,0.5730740427970886,0.11658456176519394
0.12680000509135425,0.5729804635047913,0.1172734722495079
0.12719999358523637,0.5728864073753357,0.11796223372220993
0.12759999663103372,0.5727917551994324,0.11865085363388062
0.12799999967683107,0.5726965665817261,0.11933931708335876
0.12840000272262841,0.572600781917572,0.12002763152122498
0.12880000576842576,0.5725045204162598,0.12071579694747925
0.12919999426230788,0.5724076628684998,0.12140381336212158
0.12959999730810523,0.5723102688789368,0.12209168076515198
0.13000000035390258,0.6201446056365967,0.12279680371284485
0.13040000339969993,0.6679784059524536,0.12358315289020538
0.13080000644549727,0.6678792238235474,0.1243867501616478
0.1311999949393794,0.6677793860435486,0.12519019842147827
0.13159999798517674,0.6676788926124573,0.12599347531795502
0.1320000010309741,0.6675778031349182,0.12679658830165863
0.13240000407677144,0.6674760580062866,0.1275995522737503
0.1328000071225688,0.6673736572265625,0.12840233743190765
0.1331999956164509,0.6672706007957458,0.12920497357845306
0.13359999866224825,0.6671668887138367,0.13000743091106415
0.1340000017080456,0.6670625805854797,0.1308097392320633
0.13440000475384295,0.6669576168060303,0.1316118687391281
0.13479999324772507,0.6668519973754883,0.132413849234581
0.13519999629352242,0.6667457818984985,0.13321565091609955
0.13559999933931977,0.6666388511657715,0.13401727378368378
0.1360000023851171,0.6665313243865967,0.13481874763965607
0.13640000543091446,0.6664231419563293,0.13562004268169403
0.13679999392479658,0.6663143634796143,0.13642115890979767
0.13719999697059393,0.6662048697471619,0.13722211122512817
0.13760000001639128,0.6660947799682617,0.13802289962768555
0.13800000306218863,0.665984034538269,0.1388235092163086
