time[s],iL[A],v out[V]
0.0,0.0,0.0
0.00040000000467443897,0.0,0.0
0.0008000000093488779,0.0,0.0
0.0012000000424450263,0.0,0.0
0.0016000000186977559,0.0,0.0
0.0019999999949504854,0.0,0.0
0.0024000000848900527,0.0,0.0
0.0027999999474559445,0.0,0.0
0.0032000000373955118,0.0,0.0
0.0035999998999614036,0.0,0.0
0.003999999989900971,0.0,0.0
0.004399999852466863,0.0,0.0
0.004800000169780105,0.0,0.0
0.005200000032345997,0.0,0.0
0.005599999894911889,0.0,0.0
0.006000000212225132,0.0,0.0
0.0064000000747910235,0.0,0.0
0.006799999937356915,0.0,0.0
0.007199999799922807,0.0,0.0
0.00760000011723605,0.0,0.0
0.007999999979801942,0.0,0.0
0.008400000297115184,0.0,0.0
0.008799999704933725,0.0,0.0
0.009200000022246968,0.004759754985570908,1.7163061727387685e-07
0.00960000033956021,0.08475974202156067,5.442494148155674e-05
0.009999999747378752,0.16475963592529297,0.00020564290753100067
0.010400000064691994,0.24475938081741333,0.0004538206849247217
0.010800000382005237,0.3247588872909546,0.0007989533478394151
0.011199999789823778,0.32951784133911133,0.0011981494026258588
0.01160000010713702,0.329516738653183,0.0015974965645000339
0.012000000424450263,0.329515278339386,0.0019968226552009583
0.012399999832268804,0.3295135200023651,0.002396127674728632
0.012800000149582047,0.32951146364212036,0.002795411041006446
0.013199999557400588,0.32950904965400696,0.003194672055542469
0.01359999987471383,0.3295063376426697,0.003593910951167345
0.014000000192027073,0.32950329780578613,0.003993127029389143
0.014399999599845614,0.3294999599456787,0.004392319358885288
0.014799999917158857,0.329496294260025,0.004791488405317068
0.0152000002344721,0.3294923007488251,0.005190633703023195
0.015600000551785342,0.32948797941207886,0.005589754320681095
0.015999999959603883,0.32948336005210876,0.005988850258290768
0.016399999367422424,0.32947838306427,0.006387921050190926
0.01680000059423037,0.3294731378555298,0.006786966230720282
0.01720000000204891,0.3294675350189209,0.007185985334217548
0.01759999940986745,0.32946163415908813,0.007584978360682726
0.018000000636675395,0.3294554054737091,0.00798394437879324
0.018400000044493936,0.3294488489627838,0.008382883854210377
0.018799999452312477,0.32944199442863464,0.008781795389950275
0.01920000067912042,0.3294348120689392,0.009180678986012936
0.019600000086938962,0.3294273018836975,0.009579534642398357
0.019999999494757503,0.32941946387290955,0.009978361427783966
0.020400000721565448,0.3294113278388977,0.010377159342169762
0.02080000012938399,0.3294028639793396,0.010775928385555744
0.02119999953720253,0.32939407229423523,0.011174666695296764
0.021600000764010474,0.329384982585907,0.011573375202715397
0.022000000171829015,0.32937556505203247,0.011972052976489067
0.022399999579647556,0.3293658196926117,0.012370700016617775
0.0228000008064555,0.32935577630996704,0.01276931632310152
0.02320000021427404,0.3293454051017761,0.013167900033295155
0.023599999622092582,0.32933470606803894,0.013566452078521252
0.024000000848900527,0.3293236792087555,0.013964971527457237
0.024400000256719068,0.32931235432624817,0.014363458380103111
0.02479999966453761,0.3293007016181946,0.0147619117051363
0.025200000891345553,0.3292887508869171,0.0151603315025568
0.025600000299164094,0.329276442527771,0.015558717772364616
0.025999999706982635,0.329263836145401,0.015957068651914597
0.026399999114801176,0.32925093173980713,0.01635538600385189
0.02680000034160912,0.3292376697063446,0.0167536661028862
0.02719999974942766,0.3292241096496582,0.017151912674307823
0.027599999157246202,0.32921022176742554,0.017550121992826462
0.028000000384054147,0.329196035861969,0.017948295921087265
0.028399999791872688,0.3291815221309662,0.018346432596445084
0.02879999919969123,0.3291666805744171,0.018744532018899918
0.029200000426499173,0.3291515111923218,0.019142594188451767
0.029599999834317714,0.3728388845920563,0.019555088132619858
0.029999999242136255,0.45282304286956787,0.02005453035235405
0.0304000004689442,0.5328067541122437,0.020650895312428474
0.030800001695752144,0.5764927864074707,0.021334197372198105
0.031200001103570685,0.5764754414558411,0.022031914442777634
0.031600000511389226,0.5764575600624084,0.022729577496647835
0.03199999991920777,0.5764390826225281,0.02342718280851841
0.03239999932702631,0.5764200687408447,0.024124732241034508
0.03279999873484485,0.5764004588127136,0.02482222579419613
0.0332000017806422,0.5763803720474243,0.025519659742712975
0.03360000118846074,0.5763596296310425,0.026217035949230194
0.03400000059627928,0.5763384103775024,0.026914352551102638
0.03440000000409782,0.5763165950775146,0.027611609548330307
0.03479999941191636,0.5762942433357239,0.0283088069409132
0.0351999988197349,0.5762712955474854,0.02900594100356102
0.03559999822755344,0.5762478113174438,0.029703015461564064
0.03600000127335079,0.5762237906455994,0.030400026589632034
0.03640000068116933,0.5761991739273071,0.03109697252511978
0.03680000008898787,0.5761740207672119,0.031793855130672455
0.03719999949680641,0.576148271560669,0.032490674406290054
0.037599998904624954,0.5761220455169678,0.03318743035197258
0.037999998312443495,0.5760952234268188,0.033884115517139435
0.03840000135824084,0.5760678052902222,0.034580737352371216
0.038800000766059384,0.5760398507118225,0.035277292132377625
0.039200000173877925,0.5760113596916199,0.03597377613186836
0.039599999581696466,0.5759823322296143,0.03667019307613373
0.03999999898951501,0.5759527087211609,0.03736654296517372
0.04039999839733355,0.5759225487709045,0.038062822073698044
0.040800001443130895,0.5758917927742004,0.0387590266764164
0.041200000850949436,0.5758605003356934,0.03945516422390938
0.04160000025876798,0.5758286714553833,0.04015122726559639
0.04199999966658652,0.5757963061332703,0.04084721952676773
0.04239999907440506,0.5757633447647095,0.0415431372821331
0.0427999984822236,0.5757297873497009,0.042238980531692505
0.04320000152802095,0.5756957530975342,0.04293474927544594
0.04360000093583949,0.5756611227989197,0.043630439788103104
0.04400000034365803,0.5756259560585022,0.0443260595202446
0.04439999975147657,0.575590193271637,0.045021601021289825
0.04479999915929511,0.5755538940429688,0.045717064291238785
0.04519999856711365,0.5755170583724976,0.046412449330091476
0.045600001612911,0.5754796266555786,0.0471077561378479
0.04600000102072954,0.5754416584968567,0.04780298098921776
0.04640000042854808,0.5754031538963318,0.04849813133478165
0.046799999836366624,0.5753640532493591,0.04919319599866867
0.047199999244185165,0.5753244161605835,0.04988818243145943
0.047599998652003706,0.5752842426300049,0.05058308318257332
0.048000001697801054,0.5752435326576233,0.05127790570259094
0.048400001105619594,0.575202226638794,0.0519726425409317
0.048800000513438135,0.5751603841781616,0.052667293697595596
0.049199999921256676,0.5751179456710815,0.053361862897872925
0.04959999932907522,0.6036025285720825,0.05406251177191734
0.04999999873689376,0.6835589408874512,0.05483996868133545
0.050400001782691106,0.7635147571563721,0.05571430176496506
0.05080000119050965,0.7919973134994507,0.056665439158678055
0.05120000059832819,0.791951596736908,0.05762263759970665
0.05160000000614673,0.7919051647186279,0.05857973173260689
0.05199999941396527,0.791857898235321,0.05953672528266907
0.05239999882178381,0.7918098568916321,0.06049361452460289
0.05279999822960235,0.7917611002922058,0.061450399458408356
0.0532000012753997,0.7917115688323975,0.062407076358795166
0.05360000068321824,0.791661262512207,0.06336364895105362
0.05400000009103678,0.7916101813316345,0.06432010978460312
0.05439999949885532,0.7915583252906799,0.06527646631002426
0.054799998906673864,0.791505753993988,0.06623271107673645
0.055199998314492404,0.7914523482322693,0.06718884408473969
0.05560000136028975,0.7913982272148132,0.06814486533403397
0.05600000076810829,0.7913433313369751,0.0691007748246193
0.056400000175926834,0.7912876605987549,0.07005657255649567
0.056799999583745375,0.7912312746047974,0.07101225852966309
0.057199998991563916,0.791174054145813,0.07196782529354095
0.05759999839938246,0.7911161184310913,0.07292327284812927
0.058000001445179805,0.7910574078559875,0.07387860864400864
0.058400000852998346,0.7909979224205017,0.07483382523059845
0.05880000026081689,0.7909376621246338,0.07578892260789871
0.05919999966863543,0.7908766269683838,0.07674390077590942
0.05959999907645397,0.7908148765563965,0.07769875973463058
0.05999999848427251,0.7907522916793823,0.0786534920334816
0.06040000153006986,0.7906889915466309,0.07960810512304306
0.0608000009378884,0.7906249165534973,0.08056259155273438
0.06120000034570694,0.7905600666999817,0.08151695877313614
0.06160000339150429,0.7904945015907288,0.08247119933366776
0.06199999916134402,0.7904281616210938,0.08342531323432922
0.06240000220714137,0.7903609871864319,0.08437930047512054
0.0627999979769811,0.7902930974960327,0.08533315360546112
0.06320000102277845,0.7902244925498962,0.08628688752651215
0.06359999679261819,0.7901550531387329,0.08724048733711243
0.06399999983841553,0.7900848984718323,0.08819395303726196
0.06440000288421288,0.7900139689445496,0.08914729207754135
0.06479999865405262,0.7899422645568848,0.0901004895567894
0.06520000169984996,0.7898697853088379,0.0910535603761673
0.0655999974696897,0.7897965908050537,0.09200649708509445
0.06600000051548705,0.7897225618362427,0.09295929968357086
0.0664000035612844,0.7896478176116943,0.09391196072101593
0.06679999933112413,0.7895722985267639,0.09486448764801025
0.06720000237692147,0.7894960641860962,0.09581688046455383
0.06759999814676121,0.7894189953804016,0.09676913172006607
0.06800000119255856,0.7893412113189697,0.09772124141454697
0.06839999696239829,0.7892626523971558,0.09867320954799652
0.06880000000819564,0.7891833186149597,0.09962503612041473
0.06920000305399299,0.7891032695770264,0.10057671368122101
0.06959999882383272,0.8126421570777893,0.101532481610775
0.07000000186963007,0.8925605416297913,0.10256098955869675
0.0703999976394698,0.9724780321121216,0.10368631780147552
0.07080000068526715,0.9960143566131592,0.10488437861204147
0.07119999645510688,0.995930016040802,0.10608649998903275
0.07159999950090423,0.9958446621894836,0.10728846490383148
0.07200000254670158,0.9957583546638489,0.10849026590585709
0.07239999831654131,0.9956710338592529,0.10969190299510956
0.07280000136233866,0.9955828189849854,0.1108933761715889
0.0731999971321784,0.9954936504364014,0.1120946854352951
0.07360000017797574,0.9954034686088562,0.11329582333564758
0.07400000322377309,0.9953123331069946,0.11449679732322693
0.07439999899361283,0.9952203035354614,0.11569759994745255
0.07480000203941017,0.995127260684967,0.11689823120832443
0.07519999780924991,0.9950332641601562,0.11809869855642319
0.07560000085504726,0.9949382543563843,0.11929898709058762
0.07599999662488699,0.9948423504829407,0.12049909681081772
0.07639999967068434,0.9947454929351807,0.12169903516769409
0.07680000271648169,0.9946476221084595,0.12289880216121674
0.07719999848632142,0.9945488572120667,0.12409838289022446
0.07760000153211877,0.9944490790367126,0.12529779970645905
0.0779999973019585,0.9943483471870422,0.12649701535701752
0.07840000034775585,0.9942467212677002,0.12769606709480286
0.0788000033935532,0.994144082069397,0.12889494001865387
0.07919999916339293,0.9940404891967773,0.13009361922740936
0.07960000220919028,0.9939358830451965,0.13129211962223053
0.07999999797903001,0.9938303828239441,0.13249042630195618
0.08040000102482736,0.9937239289283752,0.1336885541677475
0.0807999967946671,0.9936164617538452,0.1348864883184433
0.08119999984046444,0.9935081005096436,0.13608424365520477
0.08160000288626179,0.9933987259864807,0.13728180527687073
0.08199999865610152,0.9932884573936462,0.13847915828227997
0.08240000170189887,0.9931771755218506,0.13967634737491608
0.0827999974717386,0.9930649399757385,0.14087332785129547
0.08320000051753595,0.9929518103599548,0.14207011461257935
0.0836000035633333,0.99283766746521,0.1432667076587677
0.08399999933317304,0.9927225708961487,0.14446309208869934
0.08440000237897038,0.992606520652771,0.14565929770469666
0.08479999814881012,0.9924895167350769,0.14685529470443726
0.08520000119460747,0.9923715591430664,0.14805108308792114
0.0855999969644472,0.9922526478767395,0.1492466777563095
0.08600000001024455,0.9921327233314514,0.15044207870960236
0.0864000030560419,0.9920119047164917,0.1516372710466385
0.08679999882588163,0.9918901324272156,0.1528322547674179
0.08720000187167898,0.991767406463623,0.1540270298719406
0.08759999764151871,0.9916436672210693,0.1552215963602066
0.08800000068731606,0.991519033908844,0.15641595423221588
0.0883999964571558,0.9913933873176575,0.15761011838912964
0.08879999950295314,0.9912668466567993,0.1588040590286255
0.08920000254875049,0.9911393523216248,0.15999777615070343
0.08959999831859022,1.0073161125183105,0.16119331121444702
0.09000000136438757,1.0871866941452026,0.16245485842227936
0.0903999971342273,1.1670562028884888,0.16381315886974335
0.09080000018002465,1.1832298040390015,0.16523747146129608
0.091200003225822,1.183097004890442,0.16666355729103088
0.09159999899566174,1.1829631328582764,0.16808941960334778
0.09200000204145908,1.1828280687332153,0.16951504349708557
0.09239999781129882,1.1826919317245483,0.17094044387340546
0.09280000085709617,1.1825546026229858,0.17236560583114624
0.0931999966269359,1.1824160814285278,0.17379052937030792
0.09359999967273325,1.1822764873504639,0.1752152144908905
0.0940000027185306,1.182135820388794,0.17663966119289398
0.09439999848837033,1.181993842124939,0.17806386947631836
0.09480000153416768,1.1818509101867676,0.17948783934116364
0.09519999730400741,1.1817066669464111,0.18091155588626862
0.09560000034980476,1.1815613508224487,0.1823350340127945
0.09600000339560211,1.1814149618148804,0.18375827372074127
0.09639999916544184,1.1812673807144165,0.18518126010894775
0.09680000221123919,1.1811187267303467,0.18660399317741394
0.09719999798107892,1.1809688806533813,0.18802647292613983
0.09760000102687627,1.1808178424835205,0.18944871425628662
0.097999996796716,1.1806657314300537,0.19087068736553192
0.09839999984251335,1.1805124282836914,0.19229242205619812
0.0988000028883107,1.1803580522537231,0.19371388852596283
0.09919999865815043,1.1802024841308594,0.19513511657714844
0.09960000170394778,1.1800458431243896,0.19655606150627136
0.09999999747378752,1.1798880100250244,0.19797676801681519
0.10040000051958486,1.1797291040420532,0.19939720630645752
0.10080000356538221,1.1795690059661865,0.20081737637519836
0.10119999933522195,1.1794077157974243,0.2022372931241989
0.1016000023810193,1.1792453527450562,0.20365694165229797
0.10199999815085903,1.179081916809082,0.20507632195949554
0.10240000119665638,1.1789172887802124,0.20649543404579163
0.10279999696649611,1.1787514686584473,0.20791427791118622
0.10320000001229346,1.1785845756530762,0.20933285355567932
0.1036000030580908,1.1784166097640991,0.21075114607810974
0.10399999882793054,1.1782474517822266,0.21216918528079987
0.10440000187372789,1.1780771017074585,0.2135869413614273
0.10479999764356762,1.1779056787490845,0.21500441431999207
0.10520000068936497,1.177733063697815,0.21642161905765533
0.1055999964592047,1.1775593757629395,0.21783854067325592
0.10599999950500205,1.177384614944458,0.21925517916679382
0.1064000025507994,1.1772085428237915,0.22067154943943024
0.10679999832063913,1.1770315170288086,0.22208762168884277
0.10720000136643648,1.1768532991409302,0.22350341081619263
0.10759999713627622,1.1766738891601562,0.224918931722641
0.10800000018207356,1.1764934062957764,0.22633415460586548
0.10840000322787091,1.176311731338501,0.2277490794658661
0.10879999899771065,1.1761289834976196,0.22916372120380402
0.109200002043508,1.1759450435638428,0.23057807981967926
0.10959999781334773,1.1853256225585938,0.23199284076690674
0.11000000085914508,1.2651394605636597,0.23346668481826782
0.11039999662898481,1.34495210647583,0.2350372076034546
0.11079999967478216,1.354328989982605,0.23666679859161377
0.1112000027205795,1.354138970375061,0.238296777009964
0.11159999849041924,1.353947639465332,0.23992645740509033
0.11200000153621659,1.3537551164627075,0.2415558099746704
0.11239999730605632,1.3535611629486084,0.24318484961986542
0.11280000035185367,1.3533660173416138,0.24481359124183655
0.11320000339765102,1.3531694412231445,0.2464420050382614
0.11359999916749075,1.3529716730117798,0.2480701059103012
0.1140000022132881,1.35277259349823,0.24969787895679474
0.11439999798312783,1.3525722026824951,0.2513253390789032
0.11480000102892518,1.3523705005645752,0.2529524564743042
0.11519999679876491,1.3521674871444702,0.2545792758464813
0.11559999984456226,1.3519631624221802,0.2562057673931122
0.11600000289035961,1.351757526397705,0.2578319311141968
0.11639999866019934,1.351550579071045,0.2594577372074127
0.11680000170599669,1.3513423204421997,0.2610832452774048
0.11719999747583643,1.351132869720459,0.2627084255218506
0.11760000052163377,1.3509219884872437,0.26433324813842773
0.11800000356743112,1.3507099151611328,0.2659577429294586
0.11839999933727086,1.350496530532837,0.26758190989494324
0.1188000023830682,1.350281834602356,0.2692057192325592
0.11919999815290794,1.35006582736969,0.2708292007446289
0.11960000119870529,1.3498485088348389,0.27245235443115234
0.11999999696854502,1.3496298789978027,0.27407515048980713
0.12040000001434237,1.3494099378585815,0.27569761872291565
0.12080000306013972,1.3491888046264648,0.27731969952583313
0.12119999882997945,1.3489662408828735,0.27894148230552673
0.1216000018757768,1.3487424850463867,0.2805628776550293
0.12199999764561653,1.3485172986984253,0.2821839451789856
0.12240000069141388,1.3482909202575684,0.28380465507507324
0.12280000373721123,1.3480632305145264,0.28542500734329224
0.12320000678300858,1.3478342294692993,0.2870450019836426
0.1235999952768907,1.3476040363311768,0.28866463899612427
0.12399999832268804,1.3473724126815796,0.2902839481830597
0.12440000136848539,1.347139596939087,0.2919028699398041
0.12480000441428274,1.3469053506851196,0.2935214340686798
0.12519999290816486,1.3466699123382568,0.2951396107673645
0.1255999959539622,1.346433162689209,0.29675745964050293
0.12599999899975955,1.346195101737976,0.2983749210834503
0.1264000020455569,1.345955729484558,0.29999202489852905
0.12680000509135425,1.3457151651382446,0.30160874128341675
0.12719999358523637,1.3454731702804565,0.3032251298427582
0.12759999663103372,1.345229983329773,0.3048411011695862
0.12799999967683107,1.3449854850769043,0.30645671486854553
0.12840000272262841,1.3447396755218506,0.30807197093963623
0.12880000576842576,1.3444925546646118,0.3096868097782135
0.12919999426230788,1.344244122505188,0.3113012909889221
0.12959999730810523,1.3486145734786987,0.312915563583374
0.13000000035390258,1.428363561630249,0.31458336114883423
0.13040000339969993,1.5081112384796143,0.31634774804115295
0.13080000644549727,1.5124775171279907,0.31816568970680237
0.1311999949393794,1.5122222900390625,0.3199833631515503
0.13159999798517674,1.5119655132293701,0.3218006491661072
0.1320000010309741,1.5117074251174927,0.32361751794815063
0.13240000407677144,1.511447787284851,0.32543399930000305
0.1328000071225688,1.5111867189407349,0.32725009322166443
0.1331999956164509,1.5109241008758545,0.32906574010849
0.13359999866224825,1.510660171508789,0.3308810293674469
0.1340000017080456,1.5103946924209595,0.332695871591568
0.13440000475384295,1.5101279020309448,0.33451032638549805
0.13479999324772507,1.509859561920166,0.3363243639469147
0.13519999629352242,1.5095897912979126,0.33813798427581787
0.13559999933931977,1.509318470954895,0.33995118737220764
0.1360000023851171,1.5090458393096924,0.341763973236084
0.13640000543091446,1.5087716579437256,0.3435763120651245
0.13679999392479658,1.5084960460662842,0.345388263463974
0.13719999697059393,1.5082190036773682,0.34719979763031006
0.13760000001639128,1.5079405307769775,0.3490108847618103
0.13800000306218863,1.5076606273651123,0.3508215546607971
0.13840000610798597,1.5073792934417725,0.3526318073272705
0.1387999946018681,1.5070964097976685,0.3544416129589081
0.13919999764766544,1.5068120956420898,0.3562510013580322
0.1396000006934628,1.5065264701843262,0.35805994272232056
