time[s],iL[A],v out[V]
0.0,0.0,0.0
0.00040000000467443897,0.07985765486955643,4.831168917007744e-05
0.0008000000093488779,0.15985755622386932,0.00019358817371539772
0.0012000000424450263,0.23985731601715088,0.0004358247679192573
0.0016000000186977559,0.3198568522930145,0.000775016553234309
0.0019999999949504854,0.3998560607433319,0.0012111584655940533
0.0024000000848900527,0.47985488176345825,0.0017442454118281603
0.0027999999474559445,0.5598532557487488,0.002374272095039487
0.0032000000373955118,0.6398510336875916,0.0031012333929538727
0.0035999998999614036,0.7198482155799866,0.00392512371763587
0.003999999989900971,0.7998447418212891,0.004845937713980675
0.004399999852466863,0.8798404932022095,0.005863669328391552
0.004800000169780105,0.9598353505134583,0.006978313438594341
0.005200000032345997,1.0398292541503906,0.008189864456653595
0.005599999894911889,1.1198222637176514,0.00949831586331129
0.006000000212225132,1.1998140811920166,0.010903662070631981
0.0064000000747910235,1.2798047065734863,0.012405896559357643
0.006799999937356915,1.3597941398620605,0.01400501374155283
0.007199999799922807,1.4397822618484497,0.01570100709795952
0.00760000011723605,1.5197690725326538,0.017493870109319687
0.007999999979801942,1.5997543334960938,0.019383596256375313
0.008400000297115184,1.6797380447387695,0.02137017995119095
0.008799999704933725,1.7597200870513916,0.023453613743185997
0.009200000022246968,1.83970046043396,0.02563389204442501
0.00960000033956021,1.919679045677185,0.027911007404327393
0.009999999747378752,1.9996557235717773,0.030284950509667397
0.010400000064691994,2.0796306133270264,0.032755717635154724
0.010800000382005237,2.1596033573150635,0.03532329946756363
0.011199999789823778,2.2395739555358887,0.037987690418958664
0.01160000010713702,2.319542407989502,0.04074888303875923
0.012000000424450263,2.3995087146759033,0.043606869876384735
0.012399999832268804,2.4794726371765137,0.04656164348125458
0.012800000149582047,2.559434175491333,0.04961319640278816
0.013199999557400588,2.6393933296203613,0.05276152119040489
0.01359999987471383,2.7193498611450195,0.05600660666823387
0.014000000192027073,2.7993037700653076,0.0593484491109848
0.014399999599845614,2.8792548179626465,0.06278704106807709
0.014799999917158857,2.9592032432556152,0.06632237136363983
0.0152000002344721,3.0391485691070557,0.06995443254709244
0.015600000551785342,3.119091272354126,0.07368321716785431
0.015999999959603883,3.199030876159668,0.07750871777534485
0.016399999367422424,3.2789671421051025,0.08143092691898346
0.01680000059423037,3.358900547027588,0.08544982969760895
0.01720000000204891,3.4388303756713867,0.08956542611122131
0.01759999940986745,3.5187571048736572,0.09377770125865936
0.018000000636675395,3.5986804962158203,0.0980866476893425
0.018400000044493936,3.6786000728607178,0.10249225795269012
0.018799999452312477,3.758516311645508,0.10699452459812164
0.01920000067912042,3.8384289741516113,0.11159343272447586
0.019600000086938962,3.918337821960449,0.11628898233175278
0.019999999494757503,3.998100519180298,0.1210811585187912
0.020400000721565448,4.071386337280273,0.12596209347248077
0.02080000012938399,4.1512837409973145,0.1309393048286438
0.02119999953720253,4.231176853179932,0.13601310551166534
0.021600000764010474,4.311066150665283,0.1411835104227066
0.022000000171829015,4.390951156616211,0.1464504897594452
0.022399999579647556,4.470831871032715,0.1518140286207199
0.0228000008064555,4.550708293914795,0.15727414190769196
0.02320000021427404,4.630579948425293,0.16283079981803894
0.023599999622092582,4.710447788238525,0.16848400235176086
0.024000000848900527,4.790310382843018,0.17423371970653534
0.024400000256719068,4.870168685913086,0.18007996678352356
0.02479999966453761,4.950022220611572,0.18602272868156433
0.025200000891345553,5.029870986938477,0.19206199049949646
0.025600000299164094,5.109714984893799,0.19819772243499756
0.025999999706982635,5.189554214477539,0.20442995429039001
0.026399999114801176,5.269387722015381,0.21075864136219025
0.02680000034160912,5.349216938018799,0.21718378365039825
0.02719999974942766,5.429040431976318,0.22370536625385284
0.027599999157246202,5.508858680725098,0.23032338917255402
0.028000000384054147,5.588671684265137,0.23703783750534058
0.028399999791872688,5.6684794425964355,0.24384869635105133
0.02879999919969123,5.748281478881836,0.2507559657096863
0.029200000426499173,5.828078269958496,0.25775960087776184
0.029599999834317714,5.907869338989258,0.2648596465587616
0.029999999242136255,5.987654685974121,0.27205604314804077
0.0304000004689442,6.067433834075928,0.27934879064559937
0.030800001695752144,6.147207736968994,0.286737859249115
0.031200001103570685,6.226974964141846,0.29422327876091003
0.031600000511389226,6.306736946105957,0.3018050193786621
0.03199999991920777,6.3864922523498535,0.3094830811023712
0.03239999932702631,6.466241359710693,0.31725743412971497
0.03279999873484485,6.545984745025635,0.32512804865837097
0.0332000017806422,6.625721454620361,0.3330949544906616
0.03360000118846074,6.705451488494873,0.34115809202194214
0.03400000059627928,6.785175323486328,0.3493174910545349
0.03440000000409782,6.864892482757568,0.35757312178611755
0.03479999941191636,6.944603443145752,0.36592498421669006
0.0351999988197349,7.0243072509765625,0.37437304854393005
0.03559999822755344,7.104004383087158,0.3829173147678375
0.03600000127335079,7.183694362640381,0.3915577232837677
0.03640000068116933,7.263377666473389,0.40029433369636536
0.03680000008898787,7.343053817749023,0.4091271162033081
0.03719999949680641,7.422723293304443,0.41805601119995117
0.037599998904624954,7.502385139465332,0.42708104848861694
0.037999998312443495,7.582039833068848,0.43620219826698303
0.03840000135824084,7.661686897277832,0.44541943073272705
0.038800000766059384,7.741327285766602,0.4547327756881714
0.039200000173877925,7.820959568023682,0.46414220333099365
0.039599999581696466,7.9005842208862305,0.47364768385887146
0.03999999898951501,7.973586559295654,0.48324885964393616
0.04039999839733355,7.973196029663086,0.4928899109363556
0.040800001443130895,7.972797870635986,0.502530038356781
0.041200000850949436,7.9723920822143555,0.5121691823005676
0.04160000025876798,7.971978664398193,0.5218073725700378
0.04199999966658652,7.971557140350342,0.5314446091651917
0.04239999907440506,7.971127986907959,0.5410808324813843
0.0427999984822236,7.983768939971924,0.5507173538208008
0.04320000152802095,8.063324928283691,0.5604159235954285
0.04360000093583949,8.142871856689453,0.5702104568481445
0.04400000034365803,8.222412109375,0.580100953578949
0.04439999975147657,8.3019437789917,0.5900872945785522
0.04479999915929511,8.381467819213867,0.6001695990562439
0.04519999856711365,8.460984230041504,0.6103478074073792
0.045600001612911,8.540491104125977,0.620621919631958
0.04600000102072954,8.619990348815918,0.6309918761253357
0.04640000042854808,8.699481964111328,0.6414576768875122
0.046799999836366624,8.778964042663574,0.6520193219184875
0.047199999244185165,8.858438491821289,0.6626767516136169
0.047599998652003706,8.937904357910156,0.6734300255775452
0.048000001697801054,9.01736068725586,0.6842790842056274
0.048400001105619594,9.096809387207031,0.6952239871025085
0.048800000513438135,9.176248550415039,0.7062645554542542
0.049199999921256676,9.2556791305542,0.7174009084701538
0.04959999932907522,9.335101127624512,0.7286329865455627
0.04999999873689376,9.41451358795166,0.739960789680481
0.050400001782691106,9.493916511535645,0.7513843178749084
0.05080000119050965,9.573310852050781,0.7629035115242004
0.05120000059832819,9.65269660949707,0.7745183706283569
0.05160000000614673,9.732071876525879,0.7862288355827332
0.05199999941396527,9.81143856048584,0.7980350255966187
0.05239999882178381,9.89079475402832,0.8099367618560791
0.05279999822960235,9.970142364501953,0.821934163570404
0.0532000012753997,10.049479484558105,0.834027111530304
0.05360000068321824,10.12880802154541,0.8462156653404236
0.05400000009103678,10.208126068115234,0.8584997057914734
0.05439999949885532,10.287434577941895,0.8708793520927429
0.054799998906673864,10.366732597351074,0.8833544850349426
0.055199998314492404,10.44602108001709,0.8959251642227173
0.05560000136028975,10.525299072265625,0.9085913300514221
0.05600000076810829,10.60456657409668,0.9213529229164124
0.056400000175926834,10.68382453918457,0.9342100024223328
0.056799999583745375,10.76307201385498,0.9471625089645386
0.057199998991563916,10.84230899810791,0.9602104425430298
0.05759999839938246,10.854613304138184,0.9733198285102844
0.058000001445179805,10.853829383850098,0.98642897605896
0.058400000852998346,10.853034973144531,0.9995365142822266
0.05880000026081689,10.852230072021484,1.0126423835754395
0.05919999966863543,10.851414680480957,1.0257467031478882
0.05959999907645397,10.85058879852295,1.0388494729995728
0.05999999848427251,10.849752426147461,1.051950454711914
0.06040000153006986,10.848905563354492,1.0650498867034912
0.0608000009378884,10.848048210144043,1.078147530555725
0.06120000034570694,10.847180366516113,1.0912436246871948
0.06160000339150429,10.846302032470703,1.1043379306793213
0.06199999916134402,10.845413208007812,1.117430567741394
0.06240000220714137,10.844514846801758,1.1305214166641235
0.0627999979769811,10.843605041503906,1.1436107158660889
0.06320000102277845,10.842684745788574,1.1566981077194214
0.06359999679261819,10.841753959655762,1.1697838306427002
0.06399999983841553,10.840812683105469,1.1828676462173462
0.06440000288421288,10.839861869812012,1.1959497928619385
0.06479999865405262,10.838899612426758,1.2090301513671875
0.06520000169984996,10.837926864624023,1.2221087217330933
0.0655999974696897,10.836944580078125,1.2351853847503662
0.06600000051548705,10.83595085144043,1.248260259628296
0.0664000035612844,10.834946632385254,1.2613333463668823
0.06679999933112413,10.833932876586914,1.274404525756836
0.06720000237692147,10.832907676696777,1.2874737977981567
0.06759999814676121,10.831872940063477,1.3005412817001343
0.06800000119255856,10.848745346069336,1.31360924243927
0.06839999696239829,10.927689552307129,1.3267431259155273
0.06880000000819564,11.006622314453125,1.3399720191955566
0.06920000305399299,11.085545539855957,1.353295922279358
0.06959999882383272,11.164457321166992,1.3667148351669312
0.07000000186963007,11.243358612060547,1.3802286386489868
0.0703999976394698,11.322249412536621,1.393837571144104
0.07080000068526715,11.401128768920898,1.4075413942337036
0.07119999645510688,11.479996681213379,1.4213401079177856
0.07159999950090423,11.558854103088379,1.4352338314056396
0.07200000254670158,11.637700080871582,1.449222445487976
0.07239999831654131,11.654454231262207,1.463276743888855
0.07280000136233866,11.653277397155762,1.477331280708313
0.0731999971321784,11.652090072631836,1.4913837909698486
0.07360000017797574,11.650891304016113,1.5054341554641724
0.07400000322377309,11.64968204498291,1.5194824934005737
0.07439999899361283,11.648460388183594,1.5335285663604736
0.07480000203941017,11.647228240966797,1.547572374343872
0.07519999780924991,11.645984649658203,1.5616141557693481
0.07560000085504726,11.644729614257812,1.5756536722183228
0.07599999662488699,11.643463134765625,1.5896910429000854
0.07639999967068434,11.642186164855957,1.6037261486053467
0.07680000271648169,11.640897750854492,1.6177589893341064
0.07719999848632142,11.63959789276123,1.6317895650863647
0.07760000153211877,11.638286590576172,1.6458178758621216
0.0779999973019585,11.636963844299316,1.6598440408706665
0.07840000034775585,11.63563060760498,1.6738678216934204
0.0788000033935532,11.634285926818848,1.6878892183303833
0.07919999916339293,11.632929801940918,1.7019084692001343
0.07960000220919028,11.631563186645508,1.7159252166748047
0.07999999797903001,11.630184173583984,1.7299398183822632
0.08040000102482736,11.62879467010498,1.7439519166946411
0.0807999967946671,11.62739372253418,1.7579617500305176
0.08119999984046444,11.625982284545898,1.7719690799713135
0.08160000288626179,11.624558448791504,1.785974144935608
0.08199999865610152,11.623124122619629,1.7999767065048218
0.08240000170189887,11.621678352355957,1.813976764678955
0.0827999974717386,11.620222091674805,1.827974557876587
0.08320000051753595,11.618754386901855,1.8419697284698486
0.0836000035633333,11.61727523803711,1.8559626340866089
0.08399999933317304,11.615784645080566,1.869952917098999
0.08440000237897038,11.614282608032227,1.8839406967163086
0.08479999814881012,11.612770080566406,1.8979260921478271
0.08520000119460747,11.611246109008789,1.9119088649749756
0.0855999969644472,11.609710693359375,1.9258891344070435
0.08600000001024455,11.60816478729248,1.9398669004440308
0.0864000030560419,11.606607437133789,1.953842043876648
0.08679999882588163,11.6050386428833,1.967814564704895
0.08720000187167898,11.603458404541016,1.9817845821380615
0.08759999764151871,11.60186767578125,1.995751976966858
0.08800000068731606,11.600265502929688,2.009716749191284
0.0883999964571558,11.598651885986328,2.02367901802063
0.08879999950295314,11.603788375854492,2.0376389026641846
0.08920000254875049,11.68215274810791,2.051652431488037
0.08959999831859022,11.760505676269531,2.065760374069214
0.09000000136438757,11.838847160339355,2.0799624919891357
0.0903999971342273,11.917177200317383,2.0942587852478027
0.09080000018002465,11.99549674987793,2.108649492263794
0.091200003225822,12.073803901672363,2.1231343746185303
0.09159999899566174,12.07886028289795,2.1376726627349854
0.09200000204145908,12.077143669128418,2.1522088050842285
0.09239999781129882,12.075416564941406,2.1667420864105225
0.09280000085709617,12.073677062988281,2.181272506713867
0.0931999966269359,12.07192611694336,2.1958000659942627
0.09359999967273325,12.07016372680664,2.210324764251709
0.0940000027185306,12.068389892578125,2.224846601486206
0.09439999848837033,12.066604614257812,2.239365816116333
0.09480000153416768,12.064806938171387,2.2538819313049316
0.09519999730400741,12.062997817993164,2.268395185470581
0.09560000034980476,12.061177253723145,2.2829055786132812
0.09600000339560211,12.059345245361328,2.2974131107330322
0.09639999916544184,12.057501792907715,2.311917543411255
0.09680000221123919,12.055645942687988,2.3264191150665283
0.09719999798107892,12.053779602050781,2.3409178256988525
0.09760000102687627,12.051900863647461,2.3554134368896484
0.097999996796716,12.050010681152344,2.369905948638916
0.09839999984251335,12.04810905456543,2.3843958377838135
0.0988000028883107,12.046195983886719,2.3988823890686035
0.09919999865815043,12.044270515441895,2.4133660793304443
0.09960000170394778,12.04233455657959,2.427846670150757
0.09999999747378752,12.040386199951172,2.442324161529541
0.10040000051958486,12.038426399230957,2.456798553466797
0.10080000356538221,12.036455154418945,2.4712700843811035
0.10119999933522195,12.034472465515137,2.4857382774353027
0.1016000023810193,12.032478332519531,2.5002033710479736
0.10199999815085903,12.030471801757812,2.514665365219116
0.10240000119665638,12.028454780578613,2.5291242599487305
0.10279999696649611,12.0264253616333,2.5435800552368164
0.10320000001229346,12.024384498596191,2.558032751083374
0.1036000030580908,12.022333145141602,2.572482109069824
0.10399999882793054,12.020269393920898,2.586928367614746
0.10440000187372789,12.018193244934082,2.6013712882995605
0.10479999764356762,12.016106605529785,2.6158111095428467
0.10520000068936497,12.014008522033691,2.6302475929260254
0.1055999964592047,12.011898040771484,2.6446807384490967
0.10599999950500205,12.009777069091797,2.6591107845306396
0.1064000025507994,12.007643699645996,2.673537492752075
0.10679999832063913,12.005498886108398,2.6879611015319824
0.10720000136643648,12.003342628479004,2.702381134033203
0.10759999713627622,12.001175880432129,2.7167980670928955
0.10800000018207356,11.998995780944824,2.7312114238739014
0.10840000322787091,11.996805191040039,2.745621681213379
0.10879999899771065,11.994603157043457,2.76002836227417
0.109200002043508,12.013644218444824,2.77443528175354
0.10959999781334773,12.091419219970703,2.788909435272217
0.11000000085914508,12.169182777404785,2.8034772872924805
0.11039999662898481,12.246933937072754,2.818138599395752
0.11079999967478216,12.324673652648926,2.8328936100006104
0.1112000027205795,12.343656539916992,2.8477158546447754
0.11159999849041924,12.3413724899292,2.8625380992889404
0.11200000153621659,12.339076042175293,2.877356767654419
0.11239999730605632,12.33676815032959,2.892171859741211
0.11280000035185367,12.33444881439209,2.9069836139678955
0.11320000339765102,12.332117080688477,2.9217917919158936
0.11359999916749075,12.329773902893066,2.936596155166626
0.1140000022132881,12.327418327331543,2.951397180557251
0.11439999798312783,12.325051307678223,2.9661946296691895
0.11480000102892518,12.322672843933105,2.9809885025024414
0.11519999679876491,12.320281982421875,2.995778799057007
0.11559999984456226,12.317879676818848,3.0105655193328857
0.11600000289035961,12.315464973449707,3.025348424911499
0.11639999866019934,12.31303882598877,3.040127754211426
0.11680000170599669,12.310601234436035,3.054903268814087
0.11719999747583643,12.308151245117188,3.0696754455566406
0.11760000052163377,12.305689811706543,3.0844435691833496
0.11800000356743112,12.303215980529785,3.099208116531372
0.11839999933727086,12.30073070526123,3.113969087600708
0.1188000023830682,12.298233985900879,3.1287262439727783
0.11919999815290794,12.295724868774414,3.143479585647583
0.11960000119870529,12.293204307556152,3.158229112625122
0.11999999696854502,12.290671348571777,3.1729750633239746
0.12040000001434237,12.288126945495605,3.1877171993255615
0.12080000306013972,12.285571098327637,3.2024552822113037
0.12119999882997945,12.283002853393555,3.2171897888183594
0.1216000018757768,12.280423164367676,3.2319202423095703
0.12199999764561653,12.27783203125,3.2466471195220947
0.12240000069141388,12.275228500366211,3.2613699436187744
0.12280000373721123,12.272613525390625,3.2760889530181885
0.12320000678300858,12.269987106323242,3.290804147720337
0.1235999952768907,12.267348289489746,3.3055152893066406
0.12399999832268804,12.264698028564453,3.3202226161956787
0.12440000136848539,12.262036323547363,3.334925889968872
0.12480000441428274,12.25936222076416,3.3496253490448
0.12519999290816486,12.25667667388916,3.364320755004883
0.1255999959539622,12.253979682922363,3.379012107849121
0.12599999899975955,12.251270294189453,3.3936996459960938
0.1264000020455569,12.248549461364746,3.4083831310272217
0.12680000509135425,12.245817184448242,3.423062562942505
0.12719999358523637,12.243072509765625,3.4377381801605225
0.12759999663103372,12.240316390991211,3.452409505844116
0.12799999967683107,12.237548828125,3.4670767784118652
0.12840000272262841,12.234768867492676,3.4817399978637695
0.12880000576842576,12.231978416442871,3.496399164199829
0.12919999426230788,12.229174613952637,3.511054277420044
0.12959999730810523,12.296523094177246,3.525742530822754
0.13000000035390258,12.373696327209473,3.540522813796997
0.13040000339969993,12.450858116149902,3.55539608001709
0.13080000644549727,12.518169403076172,3.5703611373901367
0.1311999949393794,12.515307426452637,3.585359573364258
0.13159999798517674,12.512433052062988,3.600353717803955
0.1320000010309741,12.509547233581543,3.6153435707092285
0.13240000407677144,12.506649017333984,3.6303293704986572
0.1328000071225688,12.503738403320312,3.645310640335083
0.1331999956164509,12.500816345214844,3.660287857055664
0.13359999866224825,12.497881889343262,3.6752607822418213
0.1340000017080456,12.494935989379883,3.6902294158935547
0.13440000475384295,12.49197769165039,3.7051937580108643
0.13479999324772507,12.489007949829102,3.72015380859375
0.13519999629352242,12.4860258102417,3.735109329223633
0.13559999933931977,12.483031272888184,3.750060558319092
0.1360000023851171,12.480025291442871,3.765007495880127
0.13640000543091446,12.477006912231445,3.7799501419067383
0.13679999392479658,12.473977088928223,3.7948882579803467
0.13719999697059393,12.470935821533203,3.8098220825195312
0.13760000001639128,12.46788215637207,3.824751377105713
0.13800000306218863,12.464816093444824,3.8396763801574707
