time[s],iL[A],v out[V]
0.0,0.0,0.0
0.00040000000467443897,0.0,0.0
0.0008000000093488779,0.0,0.0
0.0012000000424450263,0.0,0.0
0.0016000000186977559,0.0,0.0
0.0019999999949504854,0.0,0.0
0.0024000000848900527,0.0,0.0
0.0027999999474559445,0.0,0.0
0.0032000000373955118,0.0,0.0
0.0035999998999614036,0.0,0.0
0.003999999989900971,0.0,0.0
0.004399999852466863,0.0,0.0
0.004800000169780105,0.0,0.0
0.005200000032345997,0.0,0.0
0.005599999894911889,0.0,0.0
0.006000000212225132,0.0,0.0
0.0064000000747910235,0.0,0.0
0.006799999937356915,0.0,0.0
0.007199999799922807,0.0,0.0
0.00760000011723605,0.0,0.0
0.007999999979801942,0.0,0.0
0.008400000297115184,0.0,0.0
0.008799999704933725,0.0,0.0
0.009200000022246968,0.0,0.0
0.00960000033956021,0.0,0.0
0.009999999747378752,0.012899935245513916,1.2606658401637105e-06
0.010400000064691994,0.025799857452511787,3.127180025330745e-05
0.010800000382005237,0.025799820199608803,6.254205800360069e-05
0.011199999789823778,0.025799758732318878,9.381074778502807e-05
0.01160000010713702,0.025799669325351715,0.0001250778150279075
0.012000000424450263,0.02579955756664276,0.00015634325973223895
0.012399999832268804,0.025799419730901718,0.00018760703096631914
0.012800000149582047,0.025799257680773735,0.00021886911417823285
0.013199999557400588,0.025799069553613663,0.0002501294657122344
0.01359999987471383,0.02579885721206665,0.0002813880564644933
0.014000000192027073,0.02579861879348755,0.00031264484277926385
0.014399999599845614,0.025798356160521507,0.0003438998246565461
0.014799999917158857,0.025798069313168526,0.00037515294388867915
0.0152000002344721,0.025797756388783455,0.00040640420047566295
0.015600000551785342,0.025797419250011444,0.00043765356531366706
0.015999999959603883,0.025797056034207344,0.0004689009510912001
0.016399999367422424,0.025796668604016304,0.000500146416015923
0.01680000059423037,0.025796256959438324,0.000531389843672514
0.01720000000204891,0.025795819237828255,0.0005626312340609729
0.01759999940986745,0.025795355439186096,0.0005938705871812999
0.018000000636675395,0.025794869288802147,0.000625107844825834
0.018400000044493936,0.02579435519874096,0.0006563429487869143
0.018799999452312477,0.02579381875693798,0.0006875759572722018
0.01920000067912042,0.025793256238102913,0.0007188067538663745
0.019600000086938962,0.025792667642235756,0.0007500353385694325
0.019999999494757503,0.025792056694626808,0.0007812617113813758
0.020400000721565448,0.02579141966998577,0.0008124858140945435
0.02080000012938399,0.025790756568312645,0.0008437075885012746
0.02119999953720253,0.02579006925225258,0.0008749270346015692
0.021600000764010474,0.025789357721805573,0.0009061440941877663
0.022000000171829015,0.025788620114326477,0.000937358767259866
0.022399999579647556,0.025787856429815292,0.0009685710538178682
0.0228000008064555,0.025787070393562317,0.0009997808374464512
0.02320000021427404,0.025786258280277252,0.0010309881763532758
0.023599999622092582,0.0257854200899601,0.001062193070538342
0.024000000848900527,0.025784557685256004,0.0010933952871710062
0.024400000256719068,0.02578367106616497,0.001124595059081912
0.02479999966453761,0.025782758370041847,0.0011557921534404159
0.025200000891345553,0.025781821459531784,0.0011869865702465177
0.025600000299164094,0.02578085847198963,0.0012181784259155393
0.025999999706982635,0.02577987313270569,0.001249367487616837
0.026399999114801176,0.025778859853744507,0.0012805538717657328
0.02680000034160912,0.025777824223041534,0.0013117374619469047
0.02719999974942766,0.025776762515306473,0.0013429183745756745
0.027599999157246202,0.025775674730539322,0.0013740963768213987
0.028000000384054147,0.02577456273138523,0.001405271585099399
0.028399999791872688,0.0257734265178442,0.0014364438829943538
0.02879999919969123,0.02577226422727108,0.0014676133869215846
0.029200000426499173,0.02577107772231102,0.001498779864050448
0.029599999834317714,0.02576986700296402,0.0015299433143809438
0.029999999242136255,0.03863596171140671,0.0015623581130057573
0.0304000004689442,0.05150201916694641,0.0016234541544690728
0.030800001695752144,0.05150069668889046,0.0016857997979968786
0.031200001103570685,0.051499322056770325,0.0017481407849118114
0.031600000511389226,0.05149789899587631,0.001810477115213871
0.03199999991920777,0.05149642378091812,0.001872808556072414
0.03239999932702631,0.05149490386247635,0.001935135223902762
0.03279999873484485,0.0514933280646801,0.001997457118704915
0.0332000017806422,0.05149170756340027,0.002059773774817586
0.03360000118846074,0.05149003490805626,0.0021220857743173838
0.03400000059627928,0.05148831009864807,0.0021843924187123775
0.03440000000409782,0.051486536860466,0.002246693940833211
0.03479999941191636,0.051484715193510056,0.002308990340679884
0.0351999988197349,0.05148284509778023,0.002371281385421753
0.03559999822755344,0.05148092284798622,0.0024335673078894615
0.03600000127335079,0.051478952169418335,0.0024958476424217224
0.03640000068116933,0.05147692933678627,0.0025581226218491793
0.03680000008898787,0.051474858075380325,0.002620392246171832
0.03719999949680641,0.0514727346599102,0.0026826560497283936
0.037599998904624954,0.0514705665409565,0.002744914498180151
0.037999998312443495,0.051468342542648315,0.002807167125865817
0.03840000135824084,0.05146607384085655,0.002869413932785392
0.038800000766059384,0.05146375298500061,0.002931654918938875
0.039200000173877925,0.05146138370037079,0.002993890317156911
0.039599999581696466,0.05145896226167679,0.0030561196617782116
0.03999999898951501,0.05145649239420891,0.0031183429528027773
0.04039999839733355,0.05145397409796715,0.003180560190230608
0.040800001443130895,0.05145140364766121,0.0032427713740617037
0.041200000850949436,0.05144878476858139,0.0033049765042960644
0.04160000025876798,0.05144611373543739,0.0033671753481030464
0.04199999966658652,0.051443397998809814,0.003429367672652006
0.04239999907440506,0.05144063010811806,0.003491553943604231
0.0427999984822236,0.05143781006336212,0.0035537336952984333
0.04320000152802095,0.051434941589832306,0.0036159069277346134
0.04360000093583949,0.05143202468752861,0.003678073873743415
0.04400000034365803,0.051429059356451035,0.0037402340676635504
0.04439999975147657,0.05142604187130928,0.0038023877423256636
0.04479999915929511,0.05142297223210335,0.003864534432068467
0.04519999856711365,0.051419857889413834,0.003926674835383892
0.045600001612911,0.05141669139266014,0.003988808020949364
0.04600000102072954,0.05141347646713257,0.004050934221595526
0.04640000042854808,0.05141020938754082,0.0041130539029836655
0.046799999836366624,0.051406893879175186,0.004175166133791208
0.047199999244185165,0.051403529942035675,0.004237271845340729
0.047599998652003706,0.051400113850831985,0.004299370106309652
0.048000001697801054,0.051396649330854416,0.004361460916697979
0.048400001105619594,0.051393136382102966,0.004423545207828283
0.048800000513438135,0.05138957127928734,0.004485621582716703
0.049199999921256676,0.05138595774769783,0.004547690972685814
0.04959999932907522,0.05138229578733444,0.00460975244641304
0.04999999873689376,0.06427023559808731,0.004673066083341837
0.050400001782691106,0.07715810835361481,0.0047651054337620735
0.05080000119050965,0.0771542564034462,0.004858394619077444
0.05120000059832819,0.07715033739805222,0.004951674956828356
0.05160000000614673,0.07714633643627167,0.005044945515692234
0.05199999941396527,0.07714226096868515,0.0051382072269916534
0.05239999882178381,0.07713811844587326,0.005231459159404039
0.05279999822960235,0.0771338939666748,0.005324701312929392
0.0532000012753997,0.07712959498167038,0.005417933687567711
0.05360000068321824,0.07712522149085999,0.005511156748980284
0.05400000009103678,0.07712078094482422,0.005604369565844536
0.05439999949885532,0.07711625844240189,0.0056975726038217545
0.054799998906673864,0.07711166143417358,0.005790765397250652
0.055199998314492404,0.07710698992013931,0.005883948411792517
0.05560000136028975,0.07710225135087967,0.00597712118178606
0.05600000076810829,0.07709743082523346,0.006070283241569996
0.056400000175926834,0.07709253579378128,0.006163435056805611
0.056799999583745375,0.07708756625652313,0.006256576627492905
0.057199998991563916,0.07708252221345901,0.006349707487970591
0.05759999839938246,0.07707741111516953,0.0064428276382386684
0.058000001445179805,0.07707221806049347,0.006535937078297138
0.058400000852998346,0.07706695050001144,0.006629035342484713
0.05880000026081689,0.07706160843372345,0.006722123362123966
0.05919999966863543,0.07705619186162949,0.006815199740231037
0.05959999907645397,0.07705070823431015,0.006908264942467213
0.05999999848427251,0.07704514265060425,0.00700131943449378
0.06040000153006986,0.07703950256109238,0.007094362284988165
0.0608000009378884,0.07703378796577454,0.007187393959611654
0.06120000034570694,0.07702800631523132,0.007280413992702961
0.06160000339150429,0.07702214270830154,0.007373422384262085
0.06199999916134402,0.0770162045955658,0.007466419134289026
0.06240000220714137,0.07701019942760468,0.007559404242783785
0.0627999979769811,0.07700411230325699,0.007652377709746361
0.06320000102277845,0.07699795067310333,0.007745339069515467
0.06359999679261819,0.0769917219877243,0.007838288322091103
0.06399999983841553,0.07698541134595871,0.007931225001811981
0.06440000288421288,0.07697902619838715,0.008024150505661964
0.06479999865405262,0.07697257399559021,0.008117062970995903
0.06520000169984996,0.07696603983640671,0.008209963329136372
0.0655999974696897,0.07695943862199783,0.00830285158008337
0.06600000051548705,0.07695275545120239,0.008395726792514324
0.0664000035612844,0.07694600522518158,0.008488588966429234
0.06679999933112413,0.0769391730427742,0.008581439033150673
0.06720000237692147,0.07693227380514145,0.008674276061356068
0.06759999814676121,0.07692530006170273,0.008767100982367992
0.06800000119255856,0.07691824436187744,0.008859911933541298
0.06839999696239829,0.07691112160682678,0.008952709846198559
0.06880000000819564,0.07690392434597015,0.009045494720339775
0.06920000305399299,0.07689664512872696,0.009138266555964947
0.06959999882383272,0.07688929885625839,0.0092310244217515
0.07000000186963007,0.0898137018084526,0.009325036779046059
0.0703999976394698,0.10273801535367966,0.009447850286960602
0.07080000068526715,0.1027304083108902,0.009571915492415428
0.07119999645510688,0.10272270441055298,0.009695964865386486
0.07159999950090423,0.1027148962020874,0.00981999933719635
0.07200000254670158,0.10270699113607407,0.00994401890784502
0.07239999831654131,0.10269898921251297,0.010068021714687347
0.07280000136233866,0.10269088298082352,0.01019200962036848
0.0731999971321784,0.1026826798915863,0.010315981693565845
0.07360000017797574,0.10267437249422073,0.010439937002956867
0.07400000322377309,0.102665975689888,0.01056387647986412
0.07439999899361283,0.10265747457742691,0.010687800124287605
0.07480000203941017,0.10264887660741806,0.010811707004904747
0.07519999780924991,0.10264017432928085,0.010935597121715546
0.07560000085504726,0.10263137519359589,0.011059470474720001
0.07599999662488699,0.10262247920036316,0.011183327995240688
0.07639999967068434,0.10261348634958267,0.011307167820632458
0.07680000271648169,0.10260438919067383,0.011430991813540459
0.07719999848632142,0.10259519517421722,0.011554797179996967
0.07760000153211877,0.10258590430021286,0.011678586713969707
0.0779999973019585,0.10257650911808014,0.01180235855281353
0.07840000034775585,0.10256701707839966,0.011926112696528435
0.0788000033935532,0.10255742818117142,0.012049849145114422
0.07919999916339293,0.10254773497581482,0.012173567898571491
0.07960000220919028,0.10253795236349106,0.012297268956899643
0.07999999797903001,0.10252805799245834,0.012420952320098877
0.08040000102482736,0.10251807421445847,0.012544617056846619
0.0807999967946671,0.10250798612833023,0.012668264098465443
0.08119999984046444,0.10249780118465424,0.012791893444955349
0.08160000288626179,0.10248751938343048,0.012915503233671188
0.08199999865610152,0.10247714072465897,0.01303909532725811
0.08240000170189887,0.1024666577577591,0.01316266879439354
0.0827999974717386,0.10245607793331146,0.013286222703754902
0.08320000051753595,0.10244540125131607,0.013409758917987347
0.0836000035633333,0.10243462026119232,0.01353327464312315
0.08399999933317304,0.10242374241352081,0.013656772673130035
0.08440000237897038,0.10241276770830154,0.013780251145362854
0.08479999814881012,0.10240169614553452,0.013903709128499031
0.08520000119460747,0.10239052772521973,0.01402714941650629
0.0855999969644472,0.10237925499677658,0.014150569215416908
0.08600000001024455,0.10236788541078568,0.014273968525230885
0.0864000030560419,0.10235641896724701,0.014397349208593369
0.08679999882588163,0.10234484821557999,0.014520709402859211
0.08720000187167898,0.1023331806063652,0.014644050039350986
0.08759999764151871,0.10232141613960266,0.01476737018674612
0.08800000068731606,0.10230955481529236,0.014890669845044613
0.0883999964571558,0.1022975966334343,0.015013949014246464
0.08879999950295314,0.10228553414344788,0.015137207694351673
0.08920000254875049,0.1022733747959137,0.015260445885360241
0.08959999831859022,0.10226111859083176,0.015383663587272167
0.09000000136438757,0.11522755026817322,0.0155081357806921
0.0903999971342273,0.12819387018680573,0.01566149853169918
0.09080000018002465,0.12818127870559692,0.015816114842891693
0.091200003225822,0.12816856801509857,0.015970706939697266
0.09159999899566174,0.12815573811531067,0.016125276684761047
0.09200000204145908,0.12814277410507202,0.01627982407808304
0.09239999781129882,0.12812969088554382,0.01643434725701809
0.09280000085709617,0.12811647355556488,0.01658884808421135
0.0931999966269359,0.1281031370162964,0.01674332469701767
0.09359999967273325,0.12808968126773834,0.01689777709543705
0.0940000027185306,0.12807610630989075,0.01705220714211464
0.09439999848837033,0.1280623972415924,0.01720661111176014
0.09480000153416768,0.12804856896400452,0.01736099272966385
0.09519999730400741,0.12803462147712708,0.01751534827053547
0.09560000034980476,0.12802055478096008,0.01766967959702015
0.09600000339560211,0.12800635397434235,0.01782398857176304
0.09639999916544184,0.12799203395843506,0.01797826960682869
0.09680000221123919,0.12797759473323822,0.01813252829015255
0.09719999798107892,0.12796302139759064,0.01828676089644432
0.09760000102687627,0.1279483288526535,0.018440967425704002
0.097999996796716,0.12793351709842682,0.018595149740576744
0.09839999984251335,0.1279185712337494,0.018749305978417397
0.0988000028883107,0.1279035210609436,0.01890343800187111
0.09919999865815043,0.12788833677768707,0.019057542085647583
0.09960000170394778,0.1278730183839798,0.019211621955037117
0.09999999747378752,0.12785759568214417,0.019365675747394562
0.10040000051958486,0.1278420388698578,0.019519703462719917
0.10080000356538221,0.12782636284828186,0.019673703238368034
0.10119999933522195,0.12781056761741638,0.019827676936984062
0.1016000023810193,0.12779463827610016,0.019981624558568
0.10199999815085903,0.12777858972549438,0.0201355442404747
0.10240000119665638,0.12776242196559906,0.020289437845349312
0.10279999696649611,0.12774613499641418,0.020443303510546684
0.10320000001229346,0.12772971391677856,0.020597143098711967
0.1036000030580908,0.1277131736278534,0.020750954747200012
0.10399999882793054,0.12769651412963867,0.02090473845601082
0.10440000187372789,0.1276797205209732,0.021058494225144386
0.10479999764356762,0.12766282260417938,0.021212222054600716
0.10520000068936497,0.12764579057693481,0.021365923807024956
0.1055999964592047,0.1276286393404007,0.021519595757126808
0.10599999950500205,0.12761135399341583,0.021673239767551422
0.1064000025507994,0.12759394943714142,0.02182685397565365
0.10679999832063913,0.12757642567157745,0.021980442106723785
0.10720000136643648,0.12755878269672394,0.022133998572826385
0.10759999713627622,0.12754102051258087,0.022287528961896896
0.10800000018207356,0.12752312421798706,0.02244102768599987
0.10840000322787091,0.1275051087141037,0.022594498470425606
0.10879999899771065,0.1274869740009308,0.022747941315174103
0.109200002043508,0.12746872007846832,0.022901352494955063
0.10959999781334773,0.12745033204555511,0.023054735735058784
0.11000000085914508,0.14046688377857208,0.023209374397993088
0.11039999662898481,0.1534833014011383,0.02339300885796547
0.11079999967478216,0.15346451103687286,0.023577898740768433
0.1112000027205795,0.15344558656215668,0.023762758821249008
0.11159999849041924,0.15342649817466736,0.023947585374116898
0.11200000153621659,0.1534072607755661,0.0241323783993721
0.11239999730605632,0.1533878892660141,0.024317141622304916
0.11280000035185367,0.15336835384368896,0.024501869454979897
0.11320000339765102,0.15334868431091309,0.02468656748533249
0.11359999916749075,0.15332886576652527,0.024871230125427246
0.1140000022132881,0.15330888330936432,0.025055861100554466
0.11439999798312783,0.15328876674175262,0.025240458548069
0.11480000102892518,0.153268501162529,0.025425022467970848
0.11519999679876491,0.15324808657169342,0.02560955286026001
0.11559999984456226,0.1532275229692459,0.025794049724936485
0.11600000289035961,0.15320682525634766,0.025978513062000275
0.11639999866019934,0.15318596363067627,0.02616294100880623
0.11680000170599669,0.15316495299339294,0.026347335427999496
0.11719999747583643,0.15314380824565887,0.02653169445693493
0.11760000052163377,0.15312251448631287,0.026716019958257675
0.11800000356743112,0.15310105681419373,0.026900310069322586
0.11839999933727086,0.15307946503162384,0.02708456665277481
0.1188000023830682,0.15305772423744202,0.02726878598332405
0.11919999815290794,0.15303583443164825,0.027452969923615456
0.11960000119870529,0.15301379561424255,0.027637120336294174
0.11999999696854502,0.1529916226863861,0.027821233496069908
0.12040000001434237,0.15296928584575653,0.028005311265587807
0.12080000306013972,0.1529468148946762,0.02818935178220272
0.12119999882997945,0.15292419493198395,0.0283733569085598
0.1216000018757768,0.15290141105651855,0.028557326644659042
0.12199999764561653,0.15287849307060242,0.0287412591278553
0.12240000069141388,0.15285542607307434,0.028925154358148575
0.12280000373721123,0.15283221006393433,0.029109012335538864
0.12320000678300858,0.15280885994434357,0.02929283306002617
0.1235999952768907,0.15278534591197968,0.02947661653161049
0.12399999832268804,0.15276169776916504,0.029660362750291824
0.12440000136848539,0.15273788571357727,0.029844071716070175
0.12480000441428274,0.15271393954753876,0.03002774342894554
0.12519999290816486,0.1526898443698883,0.030211376026272774
0.1255999959539622,0.15266560018062592,0.03039497137069702
0.12599999899975955,0.15264122188091278,0.030578527599573135
0.1264000020455569,0.1526166796684265,0.030762044712901115
0.12680000509135425,0.1525920033454895,0.03094552457332611
0.12719999358523637,0.15256716310977936,0.031128963455557823
0.12759999663103372,0.15254218876361847,0.03131236508488655
0.12799999967683107,0.15251706540584564,0.031495727598667145
0.12840000272262841,0.15249179303646088,0.031679049134254456
0.12880000576842576,0.15246638655662537,0.03186233341693878
0.12919999426230788,0.15244081616401672,0.032045576721429825
0.12959999730810523,0.15241511166095734,0.032228779047727585
0.13000000035390258,0.16545644402503967,0.03241323307156563
0.13040000339969993,0.17849761247634888,0.032626740634441376
0.13080000644549727,0.1784714162349701,0.03284149989485741
0.1311999949393794,0.17844505608081818,0.033056214451789856
0.13159999798517674,0.17841853201389313,0.03327088803052902
0.1320000010309741,0.17839182913303375,0.03348551690578461
0.13240000407677144,0.17836494743824005,0.03370010480284691
0.1328000071225688,0.17833790183067322,0.03391464799642563
0.1331999956164509,0.17831069231033325,0.034129150211811066
0.13359999866224825,0.17828330397605896,0.03434360772371292
0.1340000017080456,0.17825573682785034,0.034558020532131195
0.13440000475384295,0.1782280057668686,0.034772392362356186
0.13479999324772507,0.1782001107931137,0.034986719489097595
0.13519999629352242,0.1781720221042633,0.035200998187065125
0.13559999933931977,0.17814378440380096,0.03541523590683937
