time[s],iL[A],v out[V]
0.0,0.0,0.0
0.00040000000467443897,0.0,0.0
0.0008000000093488779,0.0,0.0
0.0012000000424450263,0.0,0.0
0.0016000000186977559,0.0,0.0
0.0019999999949504854,0.0,0.0
0.0024000000848900527,0.0,0.0
0.0027999999474559445,0.0,0.0
0.0032000000373955118,0.0,0.0
0.0035999998999614036,0.0,0.0
0.003999999989900971,0.0,0.0
0.004399999852466863,0.0,0.0
0.004800000169780105,0.0,0.0
0.005200000032345997,0.0,0.0
0.005599999894911889,0.0,0.0
0.006000000212225132,0.0,0.0
0.0064000000747910235,0.0,0.0
0.006799999937356915,0.0,0.0
0.007199999799922807,0.0,0.0
0.00760000011723605,0.0,0.0
0.007999999979801942,0.0,0.0
0.008400000297115184,0.0,0.0
0.008799999704933725,0.0,0.0
0.009200000022246968,0.0,0.0
0.00960000033956021,0.0,0.0
0.009999999747378752,0.018058836460113525,2.4706089334358694e-06
0.010400000064691994,0.03611765429377556,4.3777909013442695e-05
0.010800000382005237,0.03611760213971138,8.75536716193892e-05
0.011199999789823778,0.036117516458034515,0.00013132723688613623
0.01160000010713702,0.036117393523454666,0.00017509853933006525
0.012000000424450263,0.03611723333597183,0.0002188675571233034
0.012399999832268804,0.03611704334616661,0.00026263424661010504
0.012800000149582047,0.036116816103458405,0.0003063985495828092
0.013199999557400588,0.036116551607847214,0.000350160407833755
0.01359999987471383,0.03611625358462334,0.0003939198504667729
0.014000000192027073,0.036115922033786774,0.0004376767610665411
0.014399999599845614,0.036115553230047226,0.0004814311396330595
0.014799999917158857,0.03611515089869499,0.0005251829279586673
0.0152000002344721,0.03611471503973007,0.000568932096939534
0.015600000551785342,0.03611424192786217,0.0006126785883679986
0.015999999959603883,0.03611373528838158,0.0006564223440364003
0.016399999367422424,0.036113191395998,0.0007001633639447391
0.01680000059423037,0.03611261397600174,0.0007439015316776931
0.01720000000204891,0.03611199930310249,0.0007876369054429233
0.01759999940986745,0.03611135482788086,0.0008313694270327687
0.018000000636675395,0.03611066937446594,0.0008750989800319076
0.018400000044493936,0.03610995411872864,0.0009188255644403398
0.018799999452312477,0.03610920161008835,0.0009625491220504045
0.01920000067912042,0.036108411848545074,0.0010062697110697627
0.019600000086938962,0.036107588559389114,0.0010499870404601097
0.019999999494757503,0.03610673174262047,0.0010937013430520892
0.020400000721565448,0.03610583767294884,0.0011374125024303794
0.02080000012938399,0.03610491007566452,0.0011811202857643366
0.02119999953720253,0.03610394895076752,0.0012248249258846045
0.021600000764010474,0.03610295057296753,0.0012685263063758612
0.022000000171829015,0.036101918667554855,0.001312224194407463
0.022399999579647556,0.036100853234529495,0.0013559188228100538
0.0228000008064555,0.03609975054860115,0.0013996099587529898
0.02320000021427404,0.03609861433506012,0.001443297602236271
0.023599999622092582,0.036097440868616104,0.0014869817532598972
0.024000000848900527,0.0360962338745594,0.0015306624118238688
0.024400000256719068,0.036094993352890015,0.0015743393450975418
0.02479999966453761,0.03609371557831764,0.0016180126694962382
0.025200000891345553,0.036092404276132584,0.001661682385019958
0.025600000299164094,0.03609105572104454,0.0017053482588380575
0.025999999706982635,0.03608967363834381,0.0017490104073658586
0.026399999114801176,0.036088258028030396,0.0017926688306033611
0.02680000034160912,0.036086805164813995,0.0018363232957199216
0.02719999974942766,0.03608531877398491,0.0018799739191308618
0.027599999157246202,0.03608379885554314,0.0019236205844208598
0.028000000384054147,0.03608224168419838,0.001967263175174594
0.028399999791872688,0.036080650985240936,0.0020109019242227077
0.02879999919969123,0.03607902303338051,0.002054536482319236
0.029200000426499173,0.03607736527919769,0.002098166849464178
0.029599999834317714,0.036075666546821594,0.0021417932584881783
0.029999999242136255,0.05381704866886139,0.0021878003608435392
0.0304000004689442,0.07155837118625641,0.002272045938298106
0.030800001695752144,0.07155652344226837,0.0023586698807775974
0.031200001103570685,0.07155460119247437,0.00244528753682971
0.031600000511389226,0.07155261188745499,0.0025318984407931566
0.03199999991920777,0.07155054807662964,0.002618502825498581
0.03239999932702631,0.07154841721057892,0.0027051004581153393
0.03279999873484485,0.07154621928930283,0.002791691105812788
0.0332000017806422,0.07154395431280136,0.0028782750014215708
0.03360000118846074,0.07154161483049393,0.002964851912111044
0.03400000059627928,0.07153920829296112,0.003051421605050564
0.03440000000409782,0.07153673470020294,0.003137984313070774
0.03479999941191636,0.0715341866016388,0.003224539803341031
0.0351999988197349,0.07153157144784927,0.003311087843030691
0.03559999822755344,0.07152888923883438,0.003397628664970398
0.03600000127335079,0.07152613997459412,0.003484161803498864
0.03640000068116933,0.07152331620454788,0.00357068725861609
0.03680000008898787,0.07152042537927628,0.0036572052631527185
0.03719999949680641,0.0715174674987793,0.0037437155842781067
0.037599998904624954,0.07151443511247635,0.0038302179891616106
0.037999998312443495,0.07151133567094803,0.00391671247780323
0.03840000135824084,0.07150816917419434,0.004003198817372322
0.038800000766059384,0.07150492817163467,0.00408967724069953
0.039200000173877925,0.07150162756443024,0.004176147747784853
0.039599999581696466,0.07149825245141983,0.004262609872967005
0.03999999898951501,0.07149480283260345,0.004349063150584698
0.04039999839733355,0.0714912861585617,0.0044355085119605064
0.040800001443130895,0.07148770242929459,0.004521945025771856
0.041200000850949436,0.0714840516448021,0.004608373623341322
0.04160000025876798,0.07148033380508423,0.004694792907685041
0.04199999966658652,0.0714765414595604,0.004781203810125589
0.04239999907440506,0.07147268205881119,0.0048676058650016785
0.0427999984822236,0.07146875560283661,0.004953999072313309
0.04320000152802095,0.07146475464105606,0.005040382966399193
0.04360000093583949,0.07146068662405014,0.005126758012920618
0.04400000034365803,0.07145655155181885,0.005213123746216297
0.04439999975147657,0.07145234942436218,0.005299480631947517
0.04479999915929511,0.07144807279109955,0.005385827738791704
0.04519999856711365,0.07144372910261154,0.005472165532410145
0.045600001612911,0.07143931835889816,0.005558494012802839
0.04600000102072954,0.07143484055995941,0.0056448127143085
0.04640000042854808,0.07143028825521469,0.005731122102588415
0.046799999836366624,0.0714256688952446,0.005817421246320009
0.047199999244185165,0.07142098248004913,0.005903711076825857
0.047599998652003706,0.0714162215590477,0.005989990662783384
0.048000001697801054,0.07141139358282089,0.006076260469853878
0.048400001105619594,0.07140649855136871,0.006162520032376051
0.048800000513438135,0.07140153646469116,0.006248769350349903
0.049199999921256676,0.07139649987220764,0.0063350084237754345
0.04959999932907522,0.07139139622449875,0.006421237252652645
0.04999999873689376,0.08840084820985794,0.006509649101644754
0.050400001782691106,0.10541021823883057,0.006634910590946674
0.05080000119050965,0.10540485382080078,0.006762352306395769
0.05120000059832819,0.10539939254522324,0.006889781448990107
0.05160000000614673,0.10539383441209793,0.007017198018729687
0.05199999941396527,0.10538817197084427,0.007144601549953222
0.05239999882178381,0.10538240522146225,0.007271991576999426
0.05279999822960235,0.10537653416395187,0.007399368565529585
0.0532000012753997,0.10537056624889374,0.007526732515543699
0.05360000068321824,0.10536449402570724,0.007654082495719194
0.05400000009103678,0.1053583174943924,0.007781418971717358
0.05439999949885532,0.10535204410552979,0.007908741943538189
0.054799998906673864,0.10534565895795822,0.008036050945520401
0.055199998314492404,0.1053391844034195,0.008163345977663994
0.05560000136028975,0.10533259809017181,0.008290627039968967
0.05600000076810829,0.10532591491937637,0.008417894132435322
0.056400000175926834,0.10531913489103317,0.008545146323740482
0.056799999583745375,0.10531224310398102,0.008672384545207024
0.057199998991563916,0.1053052544593811,0.008799607865512371
0.05759999839938246,0.10529816895723343,0.008926816284656525
0.058000001445179805,0.1052909716963768,0.009054010733962059
0.058400000852998346,0.10528367757797241,0.009181189350783825
0.05880000026081689,0.10527628660202026,0.009308353066444397
0.05919999966863543,0.10526878386735916,0.009435501880943775
0.05959999907645397,0.1052611842751503,0.009562634862959385
0.05999999848427251,0.10525348782539368,0.0096897529438138
0.06040000153006986,0.1052456870675087,0.009816855192184448
0.0608000009378884,0.10523778200149536,0.009943941608071327
0.06120000034570694,0.10522977262735367,0.010071013122797012
0.06160000339150429,0.10522166639566422,0.010198067873716354
0.06199999916134402,0.1052134558558464,0.010325106792151928
0.06240000220714137,0.10520514845848083,0.010452129878103733
0.0627999979769811,0.10519673675298691,0.010579136200249195
0.06320000102277845,0.10518822073936462,0.010706125758588314
0.06359999679261819,0.10517960786819458,0.010833099484443665
0.06399999983841553,0.10517089068889618,0.010960056446492672
0.06440000288421288,0.10516206920146942,0.011086996644735336
0.06479999865405262,0.1051531508564949,0.011213919147849083
0.06520000169984996,0.10514412820339203,0.011340825818479061
0.0655999974696897,0.1051350012421608,0.011467714793980122
0.06600000051548705,0.1051257774233818,0.011594586074352264
0.0664000035612844,0.10511644929647446,0.011721440590918064
0.06679999933112413,0.10510702431201935,0.011848277412354946
0.06720000237692147,0.10509749501943588,0.01197509653866291
0.06759999814676121,0.10508786141872406,0.012101897969841957
0.06800000119255856,0.10507813096046448,0.012228681705892086
0.06839999696239829,0.10506829619407654,0.012355446815490723
0.06880000000819564,0.10505836457014084,0.012482194229960442
0.06920000305399299,0.10504832863807678,0.012608923949301243
0.06959999882383272,0.10503818839788437,0.012735634110867977
0.07000000186963007,0.12137047201395035,0.012864349409937859
0.0703999976394698,0.13770262897014618,0.013028617016971111
0.07080000068526715,0.1376921385526657,0.013194887898862362
0.07119999645510688,0.1376815289258957,0.013361137360334396
0.07159999950090423,0.13767077028751373,0.013527365401387215
0.07200000254670158,0.13765987753868103,0.013693572953343391
0.07239999831654131,0.13764885067939758,0.013859758153557777
0.07280000136233866,0.13763770461082458,0.014025922864675522
0.0731999971321784,0.13762640953063965,0.014192065224051476
0.07360000017797574,0.13761499524116516,0.014358186163008213
0.07400000322377309,0.13760344684123993,0.01452428475022316
0.07439999899361283,0.13759174942970276,0.01469036191701889
0.07480000203941017,0.13757993280887604,0.01485641673207283
0.07519999780924991,0.13756798207759857,0.015022448264062405
0.07560000085504726,0.13755589723587036,0.015188457444310188
0.07599999662488699,0.1375436782836914,0.015354444272816181
0.07639999967068434,0.1375313401222229,0.015520407818257809
0.07680000271648169,0.13751885294914246,0.01568634808063507
0.07719999848632142,0.13750623166561127,0.015852265059947968
0.07760000153211877,0.13749349117279053,0.016018159687519073
0.0779999973019585,0.13748060166835785,0.01618403010070324
0.07840000034775585,0.13746759295463562,0.016349876299500465
0.0788000033935532,0.13745445013046265,0.0165157001465559
0.07919999916339293,0.13744117319583893,0.016681497916579247
0.07960000220919028,0.13742776215076447,0.0168472733348608
0.07999999797903001,0.13741421699523926,0.017013022676110268
0.08040000102482736,0.1374005377292633,0.017178747802972794
0.0807999967946671,0.1373867243528366,0.01734444871544838
0.08119999984046444,0.13737279176712036,0.017510125413537025
0.08160000288626179,0.13735871016979218,0.017675776034593582
0.08199999865610152,0.13734450936317444,0.0178414024412632
0.08240000170189887,0.13733017444610596,0.018007002770900726
0.0827999974717386,0.13731569051742554,0.018172577023506165
0.08320000051753595,0.13730108737945557,0.018338127061724663
0.0836000035633333,0.13728635013103485,0.018503649160265923
0.08399999933317304,0.13727149367332458,0.018669147044420242
0.08440000237897038,0.13725648820400238,0.018834618851542473
0.08479999814881012,0.13724134862422943,0.019000064581632614
0.08520000119460747,0.13722608983516693,0.019165482372045517
0.0855999969644472,0.1372106820344925,0.01933087408542633
0.08600000001024455,0.1371951550245285,0.019496239721775055
0.0864000030560419,0.13717949390411377,0.01966157928109169
0.08679999882588163,0.1371636986732483,0.019826889038085938
0.08720000187167898,0.13714776933193207,0.019992174580693245
0.08759999764151871,0.1371317058801651,0.020157430320978165
0.08800000068731606,0.13711552321910858,0.020322659984230995
0.0883999964571558,0.13709919154644012,0.020487861707806587
0.08879999950295314,0.13708274066448212,0.02065303549170494
0.08920000254875049,0.13706615567207336,0.020818179473280907
0.08959999831859022,0.13704942166805267,0.020983297377824783
0.09000000136438757,0.15280205011367798,0.021150270476937294
0.0903999971342273,0.16855454444885254,0.02135167457163334
0.09080000018002465,0.16853737831115723,0.021554933860898018
0.091200003225822,0.16852004826068878,0.02175815962255001
0.09159999899566174,0.1685025691986084,0.021961355581879616
0.09200000204145908,0.1684849113225937,0.022164521738886833
0.09239999781129882,0.16846710443496704,0.022367656230926514
0.09280000085709617,0.16844911873340607,0.022570757195353508
0.0931999966269359,0.16843098402023315,0.022773828357458115
0.09359999967273325,0.1684126853942871,0.022976865991950035
0.0940000027185306,0.16839422285556793,0.023179873824119568
0.09439999848837033,0.16837559640407562,0.023382848128676414
0.09480000153416768,0.16835680603981018,0.023585788905620575
0.09519999730400741,0.1683378666639328,0.0237886980175972
0.09560000034980476,0.1683187484741211,0.023991573601961136
0.09600000339560211,0.16829948127269745,0.024194417521357536
0.09639999916544184,0.16828003525733948,0.0243972260504961
0.09680000221123919,0.16826044023036957,0.02460000291466713
0.09719999798107892,0.16824068129062653,0.024802744388580322
0.09760000102687627,0.16822075843811035,0.025005454197525978
0.097999996796716,0.16820067167282104,0.0252081286162138
0.09839999984251335,0.1681804209947586,0.025410767644643784
0.0988000028883107,0.16816000640392303,0.02561337500810623
0.09919999865815043,0.16813944280147552,0.025815945118665695
0.09960000170394778,0.1681187003850937,0.026018481701612473
0.09999999747378752,0.16809780895709991,0.026220982894301414
0.10040000051958486,0.168076753616333,0.02642344869673252
0.10080000356538221,0.16805553436279297,0.026625879108905792
0.10119999933522195,0.1680341511964798,0.026828274130821228
0.1016000023810193,0.1680126041173935,0.02703063376247883
0.10199999815085903,0.16799090802669525,0.027232956141233444
0.10240000119665638,0.16796903312206268,0.027435243129730225
0.10279999696649611,0.16794700920581818,0.02763749286532402
0.10320000001229346,0.16792480647563934,0.02783970721065998
0.1036000030580908,0.16790245473384857,0.028041884303092957
0.10399999882793054,0.16787993907928467,0.028244024142622948
0.10440000187372789,0.16785727441310883,0.028446126729249954
0.10479999764356762,0.16783443093299866,0.028648192062973976
0.10520000068936497,0.16781143844127655,0.028850220143795013
0.1055999964592047,0.16778826713562012,0.029052210971713066
0.10599999950500205,0.16776494681835175,0.029254162684082985
0.1064000025507994,0.16774146258831024,0.02945607714354992
0.10679999832063913,0.1677178144454956,0.02965795248746872
0.10720000136643648,0.16769401729106903,0.029859788715839386
0.10759999713627622,0.16767004132270813,0.030061587691307068
0.10800000018207356,0.1676459163427353,0.030263347551226616
0.10840000322787091,0.16762162744998932,0.03046506643295288
0.10879999899771065,0.16759717464447021,0.03066674806177616
0.109200002043508,0.16757255792617798,0.03086838871240616
0.10959999781334773,0.1675477772951126,0.03106999211013317
0.11000000085914508,0.18289083242416382,0.03127334266901016
0.11039999662898481,0.1982336938381195,0.031510330736637115
0.11079999967478216,0.19820839166641235,0.03174906224012375
0.1112000027205795,0.19818289577960968,0.0319877564907074
0.11159999849041924,0.19815722107887268,0.032226406037807465
0.11200000153621659,0.19813133776187897,0.03246501088142395
0.11239999730605632,0.19810527563095093,0.03270357474684715
0.11280000035185367,0.19807901978492737,0.03294209763407707
0.11320000339765102,0.1980525702238083,0.03318057209253311
0.11359999916749075,0.1980259269475937,0.03341900557279587
0.1140000022132881,0.19799908995628357,0.03365739434957504
0.11439999798312783,0.19797207415103912,0.033895738422870636
0.11480000102892518,0.19794486463069916,0.034134041517972946
0.11519999679876491,0.19791746139526367,0.034372296184301376
0.11559999984456226,0.19788986444473267,0.034610506147146225
0.11600000289035961,0.19786208868026733,0.03484867140650749
0.11639999866019934,0.1978341042995453,0.03508679196238518
0.11680000170599669,0.19780594110488892,0.03532486781477928
0.11719999747583643,0.19777758419513702,0.035562898963689804
0.11760000052163377,0.1977490484714508,0.03580088168382645
0.11800000356743112,0.19772030413150787,0.03603881597518921
0.11839999933727086,0.19769138097763062,0.03627670928835869
0.1188000023830682,0.19766226410865784,0.03651455044746399
0.11919999815290794,0.19763295352458954,0.03675234690308571
0.11960000119870529,0.19760346412658691,0.036990098655223846
0.11999999696854502,0.19757376611232758,0.037227798253297806
0.12040000001434237,0.1975438892841339,0.037465453147888184
0.12080000306013972,0.19751381874084473,0.03770305961370468
0.12119999882997945,0.19748356938362122,0.0379406176507473
0.1216000018757768,0.197453111410141,0.03817812725901604
0.12199999764561653,0.19742247462272644,0.038415588438510895
0.12240000069141388,0.19739164412021637,0.03865300118923187
0.12280000373721123,0.19736063480377197,0.03889036551117897
0.12320000678300858,0.19732943177223206,0.03912768140435219
0.1235999952768907,0.19729803502559662,0.039364948868751526
0.12399999832268804,0.19726644456386566,0.039602164179086685
0.12440000136848539,0.19723466038703918,0.039839327335357666
0.12480000441428274,0.19720269739627838,0.040076445788145065
0.12519999290816486,0.19717054069042206,0.04031350836157799
0.1255999959539622,0.1971382051706314,0.04055052250623703
0.12599999899975955,0.19710566103458405,0.04078748822212219
0.1264000020455569,0.19707293808460236,0.041024401783943176
0.12680000509135425,0.19704002141952515,0.04126126319169998
0.12719999358523637,0.1970069259405136,0.04149807244539261
0.12759999663103372,0.19697362184524536,0.04173482954502106
0.12799999967683107,0.19694013893604279,0.041971538215875626
0.12840000272262841,0.19690647721290588,0.04220819100737572
0.12880000576842576,0.19687260687351227,0.04244479164481163
0.12919999426230788,0.19683855772018433,0.04268134385347366
0.12959999730810523,0.19680431485176086,0.04291784018278122
0.13000000035390258,0.21172451972961426,0.0431559756398201
0.13040000339969993,0.22664451599121094,0.04342692345380783
0.13080000644549727,0.22660966217517853,0.043699510395526886
0.1311999949393794,0.2265745997428894,0.04397204518318176
0.13159999798517674,0.22653931379318237,0.044244520366191864
0.1320000010309741,0.22650380432605743,0.04451693966984749
0.13240000407677144,0.22646808624267578,0.044789303094148636
0.1328000071225688,0.22643214464187622,0.045061610639095306
0.1331999956164509,0.22639597952365875,0.0453338585793972
0.13359999866224825,0.22635960578918457,0.04560605064034462
0.1340000017080456,0.22632300853729248,0.04587818682193756
0.13440000475384295,0.22628620266914368,0.046150267124176025
0.13479999324772507,0.22624917328357697,0.046422284096479416
0.13519999629352242,0.22621192038059235,0.04669424518942833
0.13559999933931977,0.226174458861351,0.046966150403022766
0.1360000023851171,0.22613677382469177,0.04723799228668213
