time[s],iL[A],v out[V]
0.0,0.0,0.0
0.00040000000467443897,0.0,0.0
0.0008000000093488779,0.0,0.0
0.0012000000424450263,0.0,0.0
0.0016000000186977559,0.0,0.0
0.0019999999949504854,0.0,0.0
0.0024000000848900527,0.0,0.0
0.0027999999474559445,0.0,0.0
0.0032000000373955118,0.0,0.0
0.0035999998999614036,0.0,0.0
0.003999999989900971,0.0,0.0
0.004399999852466863,0.0,0.0
0.004800000169780105,0.0,0.0
0.005200000032345997,0.0,0.0
0.005599999894911889,0.0,0.0
0.006000000212225132,0.0,0.0
0.0064000000747910235,0.0,0.0
0.006799999937356915,0.0,0.0
0.007199999799922807,0.0,0.0
0.00760000011723605,0.0,0.0
0.007999999979801942,0.0,0.0
0.008400000297115184,0.018811337649822235,2.680796114873374e-06
0.008799999704933725,0.0988113135099411,7.39657916710712e-05
0.009200000022246968,0.1788111925125122,0.00024221459170803428
0.00960000033956021,0.2588109076023102,0.0005074223736301064
0.009999999747378752,0.33881035447120667,0.0008695840951986611
0.010400000064691994,0.4188094735145569,0.0013286947505548596
0.010800000382005237,0.49880820512771606,0.0018847492756322026
0.011199999789823778,0.578806459903717,0.002537742257118225
0.01160000010713702,0.6588041186332703,0.0032876685727387667
0.012000000424450263,0.6776124835014343,0.0041061588563025
0.012399999832268804,0.6776089072227478,0.0049272864125669
0.012800000149582047,0.677604615688324,0.005748368799686432
0.013199999557400588,0.6775996685028076,0.006569406483322382
0.01359999987471383,0.6775941252708435,0.007390397600829601
0.014000000192027073,0.6775878667831421,0.008211341686546803
0.014399999599845614,0.6775809526443481,0.009032238274812698
0.014799999917158857,0.6775733828544617,0.009853086434304714
0.0152000002344721,0.6775652170181274,0.010673885233700275
0.015600000551785342,0.6775563359260559,0.011494632810354233
0.015999999959603883,0.6775467991828918,0.012315331026911736
0.016399999367422424,0.6775366067886353,0.013135976158082485
0.01680000059423037,0.6775258183479309,0.013956570066511631
0.01720000000204891,0.6775143146514893,0.014777109958231449
0.01759999940986745,0.6775021553039551,0.01559759583324194
0.018000000636675395,0.6774893403053284,0.016418026760220528
0.018400000044493936,0.6774758696556091,0.017238400876522064
0.018799999452312477,0.6774617433547974,0.018058720976114273
0.01920000067912042,0.6774469614028931,0.018878981471061707
0.019600000086938962,0.677431583404541,0.019699184224009514
0.019999999494757503,0.6774154901504517,0.020519329234957695
0.020400000721565448,0.6773987412452698,0.0213394146412611
0.02080000012938399,0.6773813366889954,0.022159438580274582
0.02119999953720253,0.6773632764816284,0.02297940105199814
0.021600000764010474,0.677344560623169,0.02379930205643177
0.022000000171829015,0.6773251891136169,0.024619141593575478
0.022399999579647556,0.6773051619529724,0.025438915938138962
0.0228000008064555,0.6772845387458801,0.026258625090122223
0.02320000021427404,0.6772632002830505,0.02707827091217041
0.023599999622092582,0.6772412061691284,0.027897849678993225
0.024000000848900527,0.6772185564041138,0.028717361390590668
0.024400000256719068,0.6771952509880066,0.029536806046962738
0.02479999966453761,0.6771712899208069,0.030356183648109436
0.025200000891345553,0.6771466732025146,0.031175490468740463
0.025600000299164094,0.6771214008331299,0.03199472650885582
0.025999999706982635,0.6770954728126526,0.032813895493745804
0.026399999114801176,0.6770688891410828,0.03363298997282982
0.02680000034160912,0.6770416498184204,0.034452009946107864
0.02719999974942766,0.6770137548446655,0.03527096286416054
0.027599999157246202,0.6769852042198181,0.03608983755111694
0.028000000384054147,0.676956057548523,0.03690863773226738
0.028399999791872688,0.6769261956214905,0.03772736340761185
0.02879999919969123,0.7299031019210815,0.03856729716062546
0.029200000426499173,0.8098718523979187,0.039498601108789444
0.029599999834317714,0.8898398876190186,0.04052679240703583
0.029999999242136255,0.9698070287704468,0.04165185987949371
0.0304000004689442,1.0497732162475586,0.0428737998008728
0.030800001695752144,1.1297383308410645,0.0441926047205925
0.031200001103570685,1.209702491760254,0.0456082709133625
0.031600000511389226,1.262672781944275,0.0471152700483799
0.03199999991920777,1.262634515762329,0.04864344000816345
0.03239999932702631,1.2625949382781982,0.05017148703336716
0.03279999873484485,1.2625542879104614,0.05169941112399101
0.0332000017806422,1.2625123262405396,0.05322720855474472
0.03360000118846074,1.2624690532684326,0.05475488305091858
0.03400000059627928,1.2624247074127197,0.05628243088722229
0.03440000000409782,1.2623790502548218,0.057809848338365555
0.03479999941191636,1.2623322010040283,0.05933713912963867
0.0351999988197349,1.2622840404510498,0.060864295810461044
0.03559999822755344,1.2622348070144653,0.06239131838083267
0.03600000127335079,1.2621842622756958,0.06391821056604385
0.03640000068116933,1.2621325254440308,0.0654449611902237
0.03680000008898787,1.2620795965194702,0.06697157770395279
0.03719999949680641,1.2620253562927246,0.06849805265665054
0.037599998904624954,1.2619699239730835,0.07002438604831696
0.037999998312443495,1.2619132995605469,0.07155058532953262
0.03840000135824084,1.2618554830551147,0.07307663559913635
0.038800000766059384,1.2617963552474976,0.07460253685712814
0.039200000173877925,1.2617361545562744,0.07612829655408859
0.039599999581696466,1.2616746425628662,0.0776539072394371
0.03999999898951501,1.261611819267273,0.07917937636375427
0.04039999839733355,1.2615479230880737,0.0807046890258789
0.040800001443130895,1.2614827156066895,0.082229845225811
0.041200000850949436,1.2614163160324097,0.08375485241413116
0.04160000025876798,1.2613487243652344,0.08527970314025879
0.04199999966658652,1.261279821395874,0.08680439740419388
0.04239999907440506,1.2612098455429077,0.08832893520593643
0.0427999984822236,1.2611385583877563,0.08985330909490585
0.04320000152802095,1.2610660791397095,0.09137752652168274
0.04360000093583949,1.2609922885894775,0.09290158003568649
0.04400000034365803,1.2609174251556396,0.09442546963691711
0.04439999975147657,1.2608412504196167,0.0959491953253746
0.04479999915929511,1.2607638835906982,0.09747274965047836
0.04519999856711365,1.2606853246688843,0.09899614006280899
0.045600001612911,1.2606054544448853,0.10051935911178589
0.04600000102072954,1.2605245113372803,0.10204239934682846
0.04640000042854808,1.2604422569274902,0.1035652756690979
0.046799999836366624,1.2603586912155151,0.10508797317743301
0.047199999244185165,1.260274052619934,0.1066104993224144
0.047599998652003706,1.2601882219314575,0.10813284665346146
0.048000001697801054,1.260101079940796,0.10965501517057419
0.048400001105619594,1.2600127458572388,0.1111770048737526
0.048800000513438135,1.2929344177246094,0.11270706355571747
0.049199999921256676,1.372843623161316,0.11431718617677689
0.04959999932907522,1.4527513980865479,0.11602408438920975
0.04999999873689376,1.5326578617095947,0.11782775819301605
0.050400001782691106,1.612562894821167,0.1197281926870346
0.05080000119050965,1.692466378211975,0.12172538787126541
0.05120000059832819,1.77236807346344,0.12381933629512787
0.05160000000614673,1.8052793741226196,0.1259932965040207
0.05199999941396527,1.8051776885986328,0.128175288438797
0.05239999882178381,1.8050743341445923,0.1303570568561554
0.05279999822960235,1.8049691915512085,0.1325385868549347
0.0532000012753997,1.8048622608184814,0.13471989333629608
0.05360000068321824,1.8047536611557007,0.13690094649791718
0.05400000009103678,1.804643154144287,0.13908177614212036
0.05439999949885532,1.8045310974121094,0.14126235246658325
0.054799998906673864,1.8044171333312988,0.14344269037246704
0.055199998314492404,1.8043016195297241,0.14562278985977173
0.05560000136028975,1.8041841983795166,0.14780263602733612
0.05600000076810829,1.8040651082992554,0.1499822437763214
0.056400000175926834,1.8039442300796509,0.1521615833044052
0.056799999583745375,1.8038215637207031,0.1543406844139099
0.057199998991563916,1.8036972284317017,0.15651951730251312
0.05759999839938246,1.8035712242126465,0.15869809687137604
0.058000001445179805,1.8034433126449585,0.16087642312049866
0.058400000852998346,1.8033137321472168,0.1630544811487198
0.05880000026081689,1.8031824827194214,0.16523228585720062
0.05919999966863543,1.8030494451522827,0.16740980744361877
0.05959999907645397,1.8029146194458008,0.16958707571029663
0.05999999848427251,1.8027781248092651,0.171764075756073
0.06040000153006986,1.8026398420333862,0.17394079267978668
0.0608000009378884,1.802499771118164,0.17611724138259888
0.06120000034570694,1.8023580312728882,0.17829342186450958
0.06160000339150429,1.802214503288269,0.1804693043231964
0.06199999916134402,1.8020693063735962,0.18264491856098175
0.06240000220714137,1.80192232131958,0.1848202496767044
0.0627999979769811,1.8017735481262207,0.18699529767036438
0.06320000102277845,1.8016231060028076,0.18917004764080048
0.06359999679261819,1.8014708757400513,0.1913445144891739
0.06399999983841553,1.8013169765472412,0.19351869821548462
0.06440000288421288,1.801161289215088,0.19569258391857147
0.06479999865405262,1.8010038137435913,0.19786617159843445
0.06520000169984996,1.800844669342041,0.20003946125507355
0.0655999974696897,1.800683856010437,0.20221245288848877
0.06600000051548705,1.8005211353302002,0.20438514649868011
0.0664000035612844,1.8003567457199097,0.20655754208564758
0.06679999933112413,1.8001906871795654,0.20872962474822998
0.06720000237692147,1.800022840499878,0.2109013944864273
0.06759999814676121,1.7998532056808472,0.21307286620140076
0.06800000119255856,1.7996819019317627,0.21524401009082794
0.06839999696239829,1.799508810043335,0.21741485595703125
0.06880000000819564,1.82136070728302,0.21958905458450317
0.06920000305399299,1.9011842012405396,0.2218344360589981
0.06959999882383272,1.9810057878494263,0.22417646646499634
0.07000000186963007,2.0608253479003906,0.22661513090133667
0.0703999976394698,2.1406431198120117,0.2291504293680191
0.07080000068526715,2.220458745956421,0.23178234696388245
0.07119999645510688,2.300272226333618,0.2345108836889267
0.07159999950090423,2.322110176086426,0.23731055855751038
0.07200000254670158,2.3219192028045654,0.24011355638504028
0.07239999831654131,2.321726083755493,0.24291618168354034
0.07280000136233866,2.32153058052063,0.24571841955184937
0.0731999971321784,2.3213329315185547,0.24852029979228973
0.07360000017797574,2.3211328983306885,0.25132179260253906
0.07400000322377309,2.3209307193756104,0.25412291288375854
0.07439999899361283,2.3207263946533203,0.256923645734787
0.07480000203941017,2.3205196857452393,0.2597239911556244
0.07519999780924991,2.3203108310699463,0.26252397894859314
0.07560000085504726,2.3200995922088623,0.26532354950904846
0.07599999662488699,2.3198862075805664,0.26812273263931274
0.07639999967068434,2.3196706771850586,0.2709214985370636
0.07680000271648169,2.3194527626037598,0.2737199068069458
0.07719999848632142,2.319232702255249,0.2765178680419922
0.07760000153211877,2.3190102577209473,0.2793154716491699
0.0779999973019585,2.3187856674194336,0.28211262822151184
0.07840000034775585,2.318558931350708,0.2849093973636627
0.0788000033935532,2.3183298110961914,0.28770574927330017
0.07919999916339293,2.318098545074463,0.2905017137527466
0.07960000220919028,2.3178651332855225,0.2932972311973572
0.07999999797903001,2.317629337310791,0.29609233140945435
0.08040000102482736,2.3173913955688477,0.2988870143890381
0.0807999967946671,2.3171510696411133,0.3016812801361084
0.08119999984046444,2.316908597946167,0.3044750988483429
0.08160000288626179,2.316663980484009,0.30726850032806396
0.08199999865610152,2.3164169788360596,0.3100614547729492
0.08240000170189887,2.3161678314208984,0.31285399198532104
0.0827999974717386,2.3159165382385254,0.31564605236053467
0.08320000051753595,2.3156628608703613,0.31843772530555725
0.0836000035633333,2.3154070377349854,0.32122892141342163
0.08399999933317304,2.3151488304138184,0.3240196704864502
0.08440000237897038,2.3148884773254395,0.32680997252464294
0.08479999814881012,2.3146259784698486,0.3295998275279999
0.08520000119460747,2.314361095428467,0.332389235496521
0.0855999969644472,2.314094066619873,0.3351781666278839
0.08600000001024455,2.3138248920440674,0.337966650724411
0.0864000030560419,2.3135533332824707,0.3407546579837799
0.08679999882588163,2.313279628753662,0.343542218208313
0.08720000187167898,2.3130037784576416,0.34632930159568787
0.08759999764151871,2.31272554397583,0.34911590814590454
0.08800000068731606,2.3124451637268066,0.3519020676612854
0.0883999964571558,2.312162399291992,0.35468772053718567
0.08879999950295314,2.3254916667938232,0.35747429728507996
0.08920000254875049,2.4052045345306396,0.3603239953517914
0.08959999831859022,2.484915256500244,0.3632701635360718
0.09000000136438757,2.5646233558654785,0.36631280183792114
0.0903999971342273,2.644329071044922,0.3694519102573395
0.09080000018002465,2.724032163619995,0.3726874589920044
0.091200003225822,2.8037326335906982,0.3760194778442383
0.09159999899566174,2.817044496536255,0.37941455841064453
0.09200000204145908,2.816739797592163,0.38281047344207764
0.09239999781129882,2.816431999206543,0.38620588183403015
0.09280000085709617,2.816121816635132,0.3896007537841797
0.0931999966269359,2.8158087730407715,0.39299505949020386
0.09359999967273325,2.815493106842041,0.39638882875442505
0.0940000027185306,2.8151745796203613,0.39978206157684326
0.09439999848837033,2.8148534297943115,0.4031747281551361
0.09480000153416768,2.8145294189453125,0.406566858291626
0.09519999730400741,2.8142027854919434,0.4099584221839905
0.09560000034980476,2.813873529434204,0.4133494198322296
0.09600000339560211,2.8135414123535156,0.4167398512363434
0.09639999916544184,2.813206672668457,0.4201297163963318
0.09680000221123919,2.8128693103790283,0.42351898550987244
0.09719999798107892,2.8125290870666504,0.4269077181816101
0.09760000102687627,2.8121862411499023,0.4302958548069
0.097999996796716,2.811840534210205,0.4336833953857422
0.09839999984251335,2.811492443084717,0.437070369720459
0.0988000028883107,2.8111412525177,0.440456748008728
0.09919999865815043,2.8107876777648926,0.4438425600528717
0.09960000170394778,2.8104312419891357,0.44722774624824524
0.09999999747378752,2.8100719451904297,0.4506123661994934
0.10040000051958486,2.8097100257873535,0.45399636030197144
0.10080000356538221,2.8093454837799072,0.4573797583580017
0.10119999933522195,2.808978319168091,0.46076256036758423
0.1016000023810193,2.808608293533325,0.4641447365283966
0.10199999815085903,2.8082356452941895,0.46752628684043884
0.10240000119665638,2.8078603744506836,0.4709072411060333
0.10279999696649611,2.8074822425842285,0.4742875397205353
0.10320000001229346,2.8071014881134033,0.4776672422885895
0.1036000030580908,2.806717872619629,0.48104631900787354
0.10399999882793054,2.8063318729400635,0.48442476987838745
0.10440000187372789,2.8059427738189697,0.4878025949001312
0.10479999764356762,2.805551290512085,0.49117976427078247
0.10520000068936497,2.805156946182251,0.4945562779903412
0.1055999964592047,2.804759979248047,0.49793216586112976
0.10599999950500205,2.8043603897094727,0.5013074278831482
0.1064000025507994,2.803957939147949,0.5046820044517517
0.10679999832063913,2.8035528659820557,0.5080559253692627
0.10720000136643648,2.803144931793213,0.5114292502403259
0.10759999713627622,2.802734613418579,0.5148018598556519
0.10800000018207356,2.802321434020996,0.5181738138198853
0.10840000322787091,2.801905393600464,0.5215451121330261
0.10879999899771065,2.803760528564453,0.5249158143997192
0.109200002043508,2.8833391666412354,0.5283370018005371
0.10959999781334773,2.9629151821136475,0.5318544507026672
0.11000000085914508,3.0424880981445312,0.5354682207107544
0.11039999662898481,3.122058391571045,0.5391782522201538
0.11079999967478216,3.2016255855560303,0.5429845452308655
0.1112000027205795,3.281189441680908,0.5468870997428894
0.11159999849041924,3.2830240726470947,0.5508401393890381
0.11200000153621659,3.2825818061828613,0.5547925233840942
0.11239999730605632,3.2821364402770996,0.5587441325187683
0.11280000035185367,3.2816877365112305,0.5626950263977051
0.11320000339765102,3.281236171722412,0.5666452050209045
0.11359999916749075,3.2807812690734863,0.5705946087837219
0.1140000022132881,3.280323028564453,0.5745432376861572
0.11439999798312783,3.2798619270324707,0.5784911513328552
0.11480000102892518,3.279397487640381,0.5824383497238159
0.11519999679876491,3.2789299488067627,0.5863847732543945
0.11559999984456226,3.278459310531616,0.5903304219245911
0.11600000289035961,3.2779855728149414,0.5942752957344055
0.11639999866019934,3.277508497238159,0.5982193946838379
0.11680000170599669,3.2770283222198486,0.602162778377533
0.11719999747583643,3.2765450477600098,0.6061053276062012
0.11760000052163377,3.2760586738586426,0.6100471019744873
0.11800000356743112,3.275568962097168,0.6139881014823914
0.11839999933727086,3.275076150894165,0.6179283261299133
0.1188000023830682,3.274580240249634,0.6218677759170532
0.11919999815290794,3.274081230163574,0.625806450843811
0.11960000119870529,3.2735788822174072,0.629744291305542
0.11999999696854502,3.273073673248291,0.6336812973022461
0.12040000001434237,3.2725651264190674,0.6376175284385681
0.12080000306013972,3.2720534801483154,0.6415529847145081
0.12119999882997945,3.271538734436035,0.6454875469207764
0.1216000018757768,3.2710206508636475,0.6494213938713074
0.12199999764561653,3.2704997062683105,0.6533543467521667
0.12240000069141388,3.269975423812866,0.6572864651679993
0.12280000373721123,3.2694480419158936,0.6612178087234497
0.12320000678300858,3.2689173221588135,0.6651483178138733
0.1235999952768907,3.268383741378784,0.66907799243927
0.12399999832268804,3.2678468227386475,0.6730067729949951
0.12440000136848539,3.2673068046569824,0.6769347786903381
0.12480000441428274,3.266763687133789,0.6808618903160095
0.12519999290816486,3.2662174701690674,0.684788167476654
0.1255999959539622,3.2656681537628174,0.688713550567627
0.12599999899975955,3.26511549949646,0.6926381587982178
0.1264000020455569,3.2645599842071533,0.696561872959137
0.12680000509135425,3.2640011310577393,0.7004846930503845
0.12719999358523637,3.263439178466797,0.7044066190719604
0.12759999663103372,3.262874126434326,0.7083277702331543
0.12799999967683107,3.262305736541748,0.7122479677200317
0.12840000272262841,3.2617344856262207,0.7161672711372375
0.12880000576842576,3.261159896850586,0.7200857400894165
0.12919999426230788,3.31933331489563,0.7240294814109802
0.12959999730810523,3.398752450942993,0.7280658483505249
0.13000000035390258,3.478168249130249,0.7321982383728027
0.13040000339969993,3.5575809478759766,0.7364267706871033
0.13080000644549727,3.6369900703430176,0.7407512664794922
0.1311999949393794,3.6951467990875244,0.7451684474945068
0.13159999798517674,3.6945488452911377,0.7496107816696167
0.1320000010309741,3.6939473152160645,0.7540522217750549
0.13240000407677144,3.6933422088623047,0.7584927082061768
0.1328000071225688,3.6927337646484375,0.7629322409629822
0.1331999956164509,3.6921215057373047,0.7673708200454712
0.13359999866224825,3.6915059089660645,0.771808385848999
0.1340000017080456,3.6908867359161377,0.7762450575828552
0.13440000475384295,3.6902639865875244,0.7806807160377502
0.13479999324772507,3.6896376609802246,0.7851154804229736
0.13519999629352242,3.6890077590942383,0.7895491719245911
0.13559999933931977,3.6883742809295654,0.7939819693565369
0.1360000023851171,3.687737464904785,0.7984136939048767
0.13640000543091446,3.6870968341827393,0.8028444647789001
0.13679999392479658,3.686452865600586,0.8072742819786072
0.13719999697059393,3.685805320739746,0.811703085899353
0.13760000001639128,3.6851541996002197,0.8161308169364929
0.13800000306218863,3.684499502182007,0.8205576539039612
0.13840000610798597,3.6838412284851074,0.8249834179878235
0.1387999946018681,3.6831793785095215,0.8294081687927246
0.13919999764766544,3.682514190673828,0.8338319063186646
0.1396000006934628,3.6818454265594482,0.8382545709609985
0.14000000373926014,3.681173086166382,0.8426762819290161
0.14040000678505749,3.680497169494629,0.8470969200134277
0.1407999952789396,3.6798176765441895,0.8515165448188782
