time[s],iL[A],v out[V]
0.0,0.0,0.0
0.00040000000467443897,0.0,0.0
0.0008000000093488779,0.0,0.0
0.0012000000424450263,0.0,0.0
0.0016000000186977559,0.0,0.0
0.0019999999949504854,0.0,0.0
0.0024000000848900527,0.0,0.0
0.0027999999474559445,0.0,0.0
0.0032000000373955118,0.0,0.0
0.0035999998999614036,0.0,0.0
0.003999999989900971,0.0,0.0
0.004399999852466863,0.0,0.0
0.004800000169780105,0.0,0.0
0.005200000032345997,0.0,0.0
0.005599999894911889,0.0,0.0
0.006000000212225132,0.0,0.0
0.0064000000747910235,0.0,0.0
0.006799999937356915,0.0,0.0
0.007199999799922807,0.0,0.0
0.00760000011723605,0.0,0.0
0.007999999979801942,0.0,0.0
0.008400000297115184,0.0,0.0
0.008799999704933725,0.0,0.0
0.009200000022246968,0.04571708291769028,1.5833580619073473e-05
0.00960000033956021,0.12571704387664795,0.00011973016080446541
0.009999999747378752,0.20571686327457428,0.0003205889370292425
0.010400000064691994,0.2857165038585663,0.0006184049998410046
0.010800000382005237,0.3657158613204956,0.0010131733724847436
0.011199999789823778,0.4114319384098053,0.0014959850814193487
0.01160000010713702,0.4114305377006531,0.001994604943320155
0.012000000424450263,0.4114287495613098,0.0024931987281888723
0.012399999832268804,0.4114265441894531,0.0029917662031948566
0.012800000149582047,0.4114239513874054,0.00349030620418489
0.013199999557400588,0.4114209711551666,0.003988818731158972
0.01359999987471383,0.41141757369041443,0.004487303551286459
0.014000000192027073,0.4114137887954712,0.004985759500414133
0.014399999599845614,0.4114095866680145,0.005484186578541994
0.014799999917158857,0.4114050269126892,0.005982584320008755
0.0152000002344721,0.4114000201225281,0.00648095179349184
0.015600000551785342,0.4113946557044983,0.006979288998991251
0.015999999959603883,0.4113888740539551,0.007477595005184412
0.016399999367422424,0.41138267517089844,0.007975869812071323
0.01680000059423037,0.41137608885765076,0.008474113419651985
0.01720000000204891,0.41136911511421204,0.00897232349961996
0.01759999940986745,0.4113617539405823,0.009470500983297825
0.018000000636675395,0.4113539755344391,0.009968645870685577
0.018400000044493936,0.41134580969810486,0.01046675629913807
0.018799999452312477,0.4113372266292572,0.0109648322686553
0.01920000067912042,0.4113282561302185,0.01146287377923727
0.019600000086938962,0.4113188683986664,0.011960879899561405
0.019999999494757503,0.4113091230392456,0.012458850629627705
0.020400000721565448,0.4112989604473114,0.012956785038113594
0.02080000012938399,0.41128838062286377,0.013454682193696499
0.02119999953720253,0.4112774431705475,0.013952543027698994
0.021600000764010474,0.4112660586833954,0.01445036567747593
0.022000000171829015,0.41125431656837463,0.014948150143027306
0.022399999579647556,0.41124215722084045,0.015445895493030548
0.0228000008064555,0.41122958064079285,0.015943603590130806
0.02320000021427404,0.4112166464328766,0.01644127070903778
0.023599999622092582,0.4112032949924469,0.016938896849751472
0.024000000848900527,0.4111895263195038,0.01743648387491703
0.024400000256719068,0.411175400018692,0.017934029921889305
0.02479999966453761,0.4111608564853668,0.018431533128023148
0.025200000891345553,0.4111458957195282,0.018928995355963707
0.025600000299164094,0.41113054752349854,0.019426414743065834
0.025999999706982635,0.41111481189727783,0.01992379128932953
0.026399999114801176,0.4110986888408661,0.02042112499475479
0.02680000034160912,0.4110821485519409,0.020918413996696472
0.02719999974942766,0.4110652208328247,0.02141565829515457
0.027599999157246202,0.41104787588119507,0.02191285975277424
0.028000000384054147,0.4110301434993744,0.022410012781620026
0.028399999791872688,0.41101202368736267,0.02290712296962738
0.02879999919969123,0.4109934866428375,0.023404184728860855
0.029200000426499173,0.454086571931839,0.023915281519293785
0.029599999834317714,0.5340672135353088,0.024512989446520805
0.029999999242136255,0.6140473484992981,0.025207610800862312
0.0304000004689442,0.6940268874168396,0.025999141857028008
0.030800001695752144,0.7740057110786438,0.026887577027082443
0.031200001103570685,0.8170958161354065,0.027862602844834328
0.031600000511389226,0.8170731067657471,0.02885163202881813
0.03199999991920777,0.8170496821403503,0.029840586706995964
0.03239999932702631,0.817025363445282,0.03082946501672268
0.03279999873484485,0.8170003294944763,0.03181826323270798
0.0332000017806422,0.8169744610786438,0.03280698508024216
0.03360000118846074,0.8169478178024292,0.03379562869668007
0.03400000059627928,0.8169203996658325,0.034784186631441116
0.03440000000409782,0.8168922066688538,0.035772666335105896
0.03479999941191636,0.8168631792068481,0.03676106408238411
0.0351999988197349,0.8168333768844604,0.03774937614798546
0.03559999822755344,0.8168027997016907,0.03873760625720024
0.03600000127335079,0.816771388053894,0.03972574695944786
0.03640000068116933,0.8167392015457153,0.040713805705308914
0.03680000008898787,0.8167062401771545,0.041701775044202805
0.03719999949680641,0.8166725039482117,0.04268965497612953
0.037599998904624954,0.8166379332542419,0.043677445501089096
0.037999998312443495,0.8166025876998901,0.0446651466190815
0.03840000135824084,0.8165664672851562,0.045652758330106735
0.038800000766059384,0.8165295720100403,0.04664027318358421
0.039200000173877925,0.8164918422698975,0.04762769863009453
0.039599999581696466,0.8164533376693726,0.04861503094434738
0.03999999898951501,0.8164140582084656,0.049602266401052475
0.04039999839733355,0.8163740038871765,0.05058940500020981
0.040800001443130895,0.8163331151008606,0.05157645046710968
0.041200000850949436,0.8162914514541626,0.052563395351171494
0.04160000025876798,0.8162490129470825,0.05355023965239525
0.04199999966658652,0.8162057995796204,0.05453698709607124
0.04239999907440506,0.8161617517471313,0.05552363023161888
0.0427999984822236,0.8161169290542603,0.05651017650961876
0.04320000152802095,0.8160713315010071,0.05749661847949028
0.04360000093583949,0.8160249590873718,0.058482956141233444
0.04400000034365803,0.8159777522087097,0.05946918949484825
0.04439999975147657,0.8159297704696655,0.0604553148150444
0.04479999915929511,0.8158810138702393,0.0614413358271122
0.04519999856711365,0.8158314824104309,0.062427252531051636
0.045600001612911,0.8157811760902405,0.06341305375099182
0.04600000102072954,0.8157300353050232,0.06439875066280365
0.04640000042854808,0.8156781196594238,0.06538433581590652
0.046799999836366624,0.8156254291534424,0.06636981666088104
0.047199999244185165,0.8155719041824341,0.06735517829656601
0.047599998652003706,0.8155176639556885,0.06834042817354202
0.048000001697801054,0.815462589263916,0.06932555884122849
0.048400001105619594,0.8154067397117615,0.07031058520078659
0.048800000513438135,0.8153500556945801,0.07129548490047455
0.049199999921256676,0.8540121912956238,0.07229163497686386
0.04959999932907522,0.9339539408683777,0.07337171584367752
0.04999999873689376,1.01389479637146,0.0745486468076706
0.050400001782691106,1.093834638595581,0.07582241296768188
0.05080000119050965,1.1737734079360962,0.0771930143237114
0.05120000059832819,1.212430715560913,0.07864752411842346
0.05160000000614673,1.2123671770095825,0.0801132544875145
0.05199999941396527,1.2123024463653564,0.081578828394413
0.05239999882178381,1.2122366428375244,0.08304426074028015
0.05279999822960235,1.2121696472167969,0.08450952917337418
0.0532000012753997,1.2121014595031738,0.08597465604543686
0.05360000068321824,1.2120320796966553,0.087439626455307
0.05400000009103678,1.2119615077972412,0.08890443295240402
0.05439999949885532,1.2118898630142212,0.0903690904378891
0.054799998906673864,1.2118169069290161,0.09183358401060104
0.055199998314492404,1.211742877960205,0.09329792112112045
0.05560000136028975,1.2116676568984985,0.09476209431886673
0.05600000076810829,1.2115912437438965,0.09622611105442047
0.056400000175926834,1.2115137577056885,0.09768995642662048
0.056799999583745375,1.2114349603652954,0.09915363788604736
0.057199998991563916,1.2113550901412964,0.10061715543270111
0.05759999839938246,1.2112740278244019,0.10208050161600113
0.058000001445179805,1.2111917734146118,0.10354367643594742
0.058400000852998346,1.2111083269119263,0.10500667989253998
0.05880000026081689,1.2110236883163452,0.10646951198577881
0.05919999966863543,1.2109379768371582,0.10793217271566391
0.05959999907645397,1.2108510732650757,0.10939465463161469
0.05999999848427251,1.2107629776000977,0.11085695773363113
0.06040000153006986,1.2106736898422241,0.11231908202171326
0.0608000009378884,1.210583209991455,0.11378103494644165
0.06120000034570694,1.21049165725708,0.11524280160665512
0.06160000339150429,1.2103989124298096,0.11670438200235367
0.06199999916134402,1.2103049755096436,0.11816578358411789
0.06240000220714137,1.210209846496582,0.11962699890136719
0.0627999979769811,1.210113525390625,0.12108802050352097
0.06320000102277845,1.210016131401062,0.12254886329174042
0.06359999679261819,1.209917426109314,0.12400951236486435
0.06399999983841553,1.20981764793396,0.12546996772289276
0.06440000288421288,1.2097166776657104,0.12693023681640625
0.06479999865405262,1.2096145153045654,0.12839031219482422
0.06520000169984996,1.2095112800598145,0.12985017895698547
0.0655999974696897,1.209406852722168,0.1313098669052124
0.06600000051548705,1.209301233291626,0.13276934623718262
0.0664000035612844,1.2091944217681885,0.1342286318540573
0.06679999933112413,1.2090864181518555,0.1356877088546753
0.06720000237692147,1.208977222442627,0.13714659214019775
0.06759999814676121,1.2088669538497925,0.1386052668094635
0.06800000119255856,1.2087554931640625,0.14006373286247253
0.06839999696239829,1.208642840385437,0.14152199029922485
0.06880000000819564,1.2085291147232056,0.14298005402088165
0.06920000305399299,1.2437976598739624,0.14444738626480103
0.06959999882383272,1.3236814737319946,0.14599639177322388
0.07000000186963007,1.4035639762878418,0.14764215052127838
0.0703999976394698,1.4834452867507935,0.14938464760780334
0.07080000068526715,1.563325047492981,0.15122389793395996
0.07119999645510688,1.5985867977142334,0.15314479172229767
0.07159999950090423,1.598463535308838,0.15507492423057556
0.07200000254670158,1.5983387231826782,0.15700480341911316
0.07239999831654131,1.5982123613357544,0.15893445909023285
0.07280000136233866,1.5980843305587769,0.16086384654045105
0.0731999971321784,1.5979548692703247,0.16279299557209015
0.07360000017797574,1.5978238582611084,0.16472189128398895
0.07400000322377309,1.5976914167404175,0.16665053367614746
0.07439999899361283,1.5975573062896729,0.16857892274856567
0.07480000203941017,1.597421646118164,0.1705070585012436
0.07519999780924991,1.5972844362258911,0.17243492603302002
0.07560000085504726,1.5971457958221436,0.17436254024505615
0.07599999662488699,1.5970054864883423,0.1762898862361908
0.07639999967068434,1.5968636274337769,0.17821697890758514
0.07680000271648169,1.5967203378677368,0.1801437884569168
0.07719999848632142,1.5965754985809326,0.18207034468650818
0.07760000153211877,1.5964289903640747,0.18399661779403687
0.0779999973019585,1.5962810516357422,0.18592262268066406
0.07840000034775585,1.5961315631866455,0.18784835934638977
0.0788000033935532,1.5959805250167847,0.189773827791214
0.07919999916339293,1.5958279371261597,0.19169899821281433
0.07960000220919028,1.5956737995147705,0.19362390041351318
0.07999999797903001,1.5955181121826172,0.19554853439331055
0.08040000102482736,1.5953608751296997,0.19747287034988403
0.0807999967946671,1.5952022075653076,0.19939692318439484
0.08119999984046444,1.5950418710708618,0.20132069289684296
0.08160000288626179,1.5948799848556519,0.2032441645860672
0.08199999865610152,1.5947166681289673,0.20516735315322876
0.08240000170189887,1.5945518016815186,0.20709025859832764
0.0827999974717386,1.5943853855133057,0.20901285111904144
0.08320000051753595,1.594217300415039,0.21093516051769257
0.0836000035633333,1.5940477848052979,0.2128571718931198
0.08399999933317304,1.593876838684082,0.21477888524532318
0.08440000237897038,1.5937042236328125,0.21670028567314148
0.08479999814881012,1.5935300588607788,0.2186213880777359
0.08520000119460747,1.593354344367981,0.22054219245910645
0.0855999969644472,1.5931771993637085,0.22246268391609192
0.08600000001024455,1.5929985046386719,0.22438286244869232
0.0864000030560419,1.5928181409835815,0.22630274295806885
0.08679999882588163,1.5926363468170166,0.2282222956418991
0.08720000187167898,1.5924530029296875,0.2301415503025055
0.08759999764151871,1.5922681093215942,0.2320604771375656
0.08800000068731606,1.5920817852020264,0.23397909104824066
0.0883999964571558,1.5918937921524048,0.23589737713336945
0.08879999950295314,1.591704249382019,0.23781535029411316
0.08920000254875049,1.627274751663208,0.2397426813840866
0.08959999831859022,1.7070821523666382,0.24175183475017548
0.09000000136438757,1.7868878841400146,0.24385762214660645
0.0903999971342273,1.8666919469833374,0.24606002867221832
0.09080000018002465,1.946494221687317,0.2483590692281723
0.091200003225822,1.9820560216903687,0.2507399022579193
0.09159999899566174,1.9818544387817383,0.2531300485134125
0.09200000204145908,1.981650948524475,0.255519837141037
0.09239999781129882,1.981445550918579,0.25790926814079285
0.09280000085709617,1.9812383651733398,0.26029834151268005
0.0931999966269359,1.9810291528701782,0.2626870274543762
0.09359999967273325,1.9808180332183838,0.26507535576820374
0.0940000027185306,1.9806050062179565,0.2674632966518402
0.09439999848837033,1.9803900718688965,0.26985087990760803
0.09480000153416768,1.9801732301712036,0.2722380757331848
0.09519999730400741,1.979954481124878,0.27462491393089294
0.09560000034980476,1.9797338247299194,0.27701133489608765
0.09600000339560211,1.9795112609863281,0.2793973982334137
0.09639999916544184,1.979286789894104,0.2817830741405487
0.09680000221123919,1.979060411453247,0.2841683328151703
0.09719999798107892,1.9788321256637573,0.2865532338619232
0.09760000102687627,1.9786019325256348,0.2889377176761627
0.097999996796716,1.9783698320388794,0.2913218140602112
0.09839999984251335,1.9781358242034912,0.2937055230140686
0.0988000028883107,1.9778999090194702,0.2960888147354126
0.09919999865815043,1.9776620864868164,0.29847171902656555
0.09960000170394778,1.9774223566055298,0.3008542060852051
0.09999999747378752,1.9771807193756104,0.30323630571365356
0.10040000051958486,1.976937174797058,0.3056179881095886
0.10080000356538221,1.976691722869873,0.30799925327301025
0.10119999933522195,1.9764443635940552,0.31038010120391846
0.1016000023810193,1.9761950969696045,0.31276053190231323
0.10199999815085903,1.975943922996521,0.3151405453681946
0.10240000119665638,1.9756908416748047,0.3175201416015625
0.10279999696649611,1.9754359722137451,0.3198992908000946
0.10320000001229346,1.9751790761947632,0.32227805256843567
0.1036000030580908,1.9749202728271484,0.3246563673019409
0.10399999882793054,1.9746595621109009,0.32703426480293274
0.10440000187372789,1.97439706325531,0.32941171526908875
0.10479999764356762,1.9741325378417969,0.33178871870040894
0.10520000068936497,1.9738662242889404,0.3341653048992157
0.1055999964592047,1.9735978841781616,0.33654144406318665
0.10599999950500205,1.9733277559280396,0.33891716599464417
0.1064000025507994,1.9730556011199951,0.3412924110889435
0.10679999832063913,1.9727816581726074,0.343667209148407
0.10720000136643648,1.972505807876587,0.34604158997535706
0.10759999713627622,1.972227931022644,0.3484154939651489
0.10800000018207356,1.971948266029358,0.350788950920105
0.10840000322787091,1.971666693687439,0.3531619608402252
0.10879999899771065,1.9713832139968872,0.35553449392318726
0.109200002043508,2.007991075515747,0.3579168915748596
0.10959999781334773,2.0877039432525635,0.36038172245025635
0.11000000085914508,2.167414665222168,0.36294305324554443
0.11039999662898481,2.2471232414245605,0.3656008839607239
0.11079999967478216,2.326829671859741,0.3683551847934723
0.1112000027205795,2.36342716217041,0.3711918890476227
0.11159999849041924,2.363128900527954,0.3740383982658386
0.11200000153621659,2.3628287315368652,0.376884400844574
0.11239999730605632,2.3625259399414062,0.37972989678382874
0.11280000035185367,2.3622210025787354,0.3825749158859253
0.11320000339765102,2.3619139194488525,0.38541939854621887
0.11359999916749075,2.3616044521331787,0.38826340436935425
0.1140000022132881,2.361292600631714,0.39110684394836426
0.11439999798312783,2.360978603363037,0.39394980669021606
0.11480000102892518,2.3606622219085693,0.3967922329902649
0.11519999679876491,2.3603436946868896,0.39963415265083313
0.11559999984456226,2.360022783279419,0.4024755358695984
0.11600000289035961,2.3596997261047363,0.40531638264656067
0.11639999866019934,2.3593742847442627,0.40815672278404236
0.11680000170599669,2.359046697616577,0.4109964966773987
0.11719999747583643,2.3587167263031006,0.4138357639312744
0.11760000052163377,2.358384609222412,0.4166744649410248
0.11800000356743112,2.3580501079559326,0.41951265931129456
0.11839999933727086,2.357713460922241,0.42235028743743896
0.1188000023830682,2.357374429702759,0.425187349319458
0.11919999815290794,2.3570330142974854,0.42802390456199646
0.11960000119870529,2.356689453125,0.43085986375808716
0.11999999696854502,2.3563437461853027,0.4336952865123749
0.12040000001434237,2.3559956550598145,0.43653014302253723
0.12080000306013972,2.355645179748535,0.4393644630908966
0.12119999882997945,2.355292558670044,0.4421982169151306
0.1216000018757768,2.354937791824341,0.44503137469291687
0.12199999764561653,2.3545806407928467,0.44786399602890015
0.12240000069141388,2.3542211055755615,0.45069602131843567
0.12280000373721123,2.3538594245910645,0.4535274803638458
0.12320000678300858,2.3534955978393555,0.4563583731651306
0.1235999952768907,2.3531293869018555,0.45918866991996765
0.12399999832268804,2.3527607917785645,0.4620184004306793
0.12440000136848539,2.3523900508880615,0.46484753489494324
0.12480000441428274,2.3520171642303467,0.4676760733127594
0.12519999290816486,2.351641893386841,0.4705040454864502
0.1255999959539622,2.351264238357544,0.47333142161369324
0.12599999899975955,2.350884437561035,0.47615817189216614
0.1264000020455569,2.3505024909973145,0.47898435592651367
0.12680000509135425,2.3501181602478027,0.48180991411209106
0.12719999358523637,2.3497314453125,0.4846348762512207
0.12759999663103372,2.3493428230285645,0.4874592423439026
0.12799999967683107,2.348951578140259,0.49028298258781433
0.12840000272262841,2.348558187484741,0.4931061267852783
0.12880000576842576,2.3481626510620117,0.49592864513397217
0.12919999426230788,2.3850197792053223,0.49876105785369873
0.12959999730810523,2.4646196365356445,0.5016759634017944
0.13000000035390258,2.544217109680176,0.5046872496604919
0.13040000339969993,2.623811960220337,0.5077948570251465
0.13080000644549727,2.703404426574707,0.5109987854957581
0.1311999949393794,2.7402493953704834,0.514285147190094
0.13159999798517674,2.7398366928100586,0.5175814032554626
0.1320000010309741,2.7394211292266846,0.5208770036697388
0.13240000407677144,2.7390031814575195,0.5241718888282776
0.1328000071225688,2.7385826110839844,0.5274661779403687
0.1331999956164509,2.7381591796875,0.5307597517967224
0.13359999866224825,2.7377333641052246,0.5340526700019836
0.1340000017080456,2.7373046875,0.5373448729515076
0.13440000475384295,2.7368736267089844,0.540636420249939
0.13479999324772507,2.7364397048950195,0.5439273118972778
0.13519999629352242,2.7360033988952637,0.5472174882888794
0.13559999933931977,2.7355642318725586,0.5505070090293884
0.1360000023851171,2.7351224422454834,0.5537957549095154
0.13640000543091446,2.734678030014038,0.5570839047431946
0.13679999392479658,2.7342312335968018,0.5603712797164917
0.13719999697059393,2.733781576156616,0.5636579990386963
0.13760000001639128,2.7333292961120605,0.5669440031051636
0.13800000306218863,2.7328743934631348,0.5702292323112488
0.13840000610798597,2.732416868209839,0.5735138058662415
0.1387999946018681,2.731956720352173,0.5767976641654968
0.13919999764766544,2.7314939498901367,0.5800808072090149
0.1396000006934628,2.7310287952423096,0.5833632349967957
0.14000000373926014,2.730560779571533,0.5866449475288391
0.14040000678505749,2.7300901412963867,0.5899258852005005
