time[s],iL[A],v out[V]
0.0,0.0,0.0
0.00040000000467443897,0.0,0.0
0.0008000000093488779,0.0,0.0
0.0012000000424450263,0.0,0.0
0.0016000000186977559,0.0,0.0
0.0019999999949504854,0.0,0.0
0.0024000000848900527,0.0,0.0
0.0027999999474559445,0.0,0.0
0.0032000000373955118,0.0,0.0
0.0035999998999614036,0.0,0.0
0.003999999989900971,0.0,0.0
0.004399999852466863,0.0,0.0
0.004800000169780105,0.0,0.0
0.005200000032345997,0.0,0.0
0.005599999894911889,0.05422297865152359,2.2273479771683924e-05
0.006000000212225132,0.13422292470932007,0.00013647966261487454
0.0064000000747910235,0.2142227292060852,0.0003476475249044597
0.006799999937356915,0.29422232508659363,0.0006557721644639969
0.007199999799922807,0.37422165274620056,0.001060848473571241
0.00760000011723605,0.45422062277793884,0.001562871620990336
0.007999999979801942,0.5342191457748413,0.0021618360187858343
0.008400000297115184,0.6142171025276184,0.0028577367775142193
0.008799999704933725,0.6942145228385925,0.003650568425655365
0.009200000022246968,0.7742112874984741,0.00454032514244318
0.00960000033956021,0.8542072176933289,0.0055270022712647915
0.009999999747378752,0.9342023730278015,0.00661059282720089
0.010400000064691994,1.0141966342926025,0.007791092153638601
0.010800000382005237,1.0941898822784424,0.009068493731319904
0.011199999789823778,1.1741820573806763,0.010442792437970638
0.01160000010713702,1.2541731595993042,0.011913981288671494
0.012000000424450263,1.3341630697250366,0.013482054695487022
0.012399999832268804,1.4141515493392944,0.015147006139159203
0.012800000149582047,1.4941387176513672,0.016908830031752586
0.013199999557400588,1.5741244554519653,0.018767518922686577
0.01359999987471383,1.6541086435317993,0.020723067224025726
0.014000000192027073,1.7340912818908691,0.022775467485189438
0.014399999599845614,1.8140722513198853,0.024924714118242264
0.014799999917158857,1.8682743310928345,0.027165766805410385
0.0152000002344721,1.8682518005371094,0.029428955167531967
0.015600000551785342,1.868227243423462,0.031692005693912506
0.015999999959603883,1.8682010173797607,0.033954918384552
0.016399999367422424,1.8681730031967163,0.03621768578886986
0.01680000059423037,1.868143081665039,0.038480307906866074
0.01720000000204891,1.8681113719940186,0.04074278473854065
0.01759999940986745,1.8680778741836548,0.04300511255860329
0.018000000636675395,1.8680425882339478,0.04526728764176369
0.018400000044493936,1.8680055141448975,0.04752930998802185
0.018799999452312477,1.8679665327072144,0.04979117587208748
0.01920000067912042,1.867925763130188,0.05205288529396057
0.019600000086938962,1.8678832054138184,0.05431443452835083
0.019999999494757503,1.8678388595581055,0.05657581984996796
0.020400000721565448,1.8677927255630493,0.05883704125881195
0.02080000012938399,1.8677446842193604,0.061098095029592514
0.02119999953720253,1.8676949739456177,0.06335898488759995
0.021600000764010474,1.8676433563232422,0.06561969965696335
0.022000000171829015,1.8675899505615234,0.06788023561239243
0.022399999579647556,1.8675347566604614,0.07014060765504837
0.0228000008064555,1.8674777746200562,0.07240079343318939
0.02320000021427404,1.867418885231018,0.07466080039739609
0.023599999622092582,1.8673582077026367,0.07692062854766846
0.024000000848900527,1.8672958612442017,0.0791802704334259
0.024400000256719068,1.8672316074371338,0.08143972605466843
0.02479999966453761,1.8671655654907227,0.08369899541139603
0.025200000891345553,1.8670976161956787,0.0859580710530281
0.025600000299164094,1.867027997970581,0.08821695297956467
0.025999999706982635,1.8669564723968506,0.0904756486415863
0.026399999114801176,1.8668832778930664,0.09273413568735123
0.02680000034160912,1.8668081760406494,0.09499242901802063
0.02719999974942766,1.8667312860488892,0.09725052118301392
0.027599999157246202,1.866652488708496,0.09950840473175049
0.028000000384054147,1.8665720224380493,0.10176608711481094
0.028399999791872688,1.8720413446426392,0.10402379930019379
0.02879999919969123,1.9519572257995605,0.10633627325296402
0.029200000426499173,2.0318710803985596,0.1087455004453659
0.029599999834317714,2.111783266067505,0.11125147342681885
0.029999999242136255,2.191693067550659,0.11385418474674225
0.0304000004689442,2.2716009616851807,0.11655362695455551
0.030800001695752144,2.3515067100524902,0.11934979259967804
0.031200001103570685,2.431410074234009,0.12224267423152924
0.031600000511389226,2.5113110542297363,0.1252322643995285
0.03199999991920777,2.516761302947998,0.12827655673027039
0.03239999932702631,2.5166573524475098,0.13132083415985107
0.03279999873484485,2.5165510177612305,0.13436481356620789
0.0332000017806422,2.5164425373077393,0.1374085247516632
0.03360000118846074,2.516331195831299,0.14045195281505585
0.03400000059627928,2.5162177085876465,0.1434950977563858
0.03440000000409782,2.516101598739624,0.14653795957565308
0.03479999941191636,2.5159833431243896,0.14958053827285767
0.0351999988197349,2.515862464904785,0.15262280404567719
0.03559999822755344,2.5157389640808105,0.15566478669643402
0.03600000127335079,2.515613317489624,0.15870647132396698
0.03640000068116933,2.5154850482940674,0.16174785792827606
0.03680000008898787,2.5153543949127197,0.16478893160820007
0.03719999949680641,2.515221357345581,0.1678297072649002
0.037599998904624954,2.5150859355926514,0.17087016999721527
0.037999998312443495,2.5149481296539307,0.17391031980514526
0.03840000135824084,2.51480770111084,0.176950141787529
0.038800000766059384,2.514664888381958,0.17998966574668884
0.039200000173877925,2.514519691467285,0.18302884697914124
0.039599999581696466,2.5143721103668213,0.18606771528720856
0.03999999898951501,2.5142219066619873,0.18910625576972961
0.04039999839733355,2.5140693187713623,0.1921444684267044
0.040800001443130895,2.5139145851135254,0.19518233835697174
0.041200000850949436,2.5137572288513184,0.1982198804616928
0.04160000025876798,2.513597249984741,0.20125706493854523
0.04199999966658652,2.513435125350952,0.20429392158985138
0.04239999907440506,2.513270378112793,0.20733043551445007
0.0427999984822236,2.513103485107422,0.21036659181118011
0.04320000152802095,2.5129339694976807,0.2134024053812027
0.04360000093583949,2.5127618312835693,0.21643786132335663
0.04400000034365803,2.512587547302246,0.2194729596376419
0.04439999975147657,2.512410879135132,0.22250770032405853
0.04479999915929511,2.5122315883636475,0.2255420833826065
0.04519999856711365,2.512049913406372,0.22857609391212463
0.045600001612911,2.5118658542633057,0.23160973191261292
0.04600000102072954,2.5116794109344482,0.23464299738407135
0.04640000042854808,2.5114903450012207,0.23767589032649994
0.046799999836366624,2.5112991333007812,0.24070841073989868
0.047199999244185165,2.5111052989959717,0.24374054372310638
0.047599998652003706,2.510909080505371,0.24677230417728424
0.048000001697801054,2.5107104778289795,0.24980367720127106
0.048400001105619594,2.510509490966797,0.25283464789390564
0.048800000513438135,2.510305881500244,0.2558652460575104
0.049199999921256676,2.5271406173706055,0.2588976323604584
0.04959999932907522,2.6069324016571045,0.2619965672492981
0.04999999873689376,2.6867215633392334,0.26519206166267395
0.050400001782691106,2.766508102416992,0.26848411560058594
0.05080000119050965,2.8462917804718018,0.27187269926071167
0.05120000059832819,2.8631136417388916,0.27532780170440674
0.05160000000614673,2.8628921508789062,0.27878469228744507
0.05199999941396527,2.8626675605773926,0.2822411358356476
0.05239999882178381,2.862440347671509,0.2856971025466919
0.05279999822960235,2.862210512161255,0.28915268182754517
0.0532000012753997,2.8619778156280518,0.29260775446891785
0.05360000068321824,2.8617422580718994,0.2960624098777771
0.05400000009103678,2.861504077911377,0.29951661825180054
0.05439999949885532,2.8612630367279053,0.30297034978866577
0.054799998906673864,2.8610193729400635,0.3064236342906952
0.055199998314492404,2.8607728481292725,0.3098764419555664
0.05560000136028975,2.8605234622955322,0.3133288025856018
0.05600000076810829,2.860271453857422,0.3167806565761566
0.056400000175926834,2.8600168228149414,0.3202320635318756
0.056799999583745375,2.8597590923309326,0.3236829936504364
0.057199998991563916,2.8594987392425537,0.3271334171295166
0.05759999839938246,2.8592357635498047,0.3305833637714386
0.058000001445179805,2.8589699268341064,0.3340328335762024
0.058400000852998346,2.858701229095459,0.337481826543808
0.05880000026081689,2.8584299087524414,0.340930312871933
0.05919999966863543,2.8581557273864746,0.3443782925605774
0.05959999907645397,2.8578789234161377,0.3478257656097412
0.05999999848427251,2.8575992584228516,0.3512727618217468
0.06040000153006986,2.8573169708251953,0.35471922159194946
0.0608000009378884,2.85703182220459,0.3581652045249939
0.06120000034570694,2.856743812561035,0.36161065101623535
0.06160000339150429,2.8564531803131104,0.36505556106567383
0.06199999916134402,2.8561596870422363,0.3684999644756317
0.06240000220714137,2.855863571166992,0.371943861246109
0.0627999979769811,2.855564594268799,0.3753872215747833
0.06320000102277845,2.8552629947662354,0.37883004546165466
0.06359999679261819,2.8549585342407227,0.382272332906723
0.06399999983841553,2.8546512126922607,0.3857140839099884
0.06440000288421288,2.8543412685394287,0.3891552984714508
0.06479999865405262,2.8540287017822266,0.39259594678878784
0.06520000169984996,2.853713274002075,0.3960360586643219
0.0655999974696897,2.8533949851989746,0.399475634098053
0.06600000051548705,2.853074073791504,0.4029146432876587
0.0664000035612844,2.852750301361084,0.4063531160354614
0.06679999933112413,2.852423906326294,0.4097910225391388
0.06720000237692147,2.8520946502685547,0.4132283329963684
0.06759999814676121,2.8517627716064453,0.41666510701179504
0.06800000119255856,2.8514280319213867,0.4201012849807739
0.06839999696239829,2.851090431213379,0.42353692650794983
0.06880000000819564,2.850750207901001,0.426971971988678
0.06920000305399299,2.8525450229644775,0.43040645122528076
0.06959999882383272,2.932199478149414,0.4338914155960083
0.07000000186963007,3.0118508338928223,0.43747273087501526
0.0703999976394698,3.0914993286132812,0.4411504566669464
0.07080000068526715,3.171144962310791,0.4449245035648346
0.07119999645510688,3.1729252338409424,0.44874900579452515
0.07159999950090423,3.172564744949341,0.45257291197776794
0.07200000254670158,3.172201156616211,0.4563961625099182
0.07239999831654131,3.1718344688415527,0.4602188169956207
0.07280000136233866,3.1714649200439453,0.4640408456325531
0.0731999971321784,3.1710920333862305,0.46786221861839294
0.07360000017797574,3.1707162857055664,0.47168296575546265
0.07400000322377309,3.170337438583374,0.4755030572414398
0.07439999899361283,3.1699554920196533,0.47932252287864685
0.07480000203941017,3.1695704460144043,0.48314133286476135
0.07519999780924991,3.169182300567627,0.4869594871997833
0.07560000085504726,3.1687912940979004,0.49077698588371277
0.07599999662488699,3.1683971881866455,0.4945937991142273
0.07639999967068434,3.1679999828338623,0.4984099864959717
0.07680000271648169,3.167599678039551,0.5022254586219788
0.07719999848632142,3.167196273803711,0.5060402750968933
0.07760000153211877,3.166790008544922,0.5098544359207153
0.0779999973019585,3.1663806438446045,0.5136679410934448
0.07840000034775585,3.165968179702759,0.517480731010437
0.0788000033935532,3.1655526161193848,0.5212928056716919
0.07919999916339293,3.1651341915130615,0.5251042246818542
0.07960000220919028,3.164712429046631,0.5289149284362793
0.07999999797903001,3.164287805557251,0.5327249765396118
0.08040000102482736,3.1638600826263428,0.536534309387207
0.0807999967946671,3.1634292602539062,0.5403429269790649
0.08119999984046444,3.1629955768585205,0.5441508293151855
0.08160000288626179,3.1625587940216064,0.5479580163955688
0.08199999865610152,3.162118911743164,0.5517644882202148
0.08240000170189887,3.1616759300231934,0.5555702447891235
0.0827999974717386,3.1612298488616943,0.5593752861022949
0.08320000051753595,3.160780906677246,0.563179612159729
0.0836000035633333,3.1603288650512695,0.566983163356781
0.08399999933317304,3.1598737239837646,0.5707859992980957
0.08440000237897038,3.1594154834747314,0.5745881199836731
0.08479999814881012,3.158954381942749,0.5783894658088684
0.08520000119460747,3.1584901809692383,0.5821900963783264
0.0855999969644472,3.158022880554199,0.5859899520874023
0.08600000001024455,3.157552480697632,0.589789092540741
0.0864000030560419,3.1570792198181152,0.5935874581336975
0.08679999882588163,3.1566028594970703,0.597385048866272
0.08720000187167898,3.156123399734497,0.6011819243431091
0.08759999764151871,3.1556408405303955,0.6049779653549194
0.08800000068731606,3.1551554203033447,0.6087732911109924
0.0883999964571558,3.1546669006347656,0.6125677824020386
0.08879999950295314,3.154175281524658,0.6163615584373474
0.08920000254875049,3.1536808013916016,0.6201545000076294
0.08959999831859022,3.2154219150543213,0.6239760518074036
0.09000000136438757,3.2949211597442627,0.6278913617134094
0.0903999971342273,3.374417304992676,0.631902813911438
0.09080000018002465,3.4361491203308105,0.636008083820343
0.091200003225822,3.435638666152954,0.6401419043540955
0.09159999899566174,3.4351248741149902,0.6442748308181763
0.09200000204145908,3.434607744216919,0.648406982421875
0.09239999781129882,3.4340875148773193,0.6525382995605469
0.09280000085709617,3.433563709259033,0.6566687822341919
0.0931999966269359,3.4330368041992188,0.6607983708381653
0.09359999967273325,3.432506561279297,0.6649271845817566
0.0940000027185306,3.4319727420806885,0.669055163860321
0.09439999848837033,3.431436061859131,0.6731822490692139
0.09480000153416768,3.4308958053588867,0.6773084998130798
0.09519999730400741,3.430352210998535,0.681433916091919
0.09560000034980476,3.4298055171966553,0.6855584383010864
0.09600000339560211,3.429255485534668,0.6896820664405823
0.09639999916544184,3.428701877593994,0.6938048601150513
0.09680000221123919,3.428145170211792,0.6979268193244934
0.09719999798107892,3.4275853633880615,0.7020478844642639
0.09760000102687627,3.4270219802856445,0.7061680555343628
0.097999996796716,3.426455497741699,0.71028733253479
0.09839999984251335,3.4258854389190674,0.7144057154655457
0.0988000028883107,3.4253122806549072,0.7185232043266296
0.09919999865815043,3.4247360229492188,0.722639799118042
0.09960000170394778,3.4241561889648438,0.7267555594444275
0.09999999747378752,3.4235730171203613,0.7308703660964966
0.10040000051958486,3.4229867458343506,0.734984278678894
0.10080000356538221,3.4223971366882324,0.7390972375869751
0.10119999933522195,3.421804189682007,0.7432093024253845
0.1016000023810193,3.421207904815674,0.7473204731941223
0.10199999815085903,3.4206085205078125,0.7514306902885437
0.10240000119665638,3.4200055599212646,0.7555399537086487
0.10279999696649611,3.4193994998931885,0.759648323059082
0.10320000001229346,3.418790102005005,0.763755738735199
0.1036000030580908,3.418177604675293,0.7678622603416443
0.10399999882793054,3.4175615310668945,0.7719677686691284
0.10440000187372789,3.4169423580169678,0.7760723829269409
0.10479999764356762,3.4163198471069336,0.780176043510437
0.10520000068936497,3.415693998336792,0.7842786908149719
0.1055999964592047,3.415065050125122,0.7883804440498352
0.10599999950500205,3.4144327640533447,0.7924812436103821
0.1064000025507994,3.41379714012146,0.7965810298919678
0.10679999832063913,3.4131581783294678,0.8006798624992371
0.10720000136643648,3.412515878677368,0.8047776818275452
0.10759999713627622,3.4118704795837402,0.8088745474815369
0.10800000018207356,3.411221742630005,0.8129704594612122
0.10840000322787091,3.410569667816162,0.8170653581619263
0.10879999899771065,3.409914493560791,0.821159303188324
0.109200002043508,3.4092559814453125,0.8252521753311157
0.10959999781334773,3.45743727684021,0.8293622136116028
0.11000000085914508,3.5367722511291504,0.8335607647895813
0.11039999662898481,3.6161036491394043,0.837855339050293
0.11079999967478216,3.6642749309539795,0.8422384858131409
0.1112000027205795,3.6635994911193848,0.8466386795043945
0.11159999849041924,3.6629202365875244,0.851037859916687
0.11200000153621659,3.6622376441955566,0.8554359674453735
0.11239999730605632,3.6615517139434814,0.8598330616950989
0.11280000035185367,3.6608619689941406,0.8642290830612183
0.11320000339765102,3.6601688861846924,0.8686240315437317
0.11359999916749075,3.6594722270965576,0.8730179667472839
0.1140000022132881,3.6587719917297363,0.8774108290672302
0.11439999798312783,3.6580684185028076,0.8818026781082153
0.11480000102892518,3.6573610305786133,0.8861933946609497
0.11519999679876491,3.6566505432128906,0.8905830383300781
0.11559999984456226,3.6559362411499023,0.8949716091156006
0.11600000289035961,3.6552183628082275,0.8993591070175171
0.11639999866019934,3.6544971466064453,0.9037455320358276
0.11680000170599669,3.6537725925445557,0.9081308841705322
0.11719999747583643,3.6530442237854004,0.9125151038169861
0.11760000052163377,3.6523125171661377,0.916898250579834
0.11800000356743112,3.6515772342681885,0.9212803244590759
0.11839999933727086,3.6508383750915527,0.9256612062454224
0.1188000023830682,3.6500961780548096,0.9300410747528076
0.11919999815290794,3.64935040473938,0.9344197511672974
0.11960000119870529,3.6486010551452637,0.9387973546981812
0.11999999696854502,3.64784836769104,0.9431738257408142
0.12040000001434237,3.64709210395813,0.9475491642951965
0.12080000306013972,3.646332263946533,0.9519233703613281
0.12119999882997945,3.645569086074829,0.956296443939209
0.1216000018757768,3.6448023319244385,0.9606683850288391
0.12199999764561653,3.6440320014953613,0.9650391936302185
0.12240000069141388,3.6432580947875977,0.9694088101387024
0.12280000373721123,3.6424808502197266,0.9737772941589355
0.12320000678300858,3.641700029373169,0.978144645690918
0.1235999952768907,3.640915870666504,0.9825108051300049
0.12399999832268804,3.6401281356811523,0.9868758320808411
0.12440000136848539,3.6393368244171143,0.9912396669387817
0.12480000441428274,3.6385421752929688,0.9956023693084717
0.12519999290816486,3.6377439498901367,0.9999638199806213
0.1255999959539622,3.636942148208618,1.004324197769165
0.12599999899975955,3.636137008666992,1.0086833238601685
0.1264000020455569,3.6353282928466797,1.0130412578582764
0.12680000509135425,3.6345160007476807,1.0173979997634888
0.12719999358523637,3.633700370788574,1.0217535495758057
0.12759999663103372,3.6328814029693604,1.026107907295227
0.12799999967683107,3.632058620452881,1.0304609537124634
0.12840000272262841,3.631232500076294,1.0348129272460938
0.12880000576842576,3.6304030418395996,1.039163589477539
0.12919999426230788,3.6295700073242188,1.0435131788253784
0.12959999730810523,3.666276216506958,1.0478720664978027
0.13000000035390258,3.745436191558838,1.0523130893707275
0.13040000339969993,3.8245925903320312,1.0568498373031616
0.13080000644549727,3.86128830909729,1.0614687204360962
0.1311999949393794,3.8604371547698975,1.0660970211029053
0.13159999798517674,3.8595824241638184,1.0707240104675293
0.1320000010309741,3.8587241172790527,1.0753496885299683
0.13240000407677144,3.8578619956970215,1.0799741744995117
0.1328000071225688,3.8569960594177246,1.0845973491668701
0.1331999956164509,3.856126546859741,1.089219331741333
0.13359999866224825,3.8552534580230713,1.0938398838043213
0.1340000017080456,3.8543765544891357,1.098459243774414
0.13440000475384295,3.8534958362579346,1.1030774116516113
0.13479999324772507,3.852611541748047,1.107694149017334
0.13519999629352242,3.8517234325408936,1.1123095750808716
0.13559999933931977,3.8508317470550537,1.1169238090515137
0.1360000023851171,3.8499364852905273,1.1215366125106812
0.13640000543091446,3.8490374088287354,1.1261482238769531
0.13679999392479658,3.8481345176696777,1.1307584047317505
0.13719999697059393,3.8472280502319336,1.1353673934936523
0.13760000001639128,3.846318006515503,1.1399749517440796
0.13800000306218863,3.8454041481018066,1.1445811986923218
0.13840000610798597,3.844486713409424,1.149186134338379
0.1387999946018681,3.8435654640197754,1.153789758682251
0.13919999764766544,3.8426406383514404,1.1583919525146484
0.1396000006934628,3.84171199798584,1.1629929542541504
0.14000000373926014,3.8407797813415527,1.1675925254821777
