time[s],iL[A],v out[V]
0.0,0.0,0.0
0.00040000000467443897,0.0,0.0
0.0008000000093488779,0.0,0.0
0.0012000000424450263,0.0,0.0
0.0016000000186977559,0.0,0.0
0.0019999999949504854,0.0,0.0
0.0024000000848900527,0.0,0.0
0.0027999999474559445,0.0,0.0
0.0032000000373955118,0.0,0.0
0.0035999998999614036,0.0,0.0
0.003999999989900971,0.0,0.0
0.004399999852466863,0.0,0.0
0.004800000169780105,0.0,0.0
0.005200000032345997,0.0,0.0
0.005599999894911889,0.0,0.0
0.006000000212225132,0.0,0.0
0.0064000000747910235,0.0,0.0
0.006799999937356915,0.0,0.0
0.007199999799922807,0.0,0.0
0.00760000011723605,0.0,0.0
0.007999999979801942,0.0,0.0
0.008400000297115184,0.0,0.0
0.008799999704933725,0.0,0.0
0.009200000022246968,0.0,0.0
0.00960000033956021,0.0,0.0
0.009999999747378752,0.04846787080168724,1.7796301108319312e-05
0.010400000064691994,0.0969356968998909,0.00011749465193133801
0.010800000382005237,0.09693555533885956,0.0002349838468944654
0.011199999789823778,0.09693531692028046,0.0003524671192280948
0.01160000010713702,0.09693498909473419,0.0004699443525169045
0.012000000424450263,0.09693457186222076,0.0005874154157936573
0.012399999832268804,0.09693405032157898,0.0007048802217468619
0.012800000149582047,0.09693343937397003,0.000822338683065027
0.013199999557400588,0.09693273901939392,0.0009397906251251698
0.01359999987471383,0.09693193435668945,0.0010572359897196293
0.014000000192027073,0.09693104773759842,0.0011746746022254229
0.014399999599845614,0.09693005681037903,0.0012921063462272286
0.014799999917158857,0.09692897647619247,0.0014095312217250466
0.0152000002344721,0.09692779928445816,0.0015269489958882332
0.015600000551785342,0.09692653268575668,0.0016443595523014665
0.015999999959603883,0.09692516922950745,0.0017617628909647465
0.016399999367422424,0.09692371636629105,0.0018791587790474296
0.01680000059423037,0.09692216664552689,0.0019965472165495157
0.01720000000204891,0.09692052006721497,0.002113928087055683
0.01759999940986745,0.09691878408193588,0.0022313010413199663
0.018000000636675395,0.09691695123910904,0.002348666312173009
0.018400000044493936,0.09691502153873444,0.0024660234339535236
0.018799999452312477,0.09691300243139267,0.002583372639492154
0.01920000067912042,0.09691089391708374,0.002700713463127613
0.019600000086938962,0.09690868109464645,0.002818046137690544
0.019999999494757503,0.096906378865242,0.0029353704303503036
0.020400000721565448,0.09690398722887039,0.003052686108276248
0.02080000012938399,0.09690149128437042,0.003169993171468377
0.02119999953720253,0.09689891338348389,0.0032872913870960474
0.021600000764010474,0.09689623862504959,0.003404580755159259
0.022000000171829015,0.09689346700906754,0.0035218612756580114
0.022399999579647556,0.09689059853553772,0.003639132482931018
0.0228000008064555,0.09688764065504074,0.003756394609808922
0.02320000021427404,0.0968845933675766,0.003873647190630436
0.023599999622092582,0.0968814417719841,0.003990890458226204
0.024000000848900527,0.09687820076942444,0.004108124412596226
0.024400000256719068,0.09687487035989761,0.004225348588079214
0.02479999966453761,0.09687144309282303,0.004342562984675169
0.025200000891345553,0.09686792641878128,0.004459767136722803
0.025600000299164094,0.09686430543661118,0.004576961509883404
0.025999999706982635,0.0968606024980545,0.004694146104156971
0.026399999114801176,0.09685679525136948,0.00481131998822093
0.02680000034160912,0.09685289859771729,0.0049284836277365685
0.02719999974942766,0.09684891253709793,0.005045637022703886
0.027599999157246202,0.09684482961893082,0.0051627797074615955
0.028000000384054147,0.09684064984321594,0.005279911682009697
0.028399999791872688,0.0968363806605339,0.00539703294634819
0.02879999919969123,0.09683201462030411,0.005514143034815788
0.029200000426499173,0.09682755917310715,0.005631242413073778
0.029599999834317714,0.09682300686836243,0.005748330615460873
0.029999999242136255,0.14478573203086853,0.005882837809622288
0.0304000004689442,0.1927483230829239,0.006098754238337278
0.030800001695752144,0.19274334609508514,0.006332084070891142
0.031200001103570685,0.19273819029331207,0.006565396673977375
0.031600000511389226,0.19273284077644348,0.0067986915819346905
0.03199999991920777,0.19272731244564056,0.007031968329101801
0.03239999932702631,0.19272159039974213,0.007265227381139994
0.03279999873484485,0.19271568953990936,0.007498467806726694
0.0332000017806422,0.19270959496498108,0.007731689605861902
0.03360000118846074,0.19270330667495728,0.00796489231288433
0.03400000059627928,0.19269685447216034,0.008198076859116554
0.03440000000409782,0.1926901936531067,0.00843124184757471
0.03479999941191636,0.1926833540201187,0.0086643872782588
0.0351999988197349,0.1926763355731964,0.008897512219846249
0.03559999822755344,0.1926691234111786,0.009130618534982204
0.03600000127335079,0.19266171753406525,0.009363703429698944
0.03640000068116933,0.19265414774417877,0.009596768766641617
0.03680000008898787,0.19264636933803558,0.009829813614487648
0.03719999949680641,0.19263841211795807,0.010062837041914463
0.037599998904624954,0.19263027608394623,0.010295839980244637
0.037999998312443495,0.19262194633483887,0.01052882056683302
0.03840000135824084,0.192613422870636,0.01076178066432476
0.038800000766059384,0.19260472059249878,0.010994719341397285
0.039200000173877925,0.19259582459926605,0.011227634735405445
0.039599999581696466,0.192586749792099,0.011460529640316963
0.03999999898951501,0.19257749617099762,0.011693400330841541
0.04039999839733355,0.19256804883480072,0.011926249600946903
0.040800001443130895,0.1925584077835083,0.0121590755879879
0.041200000850949436,0.19254858791828156,0.012391878291964531
0.04160000025876798,0.19253858923912048,0.012624657712876797
0.04199999966658652,0.1925283968448639,0.012857414782047272
0.04239999907440506,0.19251801073551178,0.013090146705508232
0.0427999984822236,0.19250744581222534,0.013322855345904827
0.04320000152802095,0.19249670207500458,0.013555539771914482
0.04360000093583949,0.1924857646226883,0.013788199052214622
0.04400000034365803,0.1924746334552765,0.014020835049450397
0.04439999975147657,0.19246332347393036,0.014253444969654083
0.04479999915929511,0.1924518346786499,0.014486029744148254
0.04519999856711365,0.19244015216827393,0.014718590304255486
0.045600001612911,0.19242827594280243,0.014951124787330627
0.04600000102072954,0.1924162358045578,0.01518363319337368
0.04640000042854808,0.19240398705005646,0.015416115522384644
0.046799999836366624,0.1923915594816208,0.015648571774363518
0.047199999244185165,0.1923789530992508,0.015881001949310303
0.047599998652003706,0.19236615300178528,0.01611340418457985
0.048000001697801054,0.19235317409038544,0.016345782205462456
0.048400001105619594,0.19234000146389008,0.016578130424022675
0.048800000513438135,0.1923266500234604,0.016810452565550804
0.049199999921256676,0.19231310486793518,0.017042746767401695
0.04959999932907522,0.19229938089847565,0.017275013029575348
0.04999999873689376,0.23948197066783905,0.017524126917123795
0.050400001782691106,0.28666433691978455,0.01785387471318245
0.05080000119050965,0.2866499125957489,0.01820046454668045
0.05120000059832819,0.28663522005081177,0.018547018989920616
0.05160000000614673,0.28662022948265076,0.018893538042902946
0.05199999941396527,0.28660497069358826,0.01924002356827259
0.05239999882178381,0.28658944368362427,0.0195864737033844
0.05279999822960235,0.2865736484527588,0.019932886585593224
0.0532000012753997,0.28655755519866943,0.020279264077544212
0.05360000068321824,0.2865411937236786,0.020625604316592216
0.05400000009103678,0.28652456402778625,0.020971909165382385
0.05439999949885532,0.28650763630867004,0.02131817676126957
0.054799998906673864,0.28649044036865234,0.02166440524160862
0.055199998314492404,0.28647297620773315,0.022010596469044685
0.05560000136028975,0.2864552140235901,0.022356750443577766
0.05600000076810829,0.2864372134208679,0.022702867165207863
0.056400000175926834,0.2864189147949219,0.023048942908644676
0.056799999583745375,0.28640031814575195,0.023394979536533356
0.057199998991563916,0.28638148307800293,0.0237409770488739
0.05759999839938246,0.28636234998703003,0.024086935445666313
0.058000001445179805,0.28634291887283325,0.024432852864265442
0.058400000852998346,0.2863232493400574,0.024778731167316437
0.05880000026081689,0.2863032817840576,0.02512456849217415
0.05919999966863543,0.28628304600715637,0.025470362976193428
0.05959999907645397,0.28626254200935364,0.025816116482019424
0.05999999848427251,0.286241739988327,0.026161829009652138
0.06040000153006986,0.2862206697463989,0.02650749869644642
0.0608000009378884,0.28619933128356934,0.026853127405047417
0.06120000034570694,0.28617769479751587,0.027198711410164833
0.06160000339150429,0.2861558198928833,0.027544252574443817
0.06199999916134402,0.28613364696502686,0.02788975089788437
0.06240000220714137,0.28611117601394653,0.02823520638048649
0.0627999979769811,0.2860884666442871,0.028580617159605026
0.06320000102277845,0.2860654592514038,0.028925981372594833
0.06359999679261819,0.286042183637619,0.029271302744746208
0.06399999983841553,0.28601861000061035,0.029616579413414
0.06440000288421288,0.2859947979450226,0.029961809515953064
0.06479999865405262,0.28597068786621094,0.030306994915008545
0.06520000169984996,0.2859463095664978,0.030652133747935295
0.0655999974696897,0.2859216332435608,0.030997226014733315
0.06600000051548705,0.2858967185020447,0.0313422717154026
0.0664000035612844,0.2858715057373047,0.03168726712465286
0.06679999933112413,0.2858459949493408,0.03203221783041954
0.06720000237692147,0.28582024574279785,0.03237712383270264
0.06759999814676121,0.285794198513031,0.032721977680921555
0.06800000119255856,0.28576788306236267,0.03306678310036659
0.06839999696239829,0.28574129939079285,0.03341154009103775
0.06880000000819564,0.28571441769599915,0.03375624865293503
0.06920000305399299,0.28568729758262634,0.034100908786058426
0.06959999882383272,0.28565987944602966,0.034445516765117645
0.07000000186963007,0.33151528239250183,0.034806028008461
0.0703999976394698,0.3773703873157501,0.03524581342935562
0.07080000068526715,0.37734201550483704,0.03570149838924408
0.07119999645510688,0.3773132562637329,0.036157120019197464
0.07159999950090423,0.3772841691970825,0.03661268949508667
0.07200000254670158,0.3772546947002411,0.0370681993663311
0.07239999831654131,0.377224862575531,0.037523649632930756
0.07280000136233866,0.3771946430206299,0.037979044020175934
0.0731999971321784,0.3771640956401825,0.03843437880277634
0.07360000017797574,0.37713316082954407,0.038889653980731964
0.07400000322377309,0.377101868391037,0.039344869554042816
0.07439999899361283,0.37707021832466125,0.03980002552270889
0.07480000203941017,0.3770381808280945,0.040255121886730194
0.07519999780924991,0.37700578570365906,0.04071015492081642
0.07560000085504726,0.376973032951355,0.041165124624967575
0.07599999662488699,0.37693992257118225,0.04162003472447395
0.07639999967068434,0.37690645456314087,0.042074885219335556
0.07680000271648169,0.37687259912490845,0.042529668658971786
0.07719999848632142,0.37683841586112976,0.04298438876867294
0.07760000153211877,0.37680384516716003,0.043439049273729324
0.0779999973019585,0.37676891684532166,0.04389364272356033
0.07840000034775585,0.37673360109329224,0.04434816911816597
0.0788000033935532,0.37669795751571655,0.04480263590812683
0.07919999916339293,0.37666192650794983,0.04525703191757202
0.07960000220919028,0.37662553787231445,0.04571136459708214
0.07999999797903001,0.3765887916088104,0.04616563394665718
0.08040000102482736,0.37655168771743774,0.04661983251571655
0.0807999967946671,0.376514196395874,0.04707396402955055
0.08119999984046444,0.37647634744644165,0.04752802848815918
0.08160000288626179,0.3764381408691406,0.047982025891542435
0.08199999865610152,0.37639957666397095,0.04843595623970032
0.08240000170189887,0.3763606548309326,0.04888981208205223
0.0827999974717386,0.37632137537002563,0.04934360459446907
0.08320000051753595,0.3762817084789276,0.04979732260107994
0.0836000035633333,0.37624168395996094,0.05025097355246544
0.08399999933317304,0.3762013018131256,0.05070454999804497
0.08440000237897038,0.37616056203842163,0.051158059388399124
0.08479999814881012,0.376119464635849,0.05161149427294731
0.08520000119460747,0.3760779798030853,0.05206485837697983
0.0855999969644472,0.376036137342453,0.052518147975206375
0.08600000001024455,0.3759939670562744,0.05297136679291725
0.0864000030560419,0.3759514093399048,0.05342451483011246
0.08679999882588163,0.3759084641933441,0.053877584636211395
0.08720000187167898,0.3758651912212372,0.05433058366179466
0.08759999764151871,0.3758215308189392,0.05478350445628166
0.08800000068731606,0.37577754259109497,0.05523635074496269
0.0883999964571558,0.3757331669330597,0.05568912252783775
0.08879999950295314,0.37568843364715576,0.056141819804906845
0.08920000254875049,0.3756433427333832,0.05659443885087967
0.08959999831859022,0.37559789419174194,0.057046983391046524
0.09000000136438757,0.42017799615859985,0.057514533400535583
0.0903999971342273,0.4647577106952667,0.058060016483068466
0.09080000018002465,0.4647110402584076,0.058620501309633255
0.091200003225822,0.46466392278671265,0.05918090417981148
0.09159999899566174,0.4646163582801819,0.059741221368312836
0.09200000204145908,0.4645683467388153,0.06030145287513733
0.09239999781129882,0.4645198583602905,0.060861602425575256
0.09280000085709617,0.4644709527492523,0.06142166256904602
0.0931999966269359,0.4644216001033783,0.06198163330554962
0.09359999967273325,0.46437177062034607,0.06254152208566666
0.0940000027185306,0.4643215239048004,0.06310132145881653
0.09439999848837033,0.46427083015441895,0.06366103142499924
0.09480000153416768,0.4642196595668793,0.06422065198421478
0.09519999730400741,0.46416807174682617,0.06478018313646317
0.09560000034980476,0.46411603689193726,0.06533962488174438
0.09600000339560211,0.46406352519989014,0.06589897722005844
0.09639999916544184,0.4640105962753296,0.06645824015140533
0.09680000221123919,0.46395719051361084,0.06701740622520447
0.09719999798107892,0.46390336751937866,0.06757648289203644
0.09760000102687627,0.4638490676879883,0.06813547015190125
0.097999996796716,0.4637943506240845,0.06869436055421829
0.09839999984251335,0.46373915672302246,0.06925315409898758
0.0988000028883107,0.463683545589447,0.0698118582367897
0.09919999865815043,0.4636274576187134,0.07037046551704407
0.09960000170394778,0.4635709524154663,0.07092898339033127
0.09999999747378752,0.46351397037506104,0.07148739695549011
0.10040000051958486,0.46345657110214233,0.0720457211136818
0.10080000356538221,0.46339869499206543,0.07260394096374512
0.10119999933522195,0.4633404016494751,0.07316207140684128
0.1016000023810193,0.46328163146972656,0.07372009754180908
0.10199999815085903,0.4632224440574646,0.07427802681922913
0.10240000119665638,0.46316277980804443,0.07483585923910141
0.10279999696649611,0.46310269832611084,0.07539358735084534
0.10320000001229346,0.46304216980934143,0.0759512186050415
0.1036000030580908,0.4629811942577362,0.07650875300168991
0.10399999882793054,0.4629197418689728,0.07706617563962936
0.10440000187372789,0.4628578722476959,0.07762350887060165
0.10479999764356762,0.46279555559158325,0.07818073034286499
0.10520000068936497,0.46273279190063477,0.07873785495758057
0.1055999964592047,0.46266958117485046,0.07929487526416779
0.10599999950500205,0.46260592341423035,0.07985178381204605
0.1064000025507994,0.4625418186187744,0.08040859550237656
0.10679999832063913,0.46247726678848267,0.0809653028845787
0.10720000136643648,0.4624122679233551,0.0815219059586525
0.10759999713627622,0.4623468220233917,0.08207839727401733
0.10800000018207356,0.46228092908859253,0.08263478428125381
0.10840000322787091,0.4622146189212799,0.08319106698036194
0.10879999899771065,0.4621478319168091,0.08374723792076111
0.109200002043508,0.46208059787750244,0.08430330455303192
0.10959999781334773,0.4620129466056824,0.08485925942659378
0.11000000085914508,0.5055335760116577,0.08542949706315994
0.11039999662898481,0.5490537285804749,0.08607650548219681
0.11079999967478216,0.5489846467971802,0.08673779666423798
0.1112000027205795,0.5489149689674377,0.0873989686369896
0.11159999849041924,0.5488448143005371,0.08806002140045166
0.11200000153621659,0.5487740635871887,0.08872096240520477
0.11239999730605632,0.5487028360366821,0.08938178420066833
0.11280000035185367,0.5486310720443726,0.09004248678684235
0.11320000339765102,0.54855877161026,0.09070306271314621
0.11359999916749075,0.5484859347343445,0.09136352688074112
0.1140000022132881,0.548412561416626,0.09202387183904648
0.11439999798312783,0.5483387112617493,0.09268409013748169
0.11480000102892518,0.5482642650604248,0.09334418922662735
0.11519999679876491,0.5481893420219421,0.09400416165590286
0.11559999984456226,0.5481138825416565,0.09466401487588882
0.11600000289035961,0.5480378866195679,0.09532374143600464
0.11639999866019934,0.5479613542556763,0.0959833487868309
0.11680000170599669,0.5478843450546265,0.09664282947778702
0.11719999747583643,0.5478067398071289,0.09730218350887299
0.11760000052163377,0.5477286577224731,0.0979614108800888
0.11800000356743112,0.5476499795913696,0.09862051159143448
0.11839999933727086,0.5475708246231079,0.0992794781923294
0.1188000023830682,0.5474911332130432,0.09993832558393478
0.11919999815290794,0.5474109649658203,0.10059703886508942
0.11960000119870529,0.5473302006721497,0.1012556254863739
0.11999999696854502,0.547248899936676,0.10191408544778824
0.12040000001434237,0.5471671223640442,0.10257241129875183
0.12080000306013972,0.5470848083496094,0.10323060303926468
0.12119999882997945,0.5470019578933716,0.10388866811990738
0.1216000018757768,0.5469185709953308,0.10454659909009933
0.12199999764561653,0.5468346476554871,0.10520438849925995
0.12240000069141388,0.5467502474784851,0.10586205124855042
0.12280000373721123,0.5466653108596802,0.10651957988739014
0.12320000678300858,0.5465797781944275,0.10717697441577911
0.1235999952768907,0.5464938282966614,0.10783422738313675
0.12399999832268804,0.5464072823524475,0.10849134624004364
0.12440000136848539,0.5463201999664307,0.10914833098649979
0.12480000441428274,0.5462326407432556,0.10980518162250519
0.12519999290816486,0.5461445450782776,0.11046188324689865
0.1255999959539622,0.5460559129714966,0.11111845076084137
0.12599999899975955,0.5459667444229126,0.11177488416433334
0.1264000020455569,0.5458770394325256,0.11243116855621338
0.12680000509135425,0.5457868576049805,0.11308731883764267
0.12719999358523637,0.5456961393356323,0.11374332010746002
0.12759999663103372,0.5456048846244812,0.11439918726682663
0.12799999967683107,0.5455130934715271,0.1150549054145813
0.12840000272262841,0.54542076587677,0.11571048945188522
0.12880000576842576,0.5453279614448547,0.11636591702699661
0.12919999426230788,0.5452345609664917,0.11702121049165726
0.12959999730810523,0.5451406836509705,0.11767635494470596
0.13000000035390258,0.5876680612564087,0.11834511160850525
0.13040000339969993,0.630194902420044,0.1190895289182663
0.13080000644549727,0.630099356174469,0.11984755098819733
0.1311999949393794,0.6300031542778015,0.12060541659593582
0.13159999798517674,0.6299063563346863,0.12136313319206238
0.1320000010309741,0.6298089623451233,0.1221206933259964
0.13240000407677144,0.6297109723091125,0.12287809699773788
0.1328000071225688,0.629612386226654,0.12363535165786743
0.1331999956164509,0.629513144493103,0.12439244240522385
0.13359999866224825,0.629413366317749,0.12514938414096832
0.1340000017080456,0.6293129324913025,0.12590615451335907
0.13440000475384295,0.6292119026184082,0.12666277587413788
0.13479999324772507,0.6291102766990662,0.12741923332214355
0.13519999629352242,0.6290079951286316,0.1281755417585373
0.13559999933931977,0.628905177116394,0.1289316713809967
0.1360000023851171,0.628801703453064,0.12968765199184418
0.13640000543091446,0.6286976933479309,0.13044346868991852
0.13679999392479658,0.6285930275917053,0.13119912147521973
0.13719999697059393,0.628487765789032,0.1319546103477478
0.13760000001639128,0.6283819079399109,0.13270993530750275
0.13800000306218863,0.6282753944396973,0.13346508145332336
