time[s],iL[A],v out[V]
0.0,0.0,0.0
0.00040000000467443897,0.0,0.0
0.0008000000093488779,0.0,0.0
0.0012000000424450263,0.0,0.0
0.0016000000186977559,0.0,0.0
0.0019999999949504854,0.0,0.0
0.0024000000848900527,0.0,0.0
0.0027999999474559445,0.0,0.0
0.0032000000373955118,0.0,0.0
0.0035999998999614036,0.0,0.0
0.003999999989900971,0.0,0.0
0.004399999852466863,0.02664952352643013,5.380252332543023e-06
0.004800000169780105,0.1066494956612587,8.616571722086519e-05
0.005200000032345997,0.1866493672132492,0.00026391452411189675
0.005599999894911889,0.2666490375995636,0.0005386217962950468
0.006000000212225132,0.3466484844684601,0.000910282542463392
0.0064000000747910235,0.4266475737094879,0.0013788917567580938
0.006799999937356915,0.5066462159156799,0.001944444258697331
0.007199999799922807,0.5866444110870361,0.0026069346349686384
0.00760000011723605,0.6666420698165894,0.0033663578797131777
0.007999999979801942,0.7466390132904053,0.004222708288580179
0.008400000297115184,0.8266352415084839,0.005175980739295483
0.008799999704933725,0.9066306948661804,0.006226168945431709
0.009200000022246968,0.9866252541542053,0.0073732673190534115
0.00960000033956021,1.0666189193725586,0.008617270737886429
0.009999999747378752,1.1466114521026611,0.009958173148334026
0.010400000064691994,1.2266029119491577,0.011395967565476894
0.010800000382005237,1.3065931797027588,0.012930648401379585
0.011199999789823778,1.3865822553634644,0.014562210068106651
0.01160000010713702,1.4665699005126953,0.01629064604640007
0.012000000424450263,1.5465561151504517,0.018115948885679245
0.012399999832268804,1.6265408992767334,0.020038112998008728
0.012800000149582047,1.7065240144729614,0.02205713279545307
0.013199999557400588,1.7865055799484253,0.02417300082743168
0.01359999987471383,1.866485357284546,0.026385709643363953
0.014000000192027073,1.9464633464813232,0.028695251792669296
0.014399999599845614,2.0264394283294678,0.03110162355005741
0.014799999917158857,2.1064136028289795,0.03360481560230255
0.0152000002344721,2.1863856315612793,0.03620481863617897
0.015600000551785342,2.266355514526367,0.03890163078904152
0.015999999959603883,2.2929728031158447,0.041673678904771805
0.016399999367422424,2.292938470840454,0.04445093125104904
0.01680000059423037,2.2929017543792725,0.04722800478339195
0.01720000000204891,2.292862892150879,0.05000489950180054
0.01759999940986745,2.2928216457366943,0.0527816116809845
0.018000000636675395,2.292778491973877,0.055558133870363235
0.018400000044493936,2.2927329540252686,0.05833447352051735
0.018799999452312477,2.292685031890869,0.06111061945557594
0.01920000067912042,2.292634963989258,0.06388656795024872
0.019600000086938962,2.2925827503204346,0.06666232645511627
0.019999999494757503,2.2925283908843994,0.06943788379430771
0.020400000721565448,2.2924716472625732,0.07221323996782303
0.02080000012938399,2.292412757873535,0.07498838752508163
0.02119999953720253,2.292351722717285,0.07776332646608353
0.021600000764010474,2.2922885417938232,0.0805380642414093
0.022000000171829015,2.2922229766845703,0.08331257849931717
0.022399999579647556,2.2921550273895264,0.08608688414096832
0.0228000008064555,2.2920851707458496,0.08886097371578217
0.02320000021427404,2.292012929916382,0.0916348397731781
0.023599999622092582,2.291938543319702,0.09440848231315613
0.024000000848900527,2.3615212440490723,0.09721865504980087
0.024400000256719068,2.4414422512054443,0.10012476146221161
0.02479999966453761,2.5213608741760254,0.10312759131193161
0.025200000891345553,2.6012773513793945,0.10622715204954147
0.025600000299164094,2.6811909675598145,0.10942342132329941
0.025999999706982635,2.7611021995544434,0.11271639168262482
0.026399999114801176,2.841010570526123,0.1161060631275177
0.02680000034160912,2.9209163188934326,0.11959242820739746
0.02719999974942766,3.000819206237793,0.1231754794716835
0.027599999157246202,3.080719232559204,0.12685519456863403
0.028000000384054147,3.160616159439087,0.13063158094882965
0.028399999791872688,3.2405102252960205,0.13450463116168976
0.02879999919969123,3.3204009532928467,0.13847431540489197
0.029200000426499173,3.4002885818481445,0.14254064857959747
0.029599999834317714,3.480172872543335,0.14670361578464508
0.029999999242136255,3.560053825378418,0.1509632021188736
0.0304000004689442,3.6399314403533936,0.15531940758228302
0.030800001695752144,3.7198052406311035,0.15977221727371216
0.031200001103570685,3.799675703048706,0.16432161629199982
0.031600000511389226,3.879542350769043,0.1689676195383072
0.03199999991920777,3.9594054222106934,0.1737101823091507
0.03239999932702631,4.03926420211792,0.17854931950569153
0.03279999873484485,4.119119644165039,0.1834850311279297
0.0332000017806422,4.198970794677734,0.1885172724723816
0.03360000118846074,4.278818130493164,0.19364605844020844
0.03400000059627928,4.35866117477417,0.19887138903141022
0.03440000000409782,4.438499927520752,0.20419323444366455
0.03479999941191636,4.51833438873291,0.20961157977581024
0.0351999988197349,4.5981645584106445,0.21512643992900848
0.03559999822755344,4.677989959716797,0.2207377851009369
0.03600000127335079,4.757811069488525,0.22644561529159546
0.03640000068116933,4.827287197113037,0.23224909603595734
0.03680000008898787,4.827098846435547,0.23808884620666504
0.03719999949680641,4.826906204223633,0.24392805993556976
0.037599998904624954,4.8267083168029785,0.2497667819261551
0.037999998312443495,4.826506614685059,0.25560495257377625
0.03840000135824084,4.826299667358398,0.2614426016807556
0.038800000766059384,4.826087951660156,0.267279714345932
0.039200000173877925,4.82587194442749,0.2731162905693054
0.039599999581696466,4.825651168823242,0.27895233035087585
0.03999999898951501,4.825425624847412,0.2847878038883209
0.04039999839733355,4.8251953125,0.2906227111816406
0.040800001443130895,4.824960708618164,0.29645705223083496
0.041200000850949436,4.824721336364746,0.30229082703590393
0.04160000025876798,4.824477195739746,0.30812403559684753
0.04199999966658652,4.824228286743164,0.3139566481113434
0.04239999907440506,4.823974609375,0.31978869438171387
0.0427999984822236,4.823716640472412,0.3256201446056366
0.04320000152802095,4.823453426361084,0.3314509689807892
0.04360000093583949,4.832049369812012,0.3372817933559418
0.04400000034365803,4.911777496337891,0.3431706726551056
0.04439999975147657,4.991500377655029,0.34915587306022644
0.04479999915929511,5.071218490600586,0.3552373945713043
0.04519999856711365,5.1509318351745605,0.3614152669906616
0.045600001612911,5.230640411376953,0.36768946051597595
0.04600000102072954,5.3103437423706055,0.3740599751472473
0.04640000042854808,5.390041828155518,0.38052675127983093
0.046799999836366624,5.4697346687316895,0.3870898187160492
0.047199999244185165,5.549422264099121,0.3937491774559021
0.047599998652003706,5.6291046142578125,0.40050479769706726
0.048000001697801054,5.708781719207764,0.4073566496372223
0.048400001105619594,5.788453102111816,0.4143047630786896
0.048800000513438135,5.868118762969971,0.42134907841682434
0.049199999921256676,5.947778701782227,0.428489625453949
0.04959999932907522,6.027432918548584,0.4357263743877411
0.04999999873689376,6.107081413269043,0.4430593252182007
0.050400001782691106,6.1867241859436035,0.45048847794532776
0.05080000119050965,6.266360759735107,0.45801377296447754
0.05120000059832819,6.345991134643555,0.46563521027565
0.05160000000614673,6.4256157875061035,0.4733528196811676
0.05199999941396527,6.5052337646484375,0.4811665713787079
0.05239999882178381,6.584846019744873,0.4890764355659485
0.05279999822960235,6.6644511222839355,0.4970824122428894
0.0532000012753997,6.7440505027771,0.5051844716072083
0.05360000068321824,6.823643207550049,0.513382613658905
0.05400000009103678,6.903229236602783,0.5216768383979797
0.05439999949885532,6.9828081130981445,0.5300671458244324
0.054799998906673864,7.062380790710449,0.5385534763336182
0.055199998314492404,7.141946792602539,0.5471358299255371
0.05560000136028975,7.221505641937256,0.5558142066001892
0.05600000076810829,7.3010573387146,0.5645886063575745
0.056400000175926834,7.38060188293457,0.5734589695930481
0.056799999583745375,7.389002799987793,0.5823870301246643
0.057199998991563916,7.388533592224121,0.5913146734237671
0.05759999839938246,7.388056755065918,0.6002413034439087
0.058000001445179805,7.3875732421875,0.6091669201850891
0.058400000852998346,7.387082099914551,0.6180914640426636
0.05880000026081689,7.386584281921387,0.6270150542259216
0.05919999966863543,7.386078834533691,0.6359375715255737
0.05959999907645397,7.385566711425781,0.6448590159416199
0.05999999848427251,7.385047435760498,0.6537793874740601
0.06040000153006986,7.384521007537842,0.6626987457275391
0.0608000009378884,7.383986949920654,0.6716169714927673
0.06120000034570694,7.383446216583252,0.6805341839790344
0.06160000339150429,7.382898330688477,0.6894502639770508
0.06199999916134402,7.382343292236328,0.6983652710914612
0.06240000220714137,7.381781101226807,0.7072791457176208
0.0627999979769811,7.384741306304932,0.7161920070648193
0.06320000102277845,7.464164733886719,0.7251563668251038
0.06359999679261819,7.543581008911133,0.7342166304588318
0.06399999983841553,7.622990131378174,0.7433726191520691
0.06440000288421288,7.702391624450684,0.75262451171875
0.06479999865405262,7.781785488128662,0.7619721293449402
0.06520000169984996,7.861172199249268,0.7714155316352844
0.0655999974696897,7.940551280975342,0.7809547185897827
0.06600000051548705,8.019923210144043,0.7905896306037903
0.0664000035612844,8.099286079406738,0.8003202676773071
0.06679999933112413,8.178642272949219,0.8101466298103333
0.06720000237692147,8.257989883422852,0.8200687170028687
0.06759999814676121,8.337329864501953,0.8300864696502686
0.06800000119255856,8.416662216186523,0.8401999473571777
0.06839999696239829,8.495985984802246,0.8504090309143066
0.06880000000819564,8.575301170349121,0.8607137799263
0.06920000305399299,8.654608726501465,0.871114194393158
0.06959999882383272,8.733907699584961,0.8816101551055908
0.07000000186963007,8.81319808959961,0.8922017812728882
0.0703999976394698,8.89247989654541,0.9028890132904053
0.07080000068526715,8.971753120422363,0.9136717915534973
0.07119999645510688,9.051017761230469,0.9245501160621643
0.07159999950090423,9.130273818969727,0.9355239868164062
0.07200000254670158,9.209521293640137,0.9465933442115784
0.07239999831654131,9.288759231567383,0.9577583074569702
0.07280000136233866,9.367988586425781,0.9690186977386475
0.0731999971321784,9.447209358215332,0.9803745746612549
0.07360000017797574,9.526420593261719,0.9918259382247925
0.07400000322377309,9.605622291564941,1.0033727884292603
0.07439999899361283,9.684814453125,1.0150150060653687
0.07480000203941017,9.763998031616211,1.0267527103424072
0.07519999780924991,9.843172073364258,1.0385857820510864
0.07560000085504726,9.92233657836914,1.0505142211914062
0.07599999662488699,10.001490592956543,1.0625380277633667
0.07639999967068434,10.080636024475098,1.0746572017669678
0.07680000271648169,10.159771919250488,1.0868717432022095
0.07719999848632142,10.238897323608398,1.0991815328598022
0.07760000153211877,10.24154281616211,1.1115423440933228
0.0779999973019585,10.24064826965332,1.123901605606079
0.07840000034775585,10.239744186401367,1.1362591981887817
0.0788000033935532,10.23883056640625,1.1486151218414307
0.07919999916339293,10.237906455993652,1.1609692573547363
0.07960000220919028,10.23697280883789,1.1733216047286987
0.07999999797903001,10.236029624938965,1.185672402381897
0.08040000102482736,10.235075950622559,1.1980212926864624
0.0807999967946671,10.234112739562988,1.2103685140609741
0.08119999984046444,10.233139991760254,1.2227139472961426
0.08160000288626179,10.232156753540039,1.2350575923919678
0.08199999865610152,10.231163024902344,1.2473994493484497
0.08240000170189887,10.2301607131958,1.2597393989562988
0.0827999974717386,10.229147911071777,1.2720776796340942
0.08320000051753595,10.22812557220459,1.2844140529632568
0.0836000035633333,10.227092742919922,1.2967485189437866
0.08399999933317304,10.22605037689209,1.3090811967849731
0.08440000237897038,10.224998474121094,1.3214119672775269
0.08479999814881012,10.223936080932617,1.3337409496307373
0.08520000119460747,10.222864151000977,1.346068024635315
0.0855999969644472,10.221782684326172,1.3583930730819702
0.08600000001024455,10.220690727233887,1.3707163333892822
0.0864000030560419,10.219589233398438,1.3830375671386719
0.08679999882588163,10.218478202819824,1.3953570127487183
0.08720000187167898,10.28771686553955,1.4077118635177612
0.08759999764151871,10.366585731506348,1.4201611280441284
0.08800000068731606,10.44544506072998,1.432705283164978
0.0883999964571558,10.524292945861816,1.4453444480895996
0.08879999950295314,10.603132247924805,1.4580785036087036
0.08920000254875049,10.681960105895996,1.4709075689315796
0.08959999831859022,10.760778427124023,1.483831524848938
0.09000000136438757,10.83958625793457,1.4968504905700684
0.0903999971342273,10.918383598327637,1.5099642276763916
0.09080000018002465,10.997170448303223,1.5231728553771973
0.091200003225822,11.075946807861328,1.5364762544631958
0.09159999899566174,11.154711723327637,1.5498746633529663
0.09200000204145908,11.233467102050781,1.5633677244186401
0.09239999781129882,11.312210083007812,1.5769556760787964
0.09280000085709617,11.39094352722168,1.5906383991241455
0.0931999966269359,11.460025787353516,1.6044150590896606
0.09359999967273325,11.458736419677734,1.6182271242141724
0.0940000027185306,11.457436561584473,1.6320369243621826
0.09439999848837033,11.456125259399414,1.6458444595336914
0.09480000153416768,11.454803466796875,1.6596497297286987
0.09519999730400741,11.453470230102539,1.6734527349472046
0.09560000034980476,11.452125549316406,1.687253475189209
0.09600000339560211,11.450770378112793,1.7010518312454224
0.09639999916544184,11.449403762817383,1.7148479223251343
0.09680000221123919,11.448026657104492,1.7286417484283447
0.09719999798107892,11.446638107299805,1.7424330711364746
0.09760000102687627,11.44523811340332,1.756222128868103
0.097999996796716,11.443827629089355,1.7700088024139404
0.09839999984251335,11.44240665435791,1.7837932109832764
0.0988000028883107,11.440974235534668,1.7975749969482422
0.09919999865815043,11.439530372619629,1.8113545179367065
0.09960000170394778,11.43807601928711,1.8251315355300903
0.09999999747378752,11.436610221862793,1.838906168937683
0.10040000051958486,11.435133934020996,1.8526782989501953
0.10080000356538221,11.433646202087402,1.8664480447769165
0.10119999933522195,11.432147026062012,1.8802152872085571
0.1016000023810193,11.43063735961914,1.8939800262451172
0.10199999815085903,11.429117202758789,1.9077422618865967
0.10240000119665638,11.42758560180664,1.9215019941329956
0.10279999696649611,11.426042556762695,1.9352591037750244
0.10320000001229346,11.42448902130127,1.9490138292312622
0.1036000030580908,11.422924041748047,1.9627659320831299
0.10399999882793054,11.421348571777344,1.9765154123306274
0.10440000187372789,11.419761657714844,1.9902623891830444
0.10479999764356762,11.418164253234863,2.0040066242218018
0.10520000068936497,11.416555404663086,2.0177483558654785
0.1055999964592047,11.414935111999512,2.031487464904785
0.10599999950500205,11.413305282592773,2.0452239513397217
0.1064000025507994,11.411663055419922,2.058957815170288
0.10679999832063913,11.41001033782959,2.0726890563964844
0.10720000136643648,11.408347129821777,2.0864174365997314
0.10759999713627622,11.406672477722168,2.1001431941986084
0.10800000018207356,11.404986381530762,2.1138663291931152
0.10840000322787091,11.403289794921875,2.127586603164673
0.10879999899771065,11.463841438293457,2.141333818435669
0.109200002043508,11.542122840881348,2.15517258644104
0.10959999781334773,11.620393753051758,2.1691055297851562
0.11000000085914508,11.698652267456055,2.1831328868865967
0.11039999662898481,11.776900291442871,2.197254180908203
0.11079999967478216,11.85513687133789,2.211469888687134
0.1112000027205795,11.933362007141113,2.2257795333862305
0.11159999849041924,11.993834495544434,2.2401809692382812
0.11200000153621659,11.992036819458008,2.2546088695526123
0.11239999730605632,11.990227699279785,2.269033908843994
0.11280000035185367,11.98840618133545,2.2834560871124268
0.11320000339765102,11.986574172973633,2.29787540435791
0.11359999916749075,11.984729766845703,2.3122916221618652
0.1140000022132881,11.982873916625977,2.326704978942871
0.11439999798312783,11.981006622314453,2.3411154747009277
0.11480000102892518,11.979127883911133,2.355522871017456
0.11519999679876491,11.977237701416016,2.369927406311035
0.11559999984456226,11.975336074829102,2.384328842163086
0.11600000289035961,11.97342300415039,2.3987271785736084
0.11639999866019934,11.971498489379883,2.4131226539611816
0.11680000170599669,11.969562530517578,2.4275150299072266
0.11719999747583643,11.96761417388916,2.441904306411743
0.11760000052163377,11.965655326843262,2.4562907218933105
0.11800000356743112,11.96368408203125,2.4706737995147705
0.11839999933727086,11.961702346801758,2.4850540161132812
0.1188000023830682,11.959708213806152,2.4994308948516846
0.11919999815290794,11.95770263671875,2.5138046741485596
0.11960000119870529,11.955686569213867,2.5281755924224854
0.11999999696854502,11.953658103942871,2.5425431728363037
0.12040000001434237,11.951618194580078,2.5569076538085938
0.12080000306013972,11.949566841125488,2.5712687969207764
0.12119999882997945,11.947504043579102,2.5856268405914307
0.1216000018757768,11.945429801940918,2.5999817848205566
0.12199999764561653,11.943344116210938,2.614333391189575
0.12240000069141388,11.94124698638916,2.6286818981170654
0.12280000373721123,11.939138412475586,2.6430270671844482
0.12320000678300858,11.937018394470215,2.6573688983917236
0.1235999952768907,11.934886932373047,2.6717073917388916
0.12399999832268804,11.932743072509766,2.6860427856445312
0.12440000136848539,11.930588722229004,2.7003748416900635
0.12480000441428274,11.928422927856445,2.7147035598754883
0.12519999290816486,11.92624568939209,2.7290289402008057
0.1255999959539622,11.924056053161621,2.7433512210845947
0.12599999899975955,11.921855926513672,2.7576699256896973
0.1264000020455569,11.919644355773926,2.7719850540161133
0.12680000509135425,11.917421340942383,2.786297082901001
0.12719999358523637,11.915185928344727,2.8006057739257812
0.12759999663103372,11.91294002532959,2.814910888671875
0.12799999967683107,11.910682678222656,2.8292126655578613
0.12840000272262841,11.90841293334961,2.843510866165161
0.12880000576842576,11.906132698059082,2.8578057289123535
0.12919999426230788,11.916267395019531,2.872098207473755
0.12959999730810523,11.993964195251465,2.8864498138427734
0.13000000035390258,12.071649551391602,2.9008946418762207
0.13040000339969993,12.149322509765625,2.915432929992676
0.13080000644549727,12.226984977722168,2.9300649166107178
0.1311999949393794,12.237061500549316,2.9447555541992188
0.13159999798517674,12.234700202941895,2.9594438076019287
0.1320000010309741,12.23232650756836,2.974128484725952
0.13240000407677144,12.229941368103027,2.98880934715271
0.1328000071225688,12.227544784545898,3.0034868717193604
0.1331999956164509,12.225135803222656,3.018160820007324
0.13359999866224825,12.222715377807617,3.0328309535980225
0.1340000017080456,12.220283508300781,3.047497510910034
0.13440000475384295,12.217839241027832,3.0621602535247803
0.13479999324772507,12.215383529663086,3.07681941986084
0.13519999629352242,12.212916374206543,3.091475009918213
0.13559999933931977,12.210437774658203,3.1061267852783203
0.1360000023851171,12.20794677734375,3.120774745941162
0.13640000543091446,12.2054443359375,3.1354191303253174
0.13679999392479658,12.202930450439453,3.150059700012207
0.13719999697059393,12.200404167175293,3.16469669342041
0.13760000001639128,12.197866439819336,3.1793296337127686
0.13800000306218863,12.195317268371582,3.1939587593078613
0.13840000610798597,12.192756652832031,3.2085843086242676
0.1387999946018681,12.190183639526367,3.223205804824829
0.13919999764766544,12.187599182128906,3.237823724746704
0.1396000006934628,12.185003280639648,3.2524375915527344
0.14000000373926014,12.182394981384277,3.267047643661499
