time[s],iL[A],v out[V]
0.0,0.0,0.0
0.00040000000467443897,0.0,0.0
0.0008000000093488779,0.0,0.0
0.0012000000424450263,0.0,0.0
0.0016000000186977559,0.0,0.0
0.0019999999949504854,0.0,0.0
0.0024000000848900527,0.0,0.0
0.0027999999474559445,0.0,0.0
0.0032000000373955118,0.0,0.0
0.0035999998999614036,0.0,0.0
0.003999999989900971,0.0,0.0
0.004399999852466863,0.0,0.0
0.004800000169780105,0.0,0.0
0.005200000032345997,0.0,0.0
0.005599999894911889,0.0,0.0
0.006000000212225132,0.0,0.0
0.0064000000747910235,0.0,0.0
0.006799999937356915,0.0,0.0
0.007199999799922807,0.0,0.0
0.00760000011723605,0.0,0.0
0.007999999979801942,0.0,0.0
0.008400000297115184,0.0,0.0
0.008799999704933725,0.0,0.0
0.009200000022246968,0.0,0.0
0.00960000033956021,0.0,0.0
0.009999999747378752,0.01386481523513794,1.4563072454620851e-06
0.010400000064691994,0.027729617431759834,3.361084600328468e-05
0.010800000382005237,0.02772957645356655,6.722003308823332e-05
0.011199999789823778,0.02772950939834118,0.00010082752851303667
0.01160000010713702,0.027729414403438568,0.00013443329953588545
0.012000000424450263,0.027729293331503868,0.0001680373097769916
0.012399999832268804,0.02772914618253708,0.00020163953013252467
0.012800000149582047,0.02772897109389305,0.00023523991694673896
0.013199999557400588,0.027728769928216934,0.00026883845566771924
0.01359999987471383,0.02772854082286358,0.00030243510263971984
0.014000000192027073,0.027728285640478134,0.0003360298287589103
0.014399999599845614,0.0277280043810606,0.00036962260492146015
0.014799999917158857,0.027727695181965828,0.0004032133729197085
0.0152000002344721,0.027727358043193817,0.0004368021327536553
0.015600000551785342,0.027726996690034866,0.00047038885531947017
0.015999999959603883,0.027726605534553528,0.0005039734533056617
0.016399999367422424,0.02772619016468525,0.0005375559558160603
0.01680000059423037,0.027725746855139732,0.000571136362850666
0.01720000000204891,0.027725275605916977,0.0006047144997864962
0.01759999940986745,0.027724778279662132,0.0006382904830388725
0.018000000636675395,0.0277242548763752,0.0006718641961924732
0.018400000044493936,0.027723703533411026,0.0007054356392472982
0.018799999452312477,0.027723126113414764,0.0007390047539956868
0.01920000067912042,0.027722520753741264,0.0007725715404376388
0.019600000086938962,0.027721889317035675,0.0008061359403654933
0.019999999494757503,0.027721231803297997,0.0008396979537792504
0.020400000721565448,0.02772054634988308,0.0008732575224712491
0.02080000012938399,0.027719834819436073,0.0009068145882338285
0.02119999953720253,0.02771909534931183,0.0009403691510669887
0.021600000764010474,0.027718329802155495,0.0009739212109707296
0.022000000171829015,0.02771753817796707,0.0010074706515297294
0.022399999579647556,0.02771671861410141,0.001041017472743988
0.0228000008064555,0.02771587111055851,0.0010745617328211665
0.02320000021427404,0.02771499939262867,0.001108103315345943
0.023599999622092582,0.02771409973502159,0.0011416421039029956
0.024000000848900527,0.027713172137737274,0.001175178331322968
0.024400000256719068,0.027712218463420868,0.0012087116483598948
0.02479999966453761,0.027711238712072372,0.0012422421714290977
0.025200000891345553,0.02771023102104664,0.0012757699005305767
0.025600000299164094,0.027709197252988815,0.001309294835664332
0.025999999706982635,0.027708135545253754,0.0013428167439997196
0.026399999114801176,0.027707047760486603,0.0013763358583673835
0.02680000034160912,0.027705933898687363,0.0014098519459366798
0.02719999974942766,0.027704792097210884,0.0014433650067076087
0.027599999157246202,0.027703624218702316,0.00147687504068017
0.028000000384054147,0.02770243026316166,0.001510382047854364
0.028399999791872688,0.027701208367943764,0.0015438860282301903
0.02879999919969123,0.02769996039569378,0.0015773867489770055
0.029200000426499173,0.027698684483766556,0.0016108844429254532
0.029599999834317714,0.027697382494807243,0.0016443788772448897
0.029999999242136255,0.04155717417597771,0.0016793257091194391
0.0304000004689442,0.05541692301630974,0.001744959969073534
0.030800001695752144,0.055415499955415726,0.0018120449967682362
0.031200001103570685,0.055414024740457535,0.001879124902188778
0.031600000511389226,0.05541249364614487,0.0019461998017504811
0.03199999991920777,0.05541091039776802,0.002013269579038024
0.03239999932702631,0.0554092712700367,0.002080333884805441
0.03279999873484485,0.055407579988241196,0.002147393301129341
0.0332000017806422,0.055405836552381516,0.0022144471295177937
0.03360000118846074,0.05540403723716736,0.002281495602801442
0.03400000059627928,0.05540218576788902,0.0023485387209802866
0.03440000000409782,0.05540028214454651,0.0024155762512236834
0.03479999941191636,0.05539832264184952,0.0024826081935316324
0.0351999988197349,0.05539630725979805,0.00254963431507349
0.03559999822755344,0.0553942434489727,0.002616655081510544
0.03600000127335079,0.05539212375879288,0.0026836697943508625
0.03640000068116933,0.055389948189258575,0.00275067868642509
0.03680000008898787,0.055387720465660095,0.002817681757733226
0.03719999949680641,0.055385440587997437,0.002884678775444627
0.037599998904624954,0.0553831048309803,0.002951669739559293
0.037999998312443495,0.05538071691989899,0.00301865441724658
0.03840000135824084,0.055378276854753494,0.003085633274167776
0.038800000766059384,0.055375780910253525,0.00315260561183095
0.039200000173877925,0.05537323281168938,0.003219571663066745
0.039599999581696466,0.05537062883377075,0.003286531427875161
0.03999999898951501,0.05536797270178795,0.003353484906256199
0.04039999839733355,0.05536526441574097,0.0034204316325485706
0.040800001443130895,0.05536250025033951,0.0034873720724135637
0.041200000850949436,0.05535968393087387,0.003554305760189891
0.04160000025876798,0.05535681173205376,0.003621232695877552
0.04199999966658652,0.05535389110445976,0.0036881528794765472
0.04239999907440506,0.05535091087222099,0.0037550663109868765
0.0427999984822236,0.055347882211208344,0.003821972757577896
0.04320000152802095,0.05534479767084122,0.003888872219249606
0.04360000093583949,0.055341657251119614,0.0039557646960020065
0.04400000034365803,0.05533846840262413,0.004022650420665741
0.04439999975147657,0.05533522367477417,0.0040895286947488785
0.04479999915929511,0.05533192306756973,0.004156399518251419
0.04519999856711365,0.055328574031591415,0.00422326335683465
0.045600001612911,0.05532516539096832,0.004290120210498571
0.04600000102072954,0.05532170832157135,0.0043569691479206085
0.04640000042854808,0.0553181953728199,0.004423810634762049
0.046799999836366624,0.05531463027000427,0.004490644671022892
0.047199999244185165,0.05531100928783417,0.004557471256703138
0.047599998652003706,0.05530733987689018,0.0046242899261415005
0.048000001697801054,0.05530361086130142,0.004691101144999266
0.048400001105619594,0.05529983341693878,0.004757904447615147
0.048800000513438135,0.055296000093221664,0.004824700299650431
0.049199999921256676,0.05529211461544037,0.004891487769782543
0.04959999932907522,0.055288173258304596,0.0049582673236727715
0.04999999873689376,0.06910596042871475,0.005026486236602068
0.050400001782691106,0.08292368054389954,0.005125308874994516
0.05080000119050965,0.08291953802108765,0.005225569009780884
0.05120000059832819,0.08291532099246979,0.0053258189000189304
0.05160000000614673,0.08291102200746536,0.005426059011369944
0.05199999941396527,0.08290664106607437,0.005526289343833923
0.05239999882178381,0.08290217816829681,0.005626508966088295
0.05279999822960235,0.08289763331413269,0.005726718343794346
0.0532000012753997,0.0828930139541626,0.005826917476952076
0.05360000068321824,0.08288831263780594,0.005927106365561485
0.05400000009103678,0.08288352936506271,0.006027284078299999
0.05439999949885532,0.08287867158651352,0.006127451546490192
0.054799998906673864,0.08287372440099716,0.00622760783880949
0.055199998314492404,0.08286870270967484,0.00632775342091918
0.05560000136028975,0.08286360651254654,0.0064278882928192616
0.05600000076810829,0.08285842090845108,0.0065280115231871605
0.056400000175926834,0.08285316079854965,0.006628124043345451
0.056799999583745375,0.08284781873226166,0.0067282249219715595
0.057199998991563916,0.0828423947095871,0.006828314624726772
0.05759999839938246,0.08283688873052597,0.00692839315161109
0.058000001445179805,0.08283130824565887,0.007028459571301937
0.058400000852998346,0.08282564580440521,0.007128514349460602
0.05880000026081689,0.08281990140676498,0.007228557951748371
0.05919999966863543,0.08281408250331879,0.007328588981181383
0.05959999907645397,0.08280817419290543,0.0074286083690822124
0.05999999848427251,0.0828021913766861,0.007528615649789572
0.06040000153006986,0.0827961266040802,0.007628610823303461
0.0608000009378884,0.08278998732566833,0.00772859388962388
0.06120000034570694,0.0827837660908699,0.007828564383089542
0.06160000339150429,0.0827774628996849,0.007928522303700447
0.06199999916134402,0.08277107775211334,0.008028468117117882
0.06240000220714137,0.08276461064815521,0.008128400892019272
0.0627999979769811,0.08275806903839111,0.008228321559727192
0.06320000102277845,0.08275144547224045,0.008328229188919067
0.06359999679261819,0.08274474740028381,0.008428123779594898
0.06399999983841553,0.08273796737194061,0.00852800440043211
0.06440000288421288,0.08273110538721085,0.008627872914075851
0.06479999865405262,0.08272416144609451,0.008727728389203548
0.06520000169984996,0.08271713554859161,0.008827569894492626
0.0655999974696897,0.08271003514528275,0.00892739836126566
0.06600000051548705,0.08270285278558731,0.009027213789522648
0.0664000035612844,0.08269558846950531,0.009127015247941017
0.06679999933112413,0.08268824964761734,0.009226802736520767
0.06720000237692147,0.0826808288693428,0.009326577186584473
0.06759999814676121,0.0826733261346817,0.009426336735486984
0.06800000119255856,0.08266574889421463,0.009526083245873451
0.06839999696239829,0.08265808969736099,0.009625814855098724
0.06880000000819564,0.08265034854412079,0.009725532494485378
0.06920000305399299,0.08264252543449402,0.009825236164033413
0.06959999882383272,0.08263462781906128,0.009924924932420254
0.07000000186963007,0.09639591723680496,0.010026036761701107
0.0703999976394698,0.11015710979700089,0.010157639160752296
0.07080000068526715,0.11014892905950546,0.010290662758052349
0.07119999645510688,0.11014064401388168,0.010423669591546059
0.07159999950090423,0.11013225466012955,0.010556659661233425
0.07200000254670158,0.11012375354766846,0.010689632967114449
0.07239999831654131,0.11011514812707901,0.010822589509189129
0.07280000136233866,0.1101064383983612,0.010955529287457466
0.0731999971321784,0.11009762436151505,0.011088451370596886
0.07360000017797574,0.11008869856595993,0.011221357621252537
0.07400000322377309,0.11007966846227646,0.011354245245456696
0.07439999899361283,0.11007052659988403,0.011487116105854511
0.07480000203941017,0.11006128787994385,0.01161996927112341
0.07519999780924991,0.11005193740129471,0.01175280474126339
0.07560000085504726,0.11004248261451721,0.011885621584951878
0.07599999662488699,0.11003292351961136,0.012018421664834023
0.07639999967068434,0.11002325266599655,0.012151203118264675
0.07680000271648169,0.11001347750425339,0.012283965945243835
0.07719999848632142,0.11000359803438187,0.012416711077094078
0.07760000153211877,0.10999361425638199,0.012549437582492828
0.0779999973019585,0.10998351871967316,0.012682145461440086
0.07840000034775585,0.10997331887483597,0.012814834713935852
0.0788000033935532,0.10996301472187042,0.01294750440865755
0.07919999916339293,0.10995260626077652,0.013080155476927757
0.07960000220919028,0.10994208604097366,0.013212787918746471
0.07999999797903001,0.10993146151304245,0.013345400802791119
0.08040000102482736,0.10992073267698288,0.013477994129061699
0.0807999967946671,0.10990989953279495,0.013610567897558212
0.08119999984046444,0.10989895462989807,0.013743123039603233
0.08160000288626179,0.10988790541887283,0.013875657692551613
0.08199999865610152,0.10987675189971924,0.01400817185640335
0.08240000170189887,0.10986549407243729,0.014140666462481022
0.0827999974717386,0.10985413193702698,0.014273141510784626
0.08320000051753595,0.10984265804290771,0.014405596069991589
0.0836000035633333,0.1098310798406601,0.014538029208779335
0.08399999933317304,0.10981939733028412,0.014670442789793015
0.08440000237897038,0.10980761051177979,0.014802835881710052
0.08479999814881012,0.1097957119345665,0.014935207553207874
0.08520000119460747,0.10978370904922485,0.015067558735609055
0.0855999969644472,0.10977160185575485,0.015199889428913593
0.08600000001024455,0.1097593903541565,0.015332197770476341
0.0864000030560419,0.10974707454442978,0.015464485622942448
0.08679999882588163,0.10973464697599411,0.015596752054989338
0.08720000187167898,0.10972211509943008,0.015728997066617012
0.08759999764151871,0.1097094789147377,0.01586121879518032
0.08800000068731606,0.10969673842191696,0.015993420034646988
0.0883999964571558,0.10968389362096786,0.016125600785017014
0.08879999950295314,0.10967093706130981,0.0162577573210001
0.08920000254875049,0.10965787619352341,0.016389893367886543
0.08959999831859022,0.10964471846818924,0.016522005200386047
0.09000000136438757,0.12331327050924301,0.016655514016747475
0.0903999971342273,0.13698171079158783,0.01681932993233204
0.09080000018002465,0.136968195438385,0.016984540969133377
0.091200003225822,0.13695453107357025,0.017149727791547775
0.09159999899566174,0.13694074749946594,0.017314890399575233
0.09200000204145908,0.1369268298149109,0.017480026930570602
0.09239999781129882,0.1369127780199051,0.01764513924717903
0.09280000085709617,0.13689860701560974,0.01781022548675537
0.0931999966269359,0.13688428699970245,0.01797528751194477
0.09359999967273325,0.13686984777450562,0.01814032346010208
0.0940000027185306,0.13685525953769684,0.018305333331227303
0.09439999848837033,0.1368405520915985,0.018470317125320435
0.09480000153416768,0.13682571053504944,0.018635276705026627
0.09519999730400741,0.13681073486804962,0.01880021020770073
0.09560000034980476,0.13679562509059906,0.018965115770697594
0.09600000339560211,0.13678039610385895,0.01912999525666237
0.09639999916544184,0.1367650181055069,0.019294850528240204
0.09680000221123919,0.1367495208978653,0.01945967599749565
0.09719999798107892,0.13673388957977295,0.01962447725236416
0.09760000102687627,0.13671812415122986,0.019789250567555428
0.097999996796716,0.13670222461223602,0.019953995943069458
0.09839999984251335,0.13668619096279144,0.02011871337890625
0.0988000028883107,0.1366700381040573,0.020283404737710953
0.09919999865815043,0.13665373623371124,0.020448068156838417
0.09960000170394778,0.13663731515407562,0.020612703636288643
0.09999999747378752,0.13662075996398926,0.02077731117606163
0.10040000051958486,0.13660407066345215,0.02094189077615738
0.10080000356538221,0.1365872472524643,0.02110644243657589
0.10119999933522195,0.1365703046321869,0.021270964294672012
0.1016000023810193,0.13655321300029755,0.021435458213090897
0.10199999815085903,0.13653600215911865,0.021599924191832542
0.10240000119665638,0.136518657207489,0.0217643603682518
0.10279999696649611,0.13650117814540863,0.02192876860499382
0.10320000001229346,0.1364835798740387,0.022093145176768303
0.1036000030580908,0.13646583259105682,0.022257493808865547
0.10399999882793054,0.1364479660987854,0.022421814501285553
0.10440000187372789,0.13642996549606323,0.022586103528738022
0.10479999764356762,0.13641183078289032,0.022750362753868103
0.10520000068936497,0.13639356195926666,0.022914592176675797
0.1055999964592047,0.13637515902519226,0.023078791797161102
0.10599999950500205,0.1363566368818283,0.02324296161532402
0.1064000025507994,0.13633796572685242,0.0234070997685194
0.10679999832063913,0.13631917536258698,0.023571208119392395
0.10720000136643648,0.1363002508878708,0.02373528480529785
0.10759999713627622,0.13628120720386505,0.02389932982623577
0.10800000018207356,0.13626201450824738,0.024063345044851303
0.10840000322787091,0.13624270260334015,0.024227328598499298
0.10879999899771065,0.13622325658798218,0.024391282349824905
0.109200002043508,0.13620367646217346,0.024555202573537827
0.10959999781334773,0.136183962225914,0.02471909113228321
0.11000000085914508,0.14980816841125488,0.024884358048439026
0.11039999662898481,0.16343222558498383,0.025079848244786263
0.11079999967478216,0.16341207921504974,0.02527671493589878
0.1112000027205795,0.16339178383350372,0.025473548099398613
0.11159999849041924,0.16337132453918457,0.02567034587264061
0.11200000153621659,0.16335070133209229,0.02586711011826992
0.11239999730605632,0.16332992911338806,0.026063838973641396
0.11280000035185367,0.1633090078830719,0.026260534301400185
0.11320000339765102,0.1632879227399826,0.02645719423890114
0.11359999916749075,0.16326667368412018,0.026653818786144257
0.1140000022132881,0.1632452756166458,0.02685040794312954
0.11439999798312783,0.16322371363639832,0.027046959847211838
0.11480000102892518,0.16320198774337769,0.02724347822368145
0.11519999679876491,0.1631801277399063,0.027439959347248077
0.11559999984456226,0.1631580889225006,0.02763640508055687
0.11600000289035961,0.16313590109348297,0.027832815423607826
0.11639999866019934,0.1631135642528534,0.02802918665111065
0.11680000170599669,0.1630910485982895,0.028225524351000786
0.11719999747583643,0.16306839883327484,0.02842182293534279
0.11760000052163377,0.16304558515548706,0.028618084266781807
0.11800000356743112,0.16302260756492615,0.02881431020796299
0.11839999933727086,0.1629994809627533,0.02901049703359604
0.1188000023830682,0.1629761904478073,0.029206646606326103
0.11919999815290794,0.1629527509212494,0.029402758926153183
0.11960000119870529,0.16292914748191833,0.02959883213043213
0.11999999696854502,0.16290539503097534,0.02979486808180809
0.12040000001434237,0.16288147866725922,0.029990864917635918
0.12080000306013972,0.16285741329193115,0.03018682450056076
0.12119999882997945,0.16283318400382996,0.03038274310529232
0.1216000018757768,0.16280879080295563,0.030578624457120895
0.12199999764561653,0.16278424859046936,0.030774466693401337
0.12240000069141388,0.16275955736637115,0.030970269814133644
0.12280000373721123,0.16273470222949982,0.03116603195667267
0.12320000678300858,0.16270969808101654,0.03136175498366356
0.1235999952768907,0.16268453001976013,0.031557437032461166
0.12399999832268804,0.1626591980457306,0.03175308182835579
0.12440000136848539,0.1626337170600891,0.03194868564605713
0.12480000441428274,0.1626080870628357,0.032144248485565186
0.12519999290816486,0.16258229315280914,0.03233977034687996
0.1255999959539622,0.16255633533000946,0.03253525123000145
0.12599999899975955,0.16253022849559784,0.03273069113492966
0.1264000020455569,0.16250397264957428,0.03292609006166458
0.12680000509135425,0.1624775528907776,0.03312144801020622
0.12719999358523637,0.16245096921920776,0.03331676125526428
0.12759999663103372,0.1624242514371872,0.03351203724741936
0.12799999967683107,0.1623973548412323,0.03370726853609085
0.12840000272262841,0.16237030923366547,0.03390245884656906
0.12880000576842576,0.1623431146144867,0.03409760445356369
0.12919999426230788,0.1623157560825348,0.034292709082365036
0.12959999730810523,0.16228824853897095,0.0344877727329731
0.13000000035390258,0.17588309943675995,0.0346841998398304
0.13040000339969993,0.18947778642177582,0.034910790622234344
0.13080000644549727,0.1894497573375702,0.035138748586177826
0.1311999949393794,0.18942156434059143,0.03536665812134743
0.13159999798517674,0.18939317762851715,0.03559451922774315
0.1320000010309741,0.18936461210250854,0.03582233935594559
0.13240000407677144,0.1893358677625656,0.036050114780664444
0.1328000071225688,0.18930692970752716,0.03627784177660942
0.1331999956164509,0.18927781283855438,0.03650552034378052
0.13359999866224825,0.18924851715564728,0.03673315420746803
0.1340000017080456,0.18921904265880585,0.03696074336767197
0.13440000475384295,0.1891893893480301,0.03718828409910202
0.13479999324772507,0.1891595423221588,0.037415776401758194
0.13519999629352242,0.1891295164823532,0.037643224000930786
0.13559999933931977,0.18909931182861328,0.0378706231713295
