time[s],iL[A],v out[V]
0.0,0.0,0.0
0.00040000000467443897,0.0,0.0
0.0008000000093488779,0.07086553424596786,3.8044341636123136e-05
0.0012000000424450263,0.15086546540260315,0.00017242206376977265
0.0016000000186977559,0.2308652400970459,0.0004037604376208037
0.0019999999949504854,0.31086477637290955,0.0007320545264519751
0.0024000000848900527,0.3908640444278717,0.0011572993826121092
0.0027999999474559445,0.47086289525032043,0.0016794897383078933
0.0032000000373955118,0.5508612990379333,0.002298620529472828
0.0035999998999614036,0.6308591961860657,0.003014686517417431
0.003999999989900971,0.7108564972877502,0.0038276819977909327
0.004399999852466863,0.7908530831336975,0.0047376020811498165
0.004800000169780105,0.8708488941192627,0.005744440481066704
0.005200000032345997,0.9508438110351562,0.0068481918424367905
0.005599999894911889,1.030837893486023,0.008048850111663342
0.006000000212225132,1.1108309030532837,0.009346410632133484
0.0064000000747910235,1.190822958946228,0.010740865021944046
0.006799999937356915,1.2708137035369873,0.012232210487127304
0.007199999799922807,1.350803256034851,0.013820437714457512
0.00760000011723605,1.4307916164398193,0.015505542047321796
0.007999999979801942,1.5107784271240234,0.017287516966462135
0.008400000297115184,1.5907639265060425,0.019166357815265656
0.008799999704933725,1.6707477569580078,0.021142054349184036
0.009200000022246968,1.750730037689209,0.02321460284292698
0.00960000033956021,1.8307106494903564,0.025383995845913887
0.009999999747378752,1.910689353942871,0.027650225907564163
0.010400000064691994,1.990666389465332,0.03001328557729721
0.010800000382005237,2.070641279220581,0.03247316926717758
0.011199999789823778,2.1506142616271973,0.03502986952662468
0.01160000010713702,2.2305853366851807,0.037683382630348206
0.012000000424450263,2.310554027557373,0.040433693677186966
0.012399999832268804,2.3905205726623535,0.04328080266714096
0.012800000149582047,2.470484733581543,0.046224694699048996
0.013199999557400588,2.5504465103149414,0.04926536977291107
0.01359999987471383,2.630405902862549,0.05240281671285629
0.014000000192027073,2.710362672805786,0.05563702806830406
0.014399999599845614,2.7903168201446533,0.05896799638867378
0.014799999917158857,2.8702683448791504,0.06239571049809456
0.0152000002344721,2.9502170085906982,0.06592016667127609
0.015600000551785342,3.030162811279297,0.06954135745763779
0.015999999959603883,3.1101057529449463,0.07325927168130875
0.016399999367422424,3.1900455951690674,0.07707390189170837
0.01680000059423037,3.26998233795166,0.08098524063825607
0.01720000000204891,3.3499159812927246,0.08499327301979065
0.01759999940986745,3.4298462867736816,0.0890980064868927
0.018000000636675395,3.5097734928131104,0.09329941123723984
0.018400000044493936,3.5896971225738525,0.09759749472141266
0.018799999452312477,3.669617176055908,0.10199224203824997
0.01920000067912042,3.7495338916778564,0.10648364573717117
0.019600000086938962,3.820312261581421,0.11107105761766434
0.019999999494757503,3.8202216625213623,0.11569619178771973
0.020400000721565448,3.823833465576172,0.12032108753919601
0.02080000012938399,3.903735399246216,0.12499851733446121
0.02119999953720253,3.983633518218994,0.12977255880832672
0.021600000764010474,4.063527584075928,0.13464322686195374
0.022000000171829015,4.143417835235596,0.13961048424243927
0.022399999579647556,4.223304271697998,0.14467433094978333
0.0228000008064555,4.303186416625977,0.1498347669839859
0.02320000021427404,4.3830647468566895,0.1550917625427246
0.023599999622092582,4.46293830871582,0.16044533252716064
0.024000000848900527,4.5428080558776855,0.16589544713497162
0.024400000256719068,4.622673034667969,0.17144210636615753
0.02479999966453761,4.702533721923828,0.1770852953195572
0.025200000891345553,4.7823896408081055,0.1828250139951706
0.025600000299164094,4.862240791320801,0.18866124749183655
0.025999999706982635,4.942087650299072,0.19459396600723267
0.026399999114801176,5.021929740905762,0.20062318444252014
0.02680000034160912,5.101766586303711,0.20674888789653778
0.02719999974942766,5.181598663330078,0.2129710614681244
0.027599999157246202,5.261425971984863,0.21928967535495758
0.028000000384054147,5.341248035430908,0.22570475935935974
0.028399999791872688,5.421064853668213,0.2322162687778473
0.02879999919969123,5.500876426696777,0.23882421851158142
0.029200000426499173,5.580682754516602,0.24552856385707855
0.029599999834317714,5.660483360290527,0.2523293197154999
0.029999999242136255,5.740278720855713,0.2592264711856842
0.0304000004689442,5.820068836212158,0.26622000336647034
0.030800001695752144,5.899852752685547,0.2733099162578583
0.031200001103570685,5.979631423950195,0.28049618005752563
0.031600000511389226,6.059403896331787,0.2877787947654724
0.03199999991920777,6.1391706466674805,0.2951577305793762
0.03239999932702631,6.218931674957275,0.30263301730155945
0.03279999873484485,6.298686504364014,0.3102045953273773
0.0332000017806422,6.3784356117248535,0.31787246465682983
0.03360000118846074,6.4581780433654785,0.325636625289917
0.03400000059627928,6.537914276123047,0.3334970772266388
0.03440000000409782,6.617644309997559,0.34145376086235046
0.03479999941191636,6.697368144989014,0.3495067358016968
0.0351999988197349,6.777085304260254,0.35765591263771057
0.03559999822755344,6.856795787811279,0.3659013509750366
0.03600000127335079,6.93649959564209,0.37424296140670776
0.03640000068116933,7.0161967277526855,0.3826808035373688
0.03680000008898787,7.095887184143066,0.3912148177623749
0.03719999949680641,7.175570964813232,0.3998450040817261
0.037599998904624954,7.255247592926025,0.40857136249542236
0.037999998312443495,7.334917068481445,0.41739386320114136
0.03840000135824084,7.41457986831665,0.42631250619888306
0.038800000766059384,7.494235038757324,0.4353272616863251
0.039200000173877925,7.573883056640625,0.4444381296634674
0.039599999581696466,7.653523921966553,0.45364508032798767
0.03999999898951501,7.656863689422607,0.46290403604507446
0.04039999839733355,7.656489849090576,0.4721621870994568
0.040800001443130895,7.697601795196533,0.4814324676990509
0.041200000850949436,7.777213096618652,0.4907875955104828
0.04160000025876798,7.85681676864624,0.5002387166023254
0.04199999966658652,7.936412811279297,0.5097858905792236
0.04239999907440506,8.016000747680664,0.519429087638855
0.0427999984822236,8.0955810546875,0.5291682481765747
0.04320000152802095,8.175154685974121,0.5390034317970276
0.04360000093583949,8.254718780517578,0.5489345192909241
0.04400000034365803,8.33427619934082,0.5589616298675537
0.04439999975147657,8.413825035095215,0.569084644317627
0.04479999915929511,8.493365287780762,0.5793035626411438
0.04519999856711365,8.572897911071777,0.589618444442749
0.045600001612911,8.652421951293945,0.6000291705131531
0.04600000102072954,8.731937408447266,0.6105358004570007
0.04640000042854808,8.811445236206055,0.621138334274292
0.046799999836366624,8.89094352722168,0.6318366527557373
0.047199999244185165,8.970434188842773,0.6426308155059814
0.047599998652003706,9.049915313720703,0.6535208225250244
0.048000001697801054,9.129388809204102,0.6645066738128662
0.048400001105619594,9.208852767944336,0.6755882501602173
0.048800000513438135,9.288307189941406,0.6867656111717224
0.049199999921256676,9.367753982543945,0.6980387568473816
0.04959999932907522,9.447190284729004,0.70940762758255
0.04999999873689376,9.526618957519531,0.7208722233772278
0.050400001782691106,9.606037139892578,0.7324325442314148
0.05080000119050965,9.685446739196777,0.7440885901451111
0.05120000059832819,9.764846801757812,0.7558403015136719
0.05160000000614673,9.844237327575684,0.7676876187324524
0.05199999941396527,9.92361831665039,0.7796306610107422
0.05239999882178381,10.002989768981934,0.7916693091392517
0.05279999822960235,10.082351684570312,0.803803563117981
0.0532000012753997,10.161704063415527,0.8160334229469299
0.05360000068321824,10.241045951843262,0.8283588290214539
0.05400000009103678,10.320378303527832,0.8407798409461975
0.05439999949885532,10.399700164794922,0.8532963991165161
0.054799998906673864,10.479012489318848,0.8659085035324097
0.055199998314492404,10.55831527709961,0.8786160945892334
0.05560000136028975,10.63760757446289,0.8914192318916321
0.05600000076810829,10.716888427734375,0.9043177962303162
0.056400000175926834,10.796159744262695,0.9173118472099304
0.056799999583745375,10.875421524047852,0.9304013252258301
0.057199998991563916,10.954671859741211,0.9435862898826599
0.05759999839938246,11.03391170501709,0.9568666219711304
0.058000001445179805,11.113140106201172,0.9702423810958862
0.058400000852998346,11.19235897064209,0.9837134480476379
0.05880000026081689,11.271566390991211,0.997279942035675
0.05919999966863543,11.350763320922852,1.010941743850708
0.05959999907645397,11.39144229888916,1.024687647819519
0.05999999848427251,11.390617370605469,1.038444995880127
0.06040000153006986,11.38978099822998,1.0522006750106812
0.0608000009378884,11.388934135437012,1.065954566001892
0.06120000034570694,11.388075828552246,1.0797067880630493
0.06160000339150429,11.387206077575684,1.0934573411941528
0.06199999916134402,11.38632583618164,1.107206106185913
0.06240000220714137,11.385435104370117,1.1209532022476196
0.0627999979769811,11.384532928466797,1.1346983909606934
0.06320000102277845,11.38361930847168,1.148442029953003
0.06359999679261819,11.382695198059082,1.1621837615966797
0.06399999983841553,11.381759643554688,1.1759237051010132
0.06440000288421288,11.380813598632812,1.1896618604660034
0.06479999865405262,11.37985610961914,1.2033982276916504
0.06520000169984996,11.378888130187988,1.2171326875686646
0.0655999974696897,11.377908706665039,1.2308653593063354
0.06600000051548705,11.37691879272461,1.2445961236953735
0.0664000035612844,11.375917434692383,1.2583250999450684
0.06679999933112413,11.374905586242676,1.2720520496368408
0.06720000237692147,11.373882293701172,1.28577721118927
0.06759999814676121,11.372848510742188,1.2995004653930664
0.06800000119255856,11.371803283691406,1.3132216930389404
0.06839999696239829,11.370746612548828,1.3269411325454712
0.06880000000819564,11.369680404663086,1.3406585454940796
0.06920000305399299,11.432172775268555,1.3544045686721802
0.06959999882383272,11.511083602905273,1.3682435750961304
0.07000000186963007,11.589983940124512,1.3821775913238525
0.0703999976394698,11.668872833251953,1.3962064981460571
0.07080000068526715,11.747750282287598,1.4103302955627441
0.07119999645510688,11.810187339782715,1.4245470762252808
0.07159999950090423,11.809041976928711,1.43879234790802
0.07200000254670158,11.80788516998291,1.4530354738235474
0.07239999831654131,11.806716918945312,1.4672765731811523
0.07280000136233866,11.805537223815918,1.4815155267715454
0.0731999971321784,11.804347038269043,1.4957524538040161
0.07360000017797574,11.803144454956055,1.5099871158599854
0.07400000322377309,11.80193042755127,1.5242196321487427
0.07439999899361283,11.800705909729004,1.538450002670288
0.07480000203941017,11.799468994140625,1.5526782274246216
0.07519999780924991,11.798221588134766,1.5669043064117432
0.07560000085504726,11.796961784362793,1.5811280012130737
0.07599999662488699,11.79569149017334,1.595349669456482
0.07639999967068434,11.79440975189209,1.6095689535140991
0.07680000271648169,11.793116569519043,1.6237860918045044
0.07719999848632142,11.791810989379883,1.6380008459091187
0.07760000153211877,11.790494918823242,1.652213454246521
0.0779999973019585,11.789167404174805,1.6664236783981323
0.07840000034775585,11.787829399108887,1.6806316375732422
0.0788000033935532,11.786478996276855,1.694837212562561
0.07919999916339293,11.785117149353027,1.7090405225753784
0.07960000220919028,11.783744812011719,1.7232414484024048
0.07999999797903001,11.782360076904297,1.7374401092529297
0.08040000102482736,11.780964851379395,1.7516363859176636
0.0807999967946671,11.779557228088379,1.765830159187317
0.08119999984046444,11.778139114379883,1.7800215482711792
0.08160000288626179,11.77670955657959,1.79421067237854
0.08199999865610152,11.7752685546875,1.8083971738815308
0.08240000170189887,11.773816108703613,1.82258141040802
0.0827999974717386,11.77235221862793,1.8367630243301392
0.08320000051753595,11.77087688446045,1.8509422540664673
0.0836000035633333,11.769391059875488,1.8651189804077148
0.08399999933317304,11.767892837524414,1.8792933225631714
0.08440000237897038,11.76638412475586,1.8934650421142578
0.08479999814881012,11.764863014221191,1.9076342582702637
0.08520000119460747,11.763331413269043,1.9218008518218994
0.0855999969644472,11.761788368225098,1.9359650611877441
0.08600000001024455,11.760233879089355,1.9501266479492188
0.0864000030560419,11.758667945861816,1.9642856121063232
0.08679999882588163,11.757091522216797,1.9784419536590576
0.08720000187167898,11.755502700805664,1.9925957918167114
0.08759999764151871,11.75390338897705,2.006747007369995
0.08800000068731606,11.752291679382324,2.020895481109619
0.0883999964571558,11.750669479370117,2.035041332244873
0.08879999950295314,11.749035835266113,2.049184560775757
0.08920000254875049,11.747390747070312,2.0633251667022705
0.08959999831859022,11.825108528137207,2.0775108337402344
0.09000000136438757,11.903441429138184,2.0917906761169434
0.0903999971342273,11.981761932373047,2.1061646938323975
0.09080000018002465,12.05944538116455,2.120633125305176
0.091200003225822,12.057743072509766,2.135146379470825
0.09159999899566174,12.056029319763184,2.1496570110321045
0.09200000204145908,12.054304122924805,2.1641647815704346
0.09239999781129882,12.052566528320312,2.1786696910858154
0.09280000085709617,12.05081844329834,2.193171739578247
0.0931999966269359,12.049057960510254,2.2076711654663086
0.09359999967273325,12.047286033630371,2.222167491912842
0.0940000027185306,12.045502662658691,2.236661195755005
0.09439999848837033,12.043706893920898,2.2511518001556396
0.09480000153416768,12.041900634765625,2.2656397819519043
0.09519999730400741,12.040081977844238,2.2801246643066406
0.09560000034980476,12.038251876831055,2.2946066856384277
0.09600000339560211,12.036410331726074,2.3090858459472656
0.09639999916544184,12.034557342529297,2.323561906814575
0.09680000221123919,12.032692909240723,2.3380351066589355
0.09719999798107892,12.030817031860352,2.3525054454803467
0.09760000102687627,12.028928756713867,2.3669726848602295
0.097999996796716,12.027029991149902,2.381436824798584
0.09839999984251335,12.025118827819824,2.3958981037139893
0.0988000028883107,12.02319622039795,2.410356283187866
0.09919999865815043,12.021262168884277,2.424811601638794
0.09960000170394778,12.019316673278809,2.4392635822296143
0.09999999747378752,12.017359733581543,2.4537127017974854
0.10040000051958486,12.01539134979248,2.468158721923828
0.10080000356538221,12.013410568237305,2.4826016426086426
0.10119999933522195,12.011419296264648,2.4970414638519287
0.1016000023810193,12.009415626525879,2.5114779472351074
0.10199999815085903,12.007400512695312,2.525911569595337
0.10240000119665638,12.00537395477295,2.540341854095459
0.10279999696649611,12.003335952758789,2.5547690391540527
0.10320000001229346,12.001286506652832,2.569193124771118
0.1036000030580908,11.999225616455078,2.5836141109466553
0.10399999882793054,11.997152328491211,2.598031759262085
0.10440000187372789,11.995068550109863,2.6124460697174072
0.10479999764356762,11.992972373962402,2.626857280731201
0.10520000068936497,11.990865707397461,2.6412651538848877
0.1055999964592047,11.988746643066406,2.655669927597046
0.10599999950500205,11.986616134643555,2.6700713634490967
0.1064000025507994,11.984474182128906,2.68446946144104
0.10679999832063913,11.982320785522461,2.698864221572876
0.10720000136643648,11.980155944824219,2.7132558822631836
0.10759999713627622,11.97797966003418,2.7276439666748047
0.10800000018207356,11.975791931152344,2.7420289516448975
0.10840000322787091,11.973592758178711,2.7564103603363037
0.10879999899771065,11.971382141113281,2.7707884311676025
0.109200002043508,11.975603103637695,2.785163402557373
0.10959999781334773,12.053369522094727,2.799591064453125
0.11000000085914508,12.131124496459961,2.8141121864318848
0.11039999662898481,12.208867073059082,2.8287270069122314
0.11079999967478216,12.286598205566406,2.843435287475586
0.1112000027205795,12.29076099395752,2.8581960201263428
0.11159999849041924,12.288469314575195,2.8729536533355713
0.11200000153621659,12.286164283752441,2.8877077102661133
0.11239999730605632,12.283848762512207,2.9024581909179688
0.11280000035185367,12.28152084350586,2.9172050952911377
0.11320000339765102,12.279181480407715,2.931948661804199
0.11359999916749075,12.276829719543457,2.946688652038574
0.1140000022132881,12.274466514587402,2.9614248275756836
0.11439999798312783,12.27209186553955,2.9761576652526855
0.11480000102892518,12.269704818725586,2.990886926651001
0.11519999679876491,12.267306327819824,3.005612373352051
0.11559999984456226,12.26489543914795,3.020334243774414
0.11600000289035961,12.262473106384277,3.035052537918091
0.11639999866019934,12.260039329528809,3.049767255783081
0.11680000170599669,12.257594108581543,3.0644781589508057
0.11719999747583643,12.255136489868164,3.0791854858398438
0.11760000052163377,12.252667427062988,3.093888998031616
0.11800000356743112,12.2501859664917,3.108588933944702
0.11839999933727086,12.247693061828613,3.1232850551605225
0.1188000023830682,12.24518871307373,3.137977361679077
0.11919999815290794,12.24267292022705,3.1526660919189453
0.11960000119870529,12.240144729614258,3.1673507690429688
0.11999999696854502,12.237605094909668,3.1820318698883057
0.12040000001434237,12.235054016113281,3.196709156036377
0.12080000306013972,12.232490539550781,3.2113826274871826
0.12119999882997945,12.229915618896484,3.2260522842407227
0.1216000018757768,12.227328300476074,3.240718126296997
0.12199999764561653,12.224730491638184,3.2553799152374268
0.12240000069141388,12.22212028503418,3.27003812789917
0.12280000373721123,12.219498634338379,3.2846922874450684
0.12320000678300858,12.216864585876465,3.299342632293701
0.1235999952768907,12.214219093322754,3.3139889240264893
0.12399999832268804,12.211562156677246,3.3286314010620117
0.12440000136848539,12.208893775939941,3.3432700634002686
0.12480000441428274,12.206212997436523,3.3579046726226807
0.12519999290816486,12.203520774841309,3.372535228729248
0.1255999959539622,12.200817108154297,3.3871617317199707
0.12599999899975955,12.198101043701172,3.4017844200134277
0.1264000020455569,12.195374488830566,3.41640305519104
0.12680000509135425,12.192635536193848,3.4310176372528076
0.12719999358523637,12.189884185791016,3.4456284046173096
0.12759999663103372,12.187122344970703,3.4602348804473877
0.12799999967683107,12.184348106384277,3.474837303161621
0.12840000272262841,12.181562423706055,3.4894356727600098
0.12880000576842576,12.178765296936035,3.5040299892425537
0.12919999426230788,12.175955772399902,3.518620252609253
0.12959999730810523,12.251925468444824,3.5332531929016113
0.13000000035390258,12.329092979431152,3.5479791164398193
0.13040000339969993,12.406248092651367,3.562798023223877
0.13080000644549727,12.482182502746582,3.577709436416626
0.1311999949393794,12.479313850402832,3.5926637649536133
0.13159999798517674,12.476433753967285,3.607614040374756
0.1320000010309741,12.473542213439941,3.6225597858428955
0.13240000407677144,12.470637321472168,3.6375014781951904
0.1328000071225688,12.467721939086914,3.6524391174316406
0.1331999956164509,12.464794158935547,3.667372226715088
0.13359999866224825,12.461853981018066,3.6823010444641113
0.1340000017080456,12.458902359008789,3.697225570678711
0.13440000475384295,12.455938339233398,3.712146043777466
0.13479999324772507,12.452962875366211,3.7270619869232178
0.13519999629352242,12.44997501373291,3.741973400115967
0.13559999933931977,12.446975708007812,3.756880760192871
0.1360000023851171,12.443964004516602,3.7717835903167725
0.13640000543091446,12.440940856933594,3.78668212890625
0.13679999392479658,12.437905311584473,3.8015763759613037
0.13719999697059393,12.434858322143555,3.8164660930633545
0.13760000001639128,12.431798934936523,3.8313512802124023
0.13800000306218863,12.428728103637695,3.8462321758270264
