time[s],iL[A],v out[V]
0.0,0.0,0.0
0.00040000000467443897,0.0,0.0
0.0008000000093488779,0.0,0.0
0.0012000000424450263,0.0,0.0
0.0016000000186977559,0.0,0.0
0.0019999999949504854,0.0,0.0
0.0024000000848900527,0.0,0.0
0.0027999999474559445,0.0,0.0
0.0032000000373955118,0.0,0.0
0.0035999998999614036,0.0,0.0
0.003999999989900971,0.0,0.0
0.004399999852466863,0.0,0.0
0.004800000169780105,0.0,0.0
0.005200000032345997,0.0,0.0
0.005599999894911889,0.0,0.0
0.006000000212225132,0.0,0.0
0.0064000000747910235,0.0,0.0
0.006799999937356915,0.0,0.0
0.007199999799922807,0.0,0.0
0.00760000011723605,0.0,0.0
0.007999999979801942,0.0,0.0
0.008400000297115184,0.0,0.0
0.008799999704933725,0.0,0.0
0.009200000022246968,0.0,0.0
0.00960000033956021,0.02209840528666973,3.6995252230553888e-06
0.009999999747378752,0.10209837555885315,7.896869647083804e-05
0.010400000064691994,0.18209825456142426,0.0002512014762032777
0.010800000382005237,0.20419636368751526,0.0004949948634020984
0.011199999789823778,0.20419587194919586,0.0007424753275699914
0.01160000010713702,0.20419517159461975,0.0009899430442601442
0.012000000424450263,0.20419427752494812,0.0012373978970572352
0.012399999832268804,0.20419318974018097,0.001484839478507638
0.012800000149582047,0.2041919082403183,0.0017322675557807088
0.013199999557400588,0.2041904181241989,0.0019796821288764477
0.01359999987471383,0.204188734292984,0.0022270826157182455
0.014000000192027073,0.20418685674667358,0.002474469132721424
0.014399999599845614,0.20418478548526764,0.0027218409813940525
0.014799999917158857,0.20418250560760498,0.0029691983945667744
0.0152000002344721,0.2041800320148468,0.0032165409065783024
0.015600000551785342,0.2041773498058319,0.003463868284597993
0.015999999959603883,0.2041744887828827,0.0037111802957952023
0.016399999367422424,0.20417141914367676,0.003958476707339287
0.01680000059423037,0.2041681557893753,0.004205757286399603
0.01720000000204891,0.20416468381881714,0.0044530220329761505
0.01759999940986745,0.20416103303432465,0.004700270481407642
0.018000000636675395,0.20415717363357544,0.004947502166032791
0.018400000044493936,0.20415310561656952,0.005194717086851597
0.018799999452312477,0.20414885878562927,0.005441914778202772
0.01920000067912042,0.2041444033384323,0.005689095240086317
0.019600000086938962,0.20413975417613983,0.005936258472502232
0.019999999494757503,0.20413491129875183,0.0061834040097892284
0.020400000721565448,0.20412985980510712,0.00643053138628602
0.02080000012938399,0.20412462949752808,0.006677640601992607
0.02119999953720253,0.20411917567253113,0.006924731191247702
0.021600000764010474,0.20411354303359985,0.007171803619712591
0.022000000171829015,0.20410770177841187,0.007418856490403414
0.022399999579647556,0.20410166680812836,0.007665890734642744
0.0228000008064555,0.20409543812274933,0.00791290495544672
0.02320000021427404,0.20408901572227478,0.008159900084137917
0.023599999622092582,0.20408238470554352,0.008406874723732471
0.024000000848900527,0.20407555997371674,0.00865382980555296
0.024400000256719068,0.20406854152679443,0.008900764398276806
0.02479999966453761,0.20406131446361542,0.00914767850190401
0.025200000891345553,0.20405390858650208,0.009394571185112
0.025600000299164094,0.20404629409313202,0.009641443379223347
0.025999999706982635,0.20403847098350525,0.009888294152915478
0.026399999114801176,0.20403046905994415,0.010135123506188393
0.02680000034160912,0.20402225852012634,0.010381930507719517
0.02719999974942766,0.204013854265213,0.010628716088831425
0.027599999157246202,0.20400525629520416,0.010875478386878967
0.028000000384054147,0.2039964497089386,0.011122219264507294
0.028399999791872688,0.2039874643087387,0.011368936859071255
0.02879999919969123,0.2039782702922821,0.011615632101893425
0.029200000426499173,0.2039688676595688,0.011862303130328655
0.029599999834317714,0.22233347594738007,0.012111509218811989
0.029999999242136255,0.30232366919517517,0.01242888905107975
0.0304000004689442,0.3823135495185852,0.012843208387494087
0.030800001695752144,0.40067729353904724,0.013325692154467106
0.031200001103570685,0.40066641569137573,0.013810697011649609
0.031600000511389226,0.40065518021583557,0.014295664615929127
0.03199999991920777,0.40064355731010437,0.014780595898628235
0.03239999932702631,0.40063154697418213,0.015265488997101784
0.03279999873484485,0.40061911940574646,0.0157503429800272
0.0332000017806422,0.40060633420944214,0.01623515971004963
0.03360000118846074,0.4005931615829468,0.016719935461878777
0.03400000059627928,0.400579571723938,0.01720467209815979
0.03440000000409782,0.40056562423706055,0.01768936961889267
0.03479999941191636,0.40055128931999207,0.018174026161432266
0.0351999988197349,0.40053653717041016,0.01865863986313343
0.03559999822755344,0.4005214273929596,0.01914321258664131
0.03600000127335079,0.400505930185318,0.01962774433195591
0.03640000068116933,0.40049001574516296,0.020112233236432076
0.03680000008898787,0.4004737436771393,0.02059667930006981
0.03719999949680641,0.4004570543766022,0.02108108066022396
0.037599998904624954,0.4004400074481964,0.02156543917953968
0.037999998312443495,0.4004225730895996,0.02204975299537182
0.03840000135824084,0.4004047214984894,0.022534022107720375
0.038800000766059384,0.4003865122795105,0.02301824651658535
0.039200000173877925,0.4003679156303406,0.023502424359321594
0.039599999581696466,0.4003489017486572,0.023986555635929108
0.03999999898951501,0.4003295302391052,0.02447064034640789
0.04039999839733355,0.4003097712993622,0.024954678490757942
0.040800001443130895,0.4002895951271057,0.025438668206334114
0.041200000850949436,0.4002690613269806,0.025922609493136406
0.04160000025876798,0.40024814009666443,0.026406504213809967
0.04199999966658652,0.40022680163383484,0.0268903486430645
0.04239999907440506,0.4002051055431366,0.0273741427809
0.0427999984822236,0.4001830220222473,0.027857886627316475
0.04320000152802095,0.4001605212688446,0.02834158204495907
0.04360000093583949,0.40013766288757324,0.028825225308537483
0.04400000034365803,0.40011441707611084,0.02930881641805172
0.04439999975147657,0.400090754032135,0.029792357236146927
0.04479999915929511,0.4000667333602905,0.030275845900177956
0.04519999856711365,0.400042325258255,0.030759280547499657
0.045600001612911,0.40001752972602844,0.03124266117811203
0.04600000102072954,0.39999234676361084,0.031725991517305374
0.04640000042854808,0.3999667763710022,0.03220926225185394
0.046799999836366624,0.3999408185482025,0.03269248455762863
0.047199999244185165,0.3999144434928894,0.033175647258758545
0.047599998652003706,0.39988771080970764,0.03365875408053398
0.048000001697801054,0.39986059069633484,0.03414180874824524
0.048400001105619594,0.399833083152771,0.03462480381131172
0.048800000513438135,0.3998052179813385,0.03510774299502373
0.049199999921256676,0.3997769355773926,0.03559062257409096
0.04959999932907522,0.41125527024269104,0.036074448376894
0.04999999873689376,0.4912261962890625,0.0366196483373642
0.050400001782691106,0.5711966753005981,0.03726174682378769
0.05080000119050965,0.5826736092567444,0.037965212017297745
0.05120000059832819,0.5826429128646851,0.03866960480809212
0.05160000000614673,0.5826117396354675,0.03937393054366112
0.05199999941396527,0.5825799107551575,0.04007817804813385
0.05239999882178381,0.5825476050376892,0.04078235849738121
0.05279999822960235,0.5825147032737732,0.0414864607155323
0.0532000012753997,0.5824812054634094,0.042190492153167725
0.05360000068321824,0.5824471712112427,0.04289444535970688
0.05400000009103678,0.582412600517273,0.043598324060440063
0.05439999949885532,0.5823774337768555,0.04430212825536728
0.054799998906673864,0.5823416709899902,0.04500585049390793
0.055199998314492404,0.5823054313659668,0.04570949822664261
0.05560000136028975,0.5822685360908508,0.04641306772828102
0.05600000076810829,0.5822311639785767,0.047116558998823166
0.056400000175926834,0.5821931958198547,0.047819968312978745
0.056799999583745375,0.5821546316146851,0.048523299396038055
0.057199998991563916,0.5821155309677124,0.0492265485227108
0.05759999839938246,0.5820758938789368,0.04992971569299698
0.058000001445179805,0.5820356607437134,0.05063279718160629
0.058400000852998346,0.581994891166687,0.05133580043911934
0.05880000026081689,0.5819535255432129,0.05203871801495552
0.05919999966863543,0.5819116234779358,0.05274154990911484
0.05959999907645397,0.5818691253662109,0.05344429612159729
0.05999999848427251,0.5818260908126831,0.054146960377693176
0.06040000153006986,0.5817825198173523,0.0548495352268219
0.0608000009378884,0.5817383527755737,0.05555202439427376
0.06120000034570694,0.5816935896873474,0.05625442415475845
0.06160000339150429,0.5816483497619629,0.056956734508275986
0.06199999916134402,0.5816024541854858,0.057658955454826355
0.06240000220714137,0.5815560817718506,0.05836108699440956
0.0627999979769811,0.5815091133117676,0.059063129127025604
0.06320000102277845,0.5814615488052368,0.059765078127384186
0.06359999679261819,0.5814134478569031,0.060466937720775604
0.06399999983841553,0.5813648104667664,0.06116870418190956
0.06440000288421288,0.5813155770301819,0.06187037378549576
0.06479999865405262,0.5812658071517944,0.0625719502568245
0.06520000169984996,0.581215500831604,0.06327343732118607
0.0655999974696897,0.5811645984649658,0.06397482752799988
0.06600000051548705,0.5811131596565247,0.06467611342668533
0.0664000035612844,0.5810611248016357,0.06537730991840363
0.06679999933112413,0.5810085535049438,0.06607840955257416
0.06720000237692147,0.5809553861618042,0.06677941232919693
0.06759999814676121,0.5809016823768616,0.06748031079769135
0.06800000119255856,0.580847442150116,0.068181112408638
0.06839999696239829,0.5807926058769226,0.0688818171620369
0.06880000000819564,0.5807372331619263,0.06958241760730743
0.06920000305399299,0.5806812644004822,0.07028291374444962
0.06959999882383272,0.5825341939926147,0.07098334282636642
0.07000000186963007,0.6624770760536194,0.07173442840576172
0.0703999976394698,0.7424193620681763,0.07258238643407822
0.07080000068526715,0.744270384311676,0.0734810009598732
0.07119999645510688,0.7442111968994141,0.07437952607870102
0.07159999950090423,0.7441513538360596,0.07527793198823929
0.07200000254670158,0.7440907955169678,0.0761762261390686
0.07239999831654131,0.7440294623374939,0.07707440108060837
0.07280000136233866,0.7439674735069275,0.07797246426343918
0.0731999971321784,0.743904709815979,0.07887040078639984
0.07360000017797574,0.743841290473938,0.07976821810007095
0.07400000322377309,0.7437770962715149,0.08066591620445251
0.07439999899361283,0.7437121868133545,0.08156349509954453
0.07480000203941017,0.7436465620994568,0.08246094733476639
0.07519999780924991,0.7435802817344666,0.0833582729101181
0.07560000085504726,0.7435132265090942,0.08425547927618027
0.07599999662488699,0.7434454560279846,0.08515255898237228
0.07639999967068434,0.7433769702911377,0.08604951202869415
0.07680000271648169,0.7433077692985535,0.08694634586572647
0.07719999848632142,0.7432378530502319,0.08784304559230804
0.07760000153211877,0.7431672215461731,0.08873961120843887
0.0779999973019585,0.743095874786377,0.08963605761528015
0.07840000034775585,0.7430238127708435,0.09053236246109009
0.0788000033935532,0.7429510354995728,0.09142854809761047
0.07919999916339293,0.7428775429725647,0.09232459217309952
0.07960000220919028,0.7428032755851746,0.09322050958871841
0.07999999797903001,0.7427283525466919,0.09411628544330597
0.08040000102482736,0.7426527142524719,0.09501193463802338
0.0807999967946671,0.7425763607025146,0.09590744227170944
0.08119999984046444,0.7424992322921753,0.09680281579494476
0.08160000288626179,0.7424214482307434,0.09769805520772934
0.08199999865610152,0.7423429489135742,0.09859315305948257
0.08240000170189887,0.742263674736023,0.09948810935020447
0.0827999974717386,0.7421837449073792,0.10038293153047562
0.08320000051753595,0.742103099822998,0.10127761214971542
0.0836000035633333,0.7420216798782349,0.10217215120792389
0.08399999933317304,0.7419396042823792,0.10306654125452042
0.08440000237897038,0.7418568134307861,0.1039607971906662
0.08479999814881012,0.741773247718811,0.10485490411520004
0.08520000119460747,0.7416890263557434,0.10574886202812195
0.0855999969644472,0.7416040897369385,0.10664267838001251
0.08600000001024455,0.7415183782577515,0.10753635317087173
0.0864000030560419,0.7414320111274719,0.10842987149953842
0.08679999882588163,0.7413449287414551,0.10932324826717377
0.08720000187167898,0.7412571310997009,0.11021647602319717
0.08759999764151871,0.7411685585975647,0.11110954731702805
0.08800000068731606,0.7410793304443359,0.11200246959924698
0.0883999964571558,0.7409893870353699,0.11289524286985397
0.08879999950295314,0.7408986687660217,0.11378785967826843
0.08920000254875049,0.740807294845581,0.11468032747507095
0.08959999831859022,0.7407152056694031,0.11557263880968094
0.09000000136438757,0.8149445652961731,0.11650663614273071
0.0903999971342273,0.8891730904579163,0.11753696203231812
0.09080000018002465,0.8890786170959473,0.11860896646976471
0.091200003225822,0.8889833092689514,0.11968079954385757
0.09159999899566174,0.8888871669769287,0.12075246870517731
0.09200000204145908,0.8887901306152344,0.12182396650314331
0.09239999781129882,0.8886922597885132,0.12289530038833618
0.09280000085709617,0.8885934948921204,0.12396645545959473
0.0931999966269359,0.8884938955307007,0.12503744661808014
0.09359999967273325,0.8883934020996094,0.12610825896263123
0.0940000027185306,0.888292133808136,0.12717889249324799
0.09439999848837033,0.8881899118423462,0.1282493621110916
0.09480000153416768,0.8880869150161743,0.12931965291500092
0.09519999730400741,0.8879830241203308,0.1303897500038147
0.09560000034980476,0.8878782987594604,0.13145968317985535
0.09600000339560211,0.8877726793289185,0.13252943754196167
0.09639999916544184,0.8876662254333496,0.13359901309013367
0.09680000221123919,0.8875589370727539,0.13466840982437134
0.09719999798107892,0.8874507546424866,0.1357376128435135
0.09760000102687627,0.8873417377471924,0.1368066370487213
0.097999996796716,0.8872318863868713,0.1378754824399948
0.09839999984251335,0.8871211409568787,0.1389441341161728
0.0988000028883107,0.8870095610618591,0.14001259207725525
0.09919999865815043,0.8868971467018127,0.14108088612556458
0.09960000170394778,0.8867838382720947,0.1421489715576172
0.09999999747378752,0.8866696953773499,0.14321687817573547
0.10040000051958486,0.8865547180175781,0.14428459107875824
0.10080000356538221,0.8864388465881348,0.14535211026668549
0.10119999933522195,0.8863221406936646,0.1464194357395172
0.1016000023810193,0.8862045407295227,0.14748656749725342
0.10199999815085903,0.8860861659049988,0.1485535055398941
0.10240000119665638,0.8859668970108032,0.14962024986743927
0.10279999696649611,0.885846734046936,0.15068680047988892
0.10320000001229346,0.8857257962226868,0.15175314247608185
0.1036000030580908,0.8856039643287659,0.15281929075717926
0.10399999882793054,0.8854812979698181,0.15388524532318115
0.10440000187372789,0.8853577375411987,0.15495099127292633
0.10479999764356762,0.8852333426475525,0.156016543507576
0.10520000068936497,0.8851081132888794,0.15708188712596893
0.1055999964592047,0.8849820494651794,0.15814702212810516
0.10599999950500205,0.8848550915718079,0.15921196341514587
0.1064000025507994,0.8847272992134094,0.16027669608592987
0.10679999832063913,0.8845986127853394,0.16134122014045715
0.10720000136643648,0.8844691514968872,0.16240552067756653
0.10759999713627622,0.8843387961387634,0.16346962749958038
0.10800000018207356,0.8842076063156128,0.16453352570533752
0.10840000322787091,0.8840755224227905,0.16559721529483795
0.10879999899771065,0.8839426040649414,0.16666068136692047
0.109200002043508,0.8838088512420654,0.16772393882274628
0.10959999781334773,0.8836742639541626,0.16878698766231537
0.11000000085914508,0.9516814947128296,0.16988499462604523
0.11039999662898481,1.0196878910064697,0.17107760906219482
0.11079999967478216,1.0195504426956177,0.17230519652366638
0.1112000027205795,1.0194121599197388,0.17353254556655884
0.11159999849041924,1.019272804260254,0.1747596710920334
0.11200000153621659,1.0191324949264526,0.17598655819892883
0.11239999730605632,1.018991231918335,0.17721322178840637
0.11280000035185367,1.0188490152359009,0.178439661860466
0.11320000339765102,1.0187057256698608,0.17966586351394653
0.11359999916749075,1.018561601638794,0.18089182674884796
0.1140000022132881,1.0184162855148315,0.18211756646633148
0.11439999798312783,1.0182701349258423,0.1833430528640747
0.11480000102892518,1.0181230306625366,0.18456831574440002
0.11519999679876491,1.017974853515625,0.18579334020614624
0.11559999984456226,1.017825722694397,0.18701811134815216
0.11600000289035961,1.0176756381988525,0.18824265897274017
0.11639999866019934,1.0175244808197021,0.1894669532775879
0.11680000170599669,1.017372488975525,0.1906910091638565
0.11719999747583643,1.0172194242477417,0.19191481173038483
0.11760000052163377,1.017065405845642,0.19313839077949524
0.11800000356743112,1.016910433769226,0.19436170160770416
0.11839999933727086,1.016754388809204,0.19558477401733398
0.1188000023830682,1.0165975093841553,0.1968075931072235
0.11919999815290794,1.0164395570755005,0.19803017377853394
0.11960000119870529,1.0162806510925293,0.19925248622894287
0.11999999696854502,1.0161207914352417,0.2004745602607727
0.12040000001434237,1.0159599781036377,0.20169638097286224
0.12080000306013972,1.0157980918884277,0.2029179334640503
0.12119999882997945,1.0156352519989014,0.20413923263549805
0.1216000018757768,1.0154714584350586,0.2053602784872055
0.12199999764561653,1.0153067111968994,0.20658107101917267
0.12240000069141388,1.0151408910751343,0.20780159533023834
0.12280000373721123,1.0149742364883423,0.20902186632156372
0.12320000678300858,1.0148065090179443,0.2102418690919876
0.1235999952768907,1.01463782787323,0.2114616185426712
0.12399999832268804,1.0144681930541992,0.2126810997724533
0.12440000136848539,1.0142974853515625,0.21390031278133392
0.12480000441428274,1.014125943183899,0.21511925756931305
0.12519999290816486,1.0139533281326294,0.21633793413639069
0.1255999959539622,1.0137797594070435,0.21755634248256683
0.12599999899975955,1.0136052370071411,0.2187744826078415
0.1264000020455569,1.0134297609329224,0.21999235451221466
0.12680000509135425,1.0132532119750977,0.22120995819568634
0.12719999358523637,1.013075828552246,0.22242727875709534
0.12759999663103372,1.0128973722457886,0.22364433109760284
0.12799999967683107,1.0127179622650146,0.22486110031604767
0.12840000272262841,1.0125375986099243,0.226077601313591
0.12880000576842576,1.0123562812805176,0.22729381918907166
0.12919999426230788,1.0121738910675049,0.22850975394248962
0.12959999730810523,1.0119906663894653,0.2297254055738449
0.13000000035390258,1.075073480606079,0.23097111284732819
0.13040000339969993,1.138155221939087,0.2323092520236969
0.13080000644549727,1.137968897819519,0.23367741703987122
0.1311999949393794,1.1377813816070557,0.23504529893398285
0.13159999798517674,1.1375927925109863,0.2364128828048706
0.1320000010309741,1.137403130531311,0.23778018355369568
0.13240000407677144,1.1372123956680298,0.23914717137813568
0.1328000071225688,1.137020468711853,0.2405138611793518
0.1331999956164509,1.1368275880813599,0.24188026785850525
0.13359999866224825,1.1366335153579712,0.24324636161327362
0.1340000017080456,1.1364383697509766,0.24461214244365692
0.13440000475384295,1.136242151260376,0.24597764015197754
0.13479999324772507,1.1360447406768799,0.24734282493591309
0.13519999629352242,1.1358463764190674,0.24870769679546356
0.13559999933931977,1.1356468200683594,0.25007227063179016
0.1360000023851171,1.1354461908340454,0.2514365315437317
0.13640000543091446,1.1352444887161255,0.25280049443244934
0.13679999392479658,1.1350417137145996,0.2541641294956207
0.13719999697059393,1.1348378658294678,0.25552746653556824
0.13760000001639128,1.13463294506073,0.2568904757499695
0.13800000306218863,1.1344268321990967,0.25825315713882446
0.13840000610798597,1.134219765663147,0.25961554050445557
0.1387999946018681,1.1340115070343018,0.2609776258468628
0.13919999764766544,1.1338021755218506,0.26233935356140137
