time[s],iL[A],v out[V]
0.0,0.0,0.0
0.00040000000467443897,0.0,0.0
0.0008000000093488779,0.0,0.0
0.0012000000424450263,0.0,0.0
0.0016000000186977559,0.0,0.0
0.0019999999949504854,0.0,0.0
0.0024000000848900527,0.0,0.0
0.0027999999474559445,0.0,0.0
0.0032000000373955118,0.0,0.0
0.0035999998999614036,0.0,0.0
0.003999999989900971,0.0,0.0
0.004399999852466863,0.0,0.0
0.004800000169780105,0.0,0.0
0.005200000032345997,0.0,0.0
0.005599999894911889,0.0,0.0
0.006000000212225132,0.0,0.0
0.0064000000747910235,0.0,0.0
0.006799999937356915,0.0,0.0
0.007199999799922807,0.0,0.0
0.00760000011723605,0.0,0.0
0.007999999979801942,0.0,0.0
0.008400000297115184,0.0,0.0
0.008799999704933725,0.0,0.0
0.009200000022246968,0.0,0.0
0.00960000033956021,0.0,0.0
0.009999999747378752,0.023711562156677246,4.259359684510855e-06
0.010400000064691994,0.0474231019616127,5.748113107983954e-05
0.010800000382005237,0.04742303118109703,0.00011495946091599762
0.011199999789823778,0.04742291569709778,0.00017243488400708884
0.01160000010713702,0.047422755509614944,0.00022990736761130393
0.012000000424450263,0.04742255061864853,0.00028737683896906674
0.012399999832268804,0.047422297298908234,0.00034484322532080114
0.012800000149582047,0.04742199555039406,0.0004023065266665071
0.013199999557400588,0.0474216528236866,0.00045976662659086287
0.01359999987471383,0.04742126166820526,0.0005172234959900379
0.014000000192027073,0.04742082580924034,0.0005746770766563714
0.014399999599845614,0.04742034152150154,0.0006321273394860327
0.014799999917158857,0.04741981253027916,0.0006895741680637002
0.0152000002344721,0.047419238835573196,0.0007470175623893738
0.015600000551785342,0.04741861671209335,0.0008044574642553926
0.015999999959603883,0.04741794988512993,0.0008618937572464347
0.016399999367422424,0.04741723835468292,0.0009193264413625002
0.01680000059423037,0.047416482120752335,0.000976755516603589
0.01720000000204891,0.04741567745804787,0.0010341807501390576
0.01759999940986745,0.04741482436656952,0.0010916022583842278
0.018000000636675395,0.04741393029689789,0.0011490199249237776
0.018400000044493936,0.04741298779845238,0.0012064337497577071
0.018799999452312477,0.047412000596523285,0.0012638435000553727
0.01920000067912042,0.04741096496582031,0.0013212492922320962
0.019600000086938962,0.04740988463163376,0.0013786510098725557
0.019999999494757503,0.04740875959396362,0.0014360486529767513
0.020400000721565448,0.04740758612751961,0.0014934421051293612
0.02080000012938399,0.04740637168288231,0.0015508312499150634
0.02119999953720253,0.04740510508418083,0.0016082162037491798
0.021600000764010474,0.04740379750728607,0.0016655968502163887
0.022000000171829015,0.04740244150161743,0.0017229729564860463
0.022399999579647556,0.04740104079246521,0.0017803447553887963
0.0228000008064555,0.04739959165453911,0.0018377118976786733
0.02320000021427404,0.047398101538419724,0.0018950746161863208
0.023599999622092582,0.04739655926823616,0.0019524326780810952
0.024000000848900527,0.047394976019859314,0.0020097859669476748
0.024400000256719068,0.04739334434270859,0.002067134715616703
0.02479999966453761,0.04739166796207428,0.0021244785748422146
0.025200000891345553,0.04738994687795639,0.0021818175446242094
0.025600000299164094,0.04738817736506462,0.0022391516249626875
0.025999999706982635,0.04738636314868927,0.002296480815857649
0.026399999114801176,0.04738450422883034,0.00235380488447845
0.02680000034160912,0.047382596880197525,0.002411124063655734
0.02719999974942766,0.04738064482808113,0.002468438120558858
0.027599999157246202,0.047378648072481155,0.0025257468223571777
0.028000000384054147,0.0473766028881073,0.002583050401881337
0.028399999791872688,0.04737451672554016,0.0026403486263006926
0.02879999919969123,0.047372378408908844,0.0026976417284458876
0.029200000426499173,0.047370199114084244,0.002754929242655635
0.029599999834317714,0.047367971390485764,0.002812211401760578
0.029999999242136255,0.0712408721446991,0.002873806282877922
0.0304000004689442,0.09511370956897736,0.0029846366960555315
0.030800001695752144,0.09511127322912216,0.0030997772701084614
0.031200001103570685,0.0951087474822998,0.0032149089965969324
0.031600000511389226,0.09510613232851028,0.0033300321083515882
0.03199999991920777,0.095103420317173,0.0034451463725417852
0.03239999932702631,0.09510061889886856,0.0035602517891675234
0.03279999873484485,0.09509772807359695,0.003675348125398159
0.0332000017806422,0.09509474039077759,0.0037904351484030485
0.03360000118846074,0.09509166330099106,0.0039055130910128355
0.03400000059627928,0.09508848935365677,0.004020581487566233
0.03440000000409782,0.09508522599935532,0.004135640803724527
0.03479999941191636,0.0950818732380867,0.004250690340995789
0.0351999988197349,0.09507843106985092,0.004365730099380016
0.03559999822755344,0.09507489204406738,0.004480760078877211
0.03600000127335079,0.09507125616073608,0.0045957802794873714
0.03640000068116933,0.09506753832101822,0.0047107902355492115
0.03680000008898787,0.0950637236237526,0.004825789947062731
0.03719999949680641,0.09505981206893921,0.004940779879689217
0.037599998904624954,0.09505581855773926,0.005055759102106094
0.037999998312443495,0.09505172818899155,0.005170727614313364
0.03840000135824084,0.09504754096269608,0.005285685881972313
0.038800000766059384,0.09504327178001404,0.005400633439421654
0.039200000173877925,0.09503889828920364,0.0055155702866613865
0.039599999581696466,0.09503444284200668,0.005630495958030224
0.03999999898951501,0.09502989053726196,0.005745410453528166
0.04039999839733355,0.09502524882555008,0.0058603142388165
0.040800001443130895,0.09502051770687103,0.005975206382572651
0.041200000850949436,0.09501568973064423,0.006090087350457907
0.04160000025876798,0.09501077234745026,0.00620495667681098
0.04199999966658652,0.09500575810670853,0.006319814827293158
0.04239999907440506,0.09500066190958023,0.006434660870581865
0.0427999984822236,0.09499546140432358,0.00654949527233839
0.04320000152802095,0.09499017894268036,0.006664318032562733
0.04360000093583949,0.09498479962348938,0.006779128219932318
0.04400000034365803,0.09497933089733124,0.00689392676576972
0.04439999975147657,0.09497377276420593,0.007008712738752365
0.04479999915929511,0.09496811777353287,0.00712348660454154
0.04519999856711365,0.09496237337589264,0.007238247897475958
0.045600001612911,0.09495653957128525,0.007352996151894331
0.04600000102072954,0.0949506089091301,0.007467732299119234
0.04640000042854808,0.09494458884000778,0.007582455407828093
0.046799999836366624,0.0949384793639183,0.0076971654780209064
0.047199999244185165,0.09493227303028107,0.007811862975358963
0.047599998652003706,0.09492597728967667,0.007926546968519688
0.048000001697801054,0.0949195921421051,0.008041217923164368
0.048400001105619594,0.09491311013698578,0.008155874907970428
0.048800000513438135,0.09490653872489929,0.008270518854260445
0.049199999921256676,0.09489987790584564,0.008385149762034416
0.04959999932907522,0.09489312767982483,0.008499766699969769
0.04999999873689376,0.11912546306848526,0.008618820458650589
0.050400001782691106,0.14335767924785614,0.00878771860152483
0.05080000119050965,0.14335058629512787,0.008961050771176815
0.05120000059832819,0.14334334433078766,0.009134366177022457
0.05160000000614673,0.1433359682559967,0.009307663887739182
0.05199999941396527,0.143328458070755,0.009480944834649563
0.05239999882178381,0.14332079887390137,0.009654208086431026
0.05279999822960235,0.14331300556659698,0.009827452711760998
0.0532000012753997,0.14330507814884186,0.010000679641962051
0.05360000068321824,0.1432970017194748,0.010173888877034187
0.05400000009103678,0.14328879117965698,0.010347080416977406
0.05439999949885532,0.14328044652938843,0.010520252399146557
0.054799998906673864,0.14327196776866913,0.01069340668618679
0.055199998314492404,0.1432633399963379,0.010866541415452957
0.05560000136028975,0.1432545781135559,0.011039657518267632
0.05600000076810829,0.14324568212032318,0.011212754994630814
0.056400000175926834,0.14323663711547852,0.011385832913219929
0.056799999583745375,0.1432274580001831,0.011558891274034977
0.057199998991563916,0.14321814477443695,0.011731930077075958
0.05759999839938246,0.14320868253707886,0.011904949322342873
0.058000001445179805,0.1431991010904312,0.012077948078513145
0.058400000852998346,0.14318937063217163,0.012250927276909351
0.05880000026081689,0.1431794911623001,0.012423885986208916
0.05919999966863543,0.14316949248313904,0.012596824206411839
0.05959999907645397,0.14315934479236603,0.01276974193751812
0.05999999848427251,0.14314904808998108,0.012942638248205185
0.06040000153006986,0.14313863217830658,0.013115514069795609
0.0608000009378884,0.14312806725502014,0.01328836940228939
0.06120000034570694,0.14311736822128296,0.013461202383041382
0.06160000339150429,0.14310652017593384,0.013634014874696732
0.06199999916134402,0.14309555292129517,0.013806805945932865
0.06240000220714137,0.14308443665504456,0.013979574665427208
0.0627999979769811,0.1430731862783432,0.01415232103317976
0.06320000102277845,0.1430617868900299,0.014325045980513096
0.06359999679261819,0.14305026829242706,0.014497748576104641
0.06399999983841553,0.14303860068321228,0.014670428819954395
0.06440000288421288,0.14302678406238556,0.014843085780739784
0.06479999865405262,0.1430148482322693,0.015015720389783382
0.06520000169984996,0.14300276339054108,0.01518833264708519
0.0655999974696897,0.14299054443836212,0.015360921621322632
0.06600000051548705,0.14297819137573242,0.015533486381173134
0.0664000035612844,0.14296568930149078,0.015706028789281845
0.06679999933112413,0.1429530531167984,0.015878546983003616
0.06720000237692147,0.14294028282165527,0.016051040962338448
0.06759999814676121,0.1429273784160614,0.016223512589931488
0.06800000119255856,0.1429143249988556,0.01639596000313759
0.06839999696239829,0.14290113747119904,0.0165683813393116
0.06880000000819564,0.14288781583309174,0.01674078032374382
0.06920000305399299,0.1428743600845337,0.01691315323114395
0.06959999882383272,0.1428607553243637,0.017085501924157143
0.07000000186963007,0.16760559380054474,0.017262468114495277
0.0703999976394698,0.19235026836395264,0.017490142956376076
0.07080000068526715,0.19233618676662445,0.01772243343293667
0.07119999645510688,0.19232191145420074,0.017954694107174873
0.07159999950090423,0.1923074573278427,0.01818692684173584
0.07200000254670158,0.19229282438755035,0.01841912977397442
0.07239999831654131,0.19227799773216248,0.01865130476653576
0.07280000136233866,0.19226297736167908,0.01888344995677471
0.0731999971321784,0.19224777817726135,0.019115565344691277
0.07360000017797574,0.1922323852777481,0.019347650930285454
0.07400000322377309,0.19221682846546173,0.019579706713557243
0.07439999899361283,0.19220106303691864,0.019811732694506645
0.07480000203941017,0.19218511879444122,0.02004372887313366
0.07519999780924991,0.19216899573802948,0.020275693386793137
0.07560000085504726,0.19215267896652222,0.020507626235485077
0.07599999662488699,0.19213618338108063,0.02073952928185463
0.07639999967068434,0.19211949408054352,0.020971398800611496
0.07680000271648169,0.19210262596607208,0.021203238517045975
0.07719999848632142,0.19208557903766632,0.021435046568512917
0.07760000153211877,0.19206833839416504,0.02166682295501232
0.0779999973019585,0.19205090403556824,0.02189856581389904
0.07840000034775585,0.1920332908630371,0.022130277007818222
0.0788000033935532,0.19201549887657166,0.022361954674124718
0.07919999916339293,0.19199751317501068,0.022593600675463676
0.07960000220919028,0.19197934865951538,0.02282521314918995
0.07999999797903001,0.19196099042892456,0.023056792095303535
0.08040000102482736,0.19194245338439941,0.023288337513804436
0.0807999967946671,0.19192372262477875,0.02351984940469265
0.08119999984046444,0.19190482795238495,0.02375132590532303
0.08160000288626179,0.19188572466373444,0.02398276887834072
0.08199999865610152,0.1918664425611496,0.024214178323745728
0.08240000170189887,0.19184698164463043,0.0244455523788929
0.0827999974717386,0.19182734191417694,0.024676891043782234
0.08320000051753595,0.19180750846862793,0.024908194318413734
0.0836000035633333,0.1917874813079834,0.02513946406543255
0.08399999933317304,0.19176727533340454,0.025370696559548378
0.08440000237897038,0.19174689054489136,0.025601893663406372
0.08479999814881012,0.19172631204128265,0.02583305537700653
0.08520000119460747,0.19170555472373962,0.026064179837703705
0.0855999969644472,0.19168461859226227,0.026295268908143044
0.08600000001024455,0.1916634887456894,0.02652631886303425
0.0864000030560419,0.191642165184021,0.026757335290312767
0.08679999882588163,0.19162067770957947,0.026988312602043152
0.08720000187167898,0.19159899652004242,0.027219252660870552
0.08759999764151871,0.19157712161540985,0.027450155466794968
0.08800000068731606,0.19155506789684296,0.02768101915717125
0.0883999964571558,0.19153283536434174,0.027911847457289696
0.08879999950295314,0.191510409116745,0.02814263477921486
0.08920000254875049,0.19148780405521393,0.028373384848237038
0.08959999831859022,0.19146500527858734,0.028604095801711082
0.09000000136438757,0.21667715907096863,0.02883959375321865
0.0903999971342273,0.241889089345932,0.029126577079296112
0.09080000018002465,0.24186566472053528,0.02941834181547165
0.091200003225822,0.24184201657772064,0.029710065573453903
0.09159999899566174,0.2418181300163269,0.030001744627952576
0.09200000204145908,0.24179400503635406,0.030293380841612816
0.09239999781129882,0.24176965653896332,0.030584974214434624
0.09280000085709617,0.24174506962299347,0.03087652288377285
0.0931999966269359,0.2417202591896057,0.031168028712272644
0.09359999967273325,0.24169521033763885,0.03145948797464371
0.0940000027185306,0.2416699230670929,0.03175090625882149
0.09439999848837033,0.24164441227912903,0.03204227611422539
0.09480000153416768,0.24161866307258606,0.032333604991436005
0.09519999730400741,0.241592675447464,0.03262488543987274
0.09560000034980476,0.24156644940376282,0.0329161174595356
0.09600000339560211,0.24153999984264374,0.03320730850100517
0.09639999916544184,0.24151332676410675,0.03349845111370087
0.09680000221123919,0.24148641526699066,0.03378954529762268
0.09719999798107892,0.24145926535129547,0.03408059477806091
0.09760000102687627,0.24143187701702118,0.034371595829725266
0.097999996796716,0.24140426516532898,0.034662552177906036
0.09839999984251335,0.24137641489505768,0.03495345637202263
0.0988000028883107,0.24134834110736847,0.03524431586265564
0.09919999865815043,0.24132002890110016,0.03553512692451477
0.09960000170394778,0.24129147827625275,0.03582588955760002
0.09999999747378752,0.24126270413398743,0.03611660376191139
0.10040000051958486,0.241233691573143,0.03640726953744888
0.10080000356538221,0.24120445549488068,0.036697883158922195
0.10119999933522195,0.24117498099803925,0.03698844835162163
0.1016000023810193,0.2411452680826187,0.03727896139025688
0.10199999815085903,0.24111533164978027,0.037569426000118256
0.10240000119665638,0.24108515679836273,0.03785984218120575
0.10279999696649611,0.24105475842952728,0.038150202482938766
0.10320000001229346,0.24102412164211273,0.0384405180811882
0.1036000030580908,0.24099324643611908,0.03873077780008316
0.10399999882793054,0.24096214771270752,0.03902098536491394
0.10440000187372789,0.24093081057071686,0.03931114450097084
0.10479999764356762,0.2408992499113083,0.039601247757673264
0.10520000068936497,0.24086745083332062,0.03989130258560181
0.1055999964592047,0.24083542823791504,0.04018130153417587
0.10599999950500205,0.24080316722393036,0.04047124832868576
0.1064000025507994,0.24077066779136658,0.04076114296913147
0.10679999832063913,0.2407379448413849,0.0410509817302227
0.10720000136643648,0.2407049983739853,0.041340768337249756
0.10759999713627622,0.2406717985868454,0.04163050279021263
0.10800000018207356,0.2406383752822876,0.04192017763853073
0.10840000322787091,0.2406047284603119,0.04220980033278465
0.10879999899771065,0.24057084321975708,0.042499370872974396
0.109200002043508,0.24053673446178436,0.04278888180851936
0.10959999781334773,0.24050238728523254,0.04307834059000015
0.11000000085914508,0.26616910099983215,0.0433727465569973
0.11039999662898481,0.2918355464935303,0.04371939226984978
0.11079999967478216,0.2918004095554352,0.044070981442928314
0.1112000027205795,0.291765034198761,0.044422511011362076
0.11159999849041924,0.2917293608188629,0.04477398470044136
0.11200000153621659,0.29169338941574097,0.04512539505958557
0.11239999730605632,0.29165714979171753,0.04547674208879471
0.11280000035185367,0.2916206121444702,0.04582802951335907
0.11320000339765102,0.2915838360786438,0.046179257333278656
0.11359999916749075,0.2915467321872711,0.04653042182326317
0.1140000022132881,0.29150936007499695,0.046881526708602905
0.11439999798312783,0.2914717197418213,0.04723256453871727
0.11480000102892518,0.29143381118774414,0.04758354276418686
0.11519999679876491,0.2913956046104431,0.047934457659721375
0.11559999984456226,0.2913571000099182,0.048285309225320816
0.11600000289035961,0.2913183271884918,0.048636097460985184
0.11639999866019934,0.29127928614616394,0.04898681864142418
0.11680000170599669,0.2912399470806122,0.0493374764919281
0.11719999747583643,0.29120033979415894,0.04968807101249695
0.11760000052163377,0.2911604642868042,0.050038598477840424
0.11800000356743112,0.2911202907562256,0.050389062613248825
0.11839999933727086,0.2910798490047455,0.050739459693431854
0.1188000023830682,0.2910391092300415,0.05108978971838951
0.11919999815290794,0.29099810123443604,0.051440052688121796
0.11960000119870529,0.2909567952156067,0.051790252327919006
0.11999999696854502,0.29091522097587585,0.052140381187200546
0.12040000001434237,0.29087337851524353,0.052490442991256714
0.12080000306013972,0.29083123803138733,0.05284043774008751
0.12119999882997945,0.29078882932662964,0.05319036543369293
0.1216000018757768,0.29074612259864807,0.053540222346782684
0.12199999764561653,0.290703147649765,0.053890012204647064
0.12240000069141388,0.29065990447998047,0.05423973128199577
0.12280000373721123,0.29061636328697205,0.05458938330411911
0.12320000678300858,0.29057255387306213,0.054938964545726776
0.1235999952768907,0.29052847623825073,0.05528847500681877
0.12399999832268804,0.29048410058021545,0.055637914687395096
0.12440000136848539,0.2904394567012787,0.05598728358745575
0.12480000441428274,0.29039451479911804,0.056336577981710434
0.12519999290816486,0.2903493046760559,0.056685805320739746
0.1255999959539622,0.2903038263320923,0.05703496187925339
0.12599999899975955,0.2902580499649048,0.05738404020667076
0.1264000020455569,0.2902120053768158,0.05773305147886276
0.12680000509135425,0.2901656925678253,0.058081988245248795
0.12719999358523637,0.29011908173561096,0.05843085050582886
0.12759999663103372,0.2900722026824951,0.05877964198589325
0.12799999967683107,0.2900250256061554,0.059128355234861374
0.12840000272262841,0.2899775803089142,0.05947699770331383
0.12880000576842576,0.2899298667907715,0.05982556566596031
0.12919999426230788,0.2898818850517273,0.06017405539751053
0.12959999730810523,0.28983360528945923,0.060522474348545074
0.13000000035390258,0.31597161293029785,0.06087600812315941
0.13040000339969993,0.342109352350235,0.06128256022930145
0.13080000644549727,0.3420601487159729,0.061694227159023285
0.1311999949393794,0.34201061725616455,0.06210581585764885
0.13159999798517674,0.3419607877731323,0.06251732259988785
0.1320000010309741,0.34191060066223145,0.06292875111103058
0.13240000407677144,0.3418600857257843,0.06334009766578674
0.1328000071225688,0.3418092727661133,0.06375135481357574
0.1331999956164509,0.3417581021785736,0.06416253745555878
0.13359999866224825,0.34170660376548767,0.06457363814115524
0.1340000017080456,0.34165477752685547,0.06498465687036514
0.13440000475384295,0.341602623462677,0.06539559364318848
0.13479999324772507,0.34155014157295227,0.06580644100904465
0.13519999629352242,0.3414973318576813,0.06621721386909485
0.13559999933931977,0.341444194316864,0.06662789732217789
0.1360000023851171,0.3413907289505005,0.06703849136829376
0.13640000543091446,0.3413369357585907,0.06744901090860367
0.13679999392479658,0.34128281474113464,0.06785943359136581
