time[s],iL[A],v out[V]
0.0,0.0,0.0
0.00040000000467443897,0.0,0.0
0.0008000000093488779,0.0,0.0
0.0012000000424450263,0.0,0.0
0.0016000000186977559,0.0,0.0
0.0019999999949504854,0.0,0.0
0.0024000000848900527,0.0,0.0
0.0027999999474559445,0.0,0.0
0.0032000000373955118,0.0,0.0
0.0035999998999614036,0.0,0.0
0.003999999989900971,0.0,0.0
0.004399999852466863,0.0,0.0
0.004800000169780105,0.0,0.0
0.005200000032345997,0.0,0.0
0.005599999894911889,0.0,0.0
0.006000000212225132,0.0,0.0
0.0064000000747910235,0.0,0.0
0.006799999937356915,0.0,0.0
0.007199999799922807,0.0,0.0
0.00760000011723605,0.0,0.0
0.007999999979801942,0.0,0.0
0.008400000297115184,0.0,0.0
0.008799999704933725,0.0,0.0
0.009200000022246968,0.0,0.0
0.00960000033956021,0.0,0.0
0.009999999747378752,0.012072443962097168,1.1041178140658303e-06
0.010400000064691994,0.02414487674832344,2.9265811463119462e-05
0.010800000382005237,0.024144841358065605,5.853017864865251e-05
0.011199999789823778,0.02414478175342083,8.779307245276868e-05
0.01160000010713702,0.024144699797034264,0.00011705446377163753
0.012000000424450263,0.024144595488905907,0.0001463143271394074
0.012399999832268804,0.02414446696639061,0.00017557261162437499
0.012800000149582047,0.024144314229488373,0.0002048293245024979
0.013199999557400588,0.024144139140844345,0.0002340844221180305
0.01359999987471383,0.024143939837813377,0.00026333786081522703
0.014000000192027073,0.02414371818304062,0.0002925896260421723
0.014399999599845614,0.02414347231388092,0.0003218397032469511
0.014799999917158857,0.024143202230334282,0.0003510880342219025
0.0152000002344721,0.024142909795045853,0.00038033461896702647
0.015600000551785342,0.024142593145370483,0.0004095794283784926
0.015999999959603883,0.024142254143953323,0.00043882240424863994
0.016399999367422424,0.024141890928149223,0.0004680635465774685
0.01680000059423037,0.024141505360603333,0.0004973027971573174
0.01720000000204891,0.0241410955786705,0.0005265401559881866
0.01759999940986745,0.02414066344499588,0.0005557755939662457
0.018000000636675395,0.02414020709693432,0.0005850091110914946
0.018400000044493936,0.024139726534485817,0.0006142405909486115
0.018799999452312477,0.024139223620295525,0.0006434700335375965
0.01920000067912042,0.02413869835436344,0.0006726974970661104
0.019600000086938962,0.02413814701139927,0.0007019228651188314
0.019999999494757503,0.024137575179338455,0.0007311461376957595
0.020400000721565448,0.0241369791328907,0.0007603673147968948
0.02080000012938399,0.024136358872056007,0.0007895862800069153
0.02119999953720253,0.024135714396834373,0.0008188030915334821
0.021600000764010474,0.024135049432516098,0.0008480176911689341
0.022000000171829015,0.024134358391165733,0.0008772300789132714
0.022399999579647556,0.024133644998073578,0.0009064401383511722
0.0228000008064555,0.024132907390594482,0.0009356479858979583
0.02320000021427404,0.024132147431373596,0.0009648534469306469
0.023599999622092582,0.02413136512041092,0.000994056579656899
0.024000000848900527,0.024130556732416153,0.0010232572676613927
0.024400000256719068,0.024129727855324745,0.0010524556273594499
0.02479999966453761,0.024128872901201248,0.0010816515423357487
0.025200000891345553,0.02412799559533596,0.0011108450125902891
0.025600000299164094,0.024127095937728882,0.0011400359217077494
0.025999999706982635,0.024126172065734863,0.0011692243861034513
0.026399999114801176,0.024125225841999054,0.001198410289362073
0.02680000034160912,0.024124255403876305,0.0012275935150682926
0.02719999974942766,0.024123260751366615,0.001256774296052754
0.027599999157246202,0.024122243747115135,0.0012859522830694914
0.028000000384054147,0.024121204391121864,0.0013151277089491487
0.028399999791872688,0.024120140820741653,0.001344300457276404
0.02879999919969123,0.024119053035974503,0.0013734704116359353
0.029200000426499173,0.02411794289946556,0.0014026376884430647
0.029599999834317714,0.02411680854856968,0.0014318021712824702
0.029999999242136255,0.03620418906211853,0.0014620708534494042
0.0304000004689442,0.048291534185409546,0.001519427401944995
0.030800001695752144,0.04829029366374016,0.0015778867527842522
0.031200001103570685,0.04828900843858719,0.0016363417962566018
0.031600000511389226,0.04828767478466034,0.001694792415946722
0.03199999991920777,0.04828629642724991,0.001753238495439291
0.03239999932702631,0.0482848696410656,0.0018116800347343087
0.03279999873484485,0.048283398151397705,0.0018701170338317752
0.0332000017806422,0.04828187823295593,0.0019285493763163686
0.03360000118846074,0.04828031361103058,0.001986976945772767
0.03400000059627928,0.048278700560331345,0.0020453997422009706
0.03440000000409782,0.04827703908085823,0.002103817882016301
0.03479999941191636,0.048275332897901535,0.002162231132388115
0.0351999988197349,0.04827358201146126,0.0022206392604857683
0.03559999822755344,0.0482717826962471,0.002279042499139905
0.03600000127335079,0.048269934952259064,0.002337440848350525
0.03640000068116933,0.048268042504787445,0.002395833842456341
0.03680000008898787,0.048266101628541946,0.00245422194711864
0.03719999949680641,0.048264116048812866,0.002512604696676135
0.037599998904624954,0.048262082040309906,0.002570982091128826
0.037999998312443495,0.048259999603033066,0.002629354363307357
0.03840000135824084,0.048257872462272644,0.00268772104755044
0.038800000766059384,0.04825570061802864,0.002746082376688719
0.039200000173877925,0.04825348034501076,0.0028044383507221937
0.039599999581696466,0.048251211643218994,0.0028627885039895773
0.03999999898951501,0.04824889823794365,0.002921133302152157
0.04039999839733355,0.048246536403894424,0.002979472279548645
0.040800001443130895,0.04824412986636162,0.0030378056690096855
0.041200000850949436,0.04824167862534523,0.0030961332377046347
0.04160000025876798,0.04823917895555496,0.0031544549856334925
0.04199999966658652,0.048236630856990814,0.0032127706799656153
0.04239999907440506,0.048234038054943085,0.0032710805535316467
0.0427999984822236,0.048231396824121475,0.003329384606331587
0.04320000152802095,0.048228710889816284,0.0033876823727041483
0.04360000093583949,0.04822597652673721,0.0034459740854799747
0.04400000034365803,0.04822319746017456,0.003504259744659066
0.04439999975147657,0.04822036996483803,0.003562539117410779
0.04479999915929511,0.048217497766017914,0.0036208119709044695
0.04519999856711365,0.04821457713842392,0.003679078770801425
0.045600001612911,0.048211608082056046,0.003737339051440358
0.04600000102072954,0.04820859804749489,0.0037955930456519127
0.04640000042854808,0.04820553585886955,0.0038538402877748013
0.046799999836366624,0.048202428966760635,0.0039120810106396675
0.047199999244185165,0.04819927737116814,0.0039703152142465115
0.047599998652003706,0.04819607734680176,0.004028542898595333
0.048000001697801054,0.0481928326189518,0.004086763598024845
0.048400001105619594,0.04818953946232796,0.004144977778196335
0.048800000513438135,0.048186201602220535,0.004203184973448515
0.049199999921256676,0.04818281531333923,0.004261385183781385
0.04959999932907522,0.04817938059568405,0.004319578409194946
0.04999999873689376,0.060376912355422974,0.004378892481327057
0.050400001782691106,0.07257438451051712,0.004465521313250065
0.05080000119050965,0.07257077842950821,0.004553269594907761
0.05120000059832819,0.07256710529327393,0.0046410090290009975
0.05160000000614673,0.07256335765123367,0.004728739615529776
0.05199999941396527,0.07255953550338745,0.004816461820155382
0.05239999882178381,0.07255564630031586,0.0049041747115552425
0.05279999822960235,0.07255169004201889,0.004991878755390644
0.0532000012753997,0.07254765927791595,0.0050795734860002995
0.05360000068321824,0.07254356145858765,0.005167258903384209
0.05400000009103678,0.07253939658403397,0.005254935473203659
0.05439999949885532,0.07253515720367432,0.005342602729797363
0.054799998906673864,0.0725308433175087,0.005430260207504034
0.055199998314492404,0.0725264623761177,0.005517908371984959
0.05560000136028975,0.07252201437950134,0.00560554675757885
0.05600000076810829,0.0725174993276596,0.005693175829946995
0.056400000175926834,0.0725129097700119,0.005780794657766819
0.056799999583745375,0.07250824570655823,0.00586840370669961
0.057199998991563916,0.07250351458787918,0.005956002976745367
0.05759999839938246,0.07249871641397476,0.006043592467904091
0.058000001445179805,0.07249385118484497,0.006131171714514494
0.058400000852998346,0.07248891144990921,0.006218740716576576
0.05880000026081689,0.07248389720916748,0.0063062990084290504
0.05919999966863543,0.07247881591320038,0.006393847521394491
0.05959999907645397,0.0724736675620079,0.006481385324150324
0.05999999848427251,0.07246844470500946,0.006568912882357836
0.06040000153006986,0.07246315479278564,0.00665642973035574
0.0608000009378884,0.07245779782533646,0.006743935868144035
0.06120000034570694,0.0724523663520813,0.006831430830061436
0.06160000339150429,0.07244686782360077,0.006918915081769228
0.06199999916134402,0.07244129478931427,0.007006388623267412
0.06240000220714137,0.0724356546998024,0.007093850988894701
0.0627999979769811,0.07242994755506516,0.0071813021786510944
0.06320000102277845,0.07242416590452194,0.00726874265819788
0.06359999679261819,0.07241831719875336,0.007356171030551195
0.06399999983841553,0.0724123939871788,0.007443588692694902
0.06440000288421288,0.07240640372037888,0.007530994713306427
0.06479999865405262,0.07240034639835358,0.007618389092385769
0.06520000169984996,0.07239421457052231,0.007705771829932928
0.0655999974696897,0.07238801568746567,0.007793142925947905
0.06600000051548705,0.07238174229860306,0.007880502380430698
0.0664000035612844,0.07237540930509567,0.007967849262058735
0.06679999933112413,0.07236899435520172,0.008055184967815876
0.06720000237692147,0.072362519800663,0.008142508566379547
0.06759999814676121,0.0723559707403183,0.008229820057749748
0.06800000119255856,0.07234934717416763,0.008317118510603905
0.06839999696239829,0.07234266400337219,0.008404405787587166
0.06880000000819564,0.07233590632677078,0.008491680026054382
0.06920000305399299,0.0723290741443634,0.008578942157328129
0.06959999882383272,0.07232217490673065,0.00866619125008583
0.07000000186963007,0.08461635559797287,0.008754574693739414
0.0703999976394698,0.09691045433282852,0.008870472200214863
0.07080000068526715,0.09690330922603607,0.008987502194941044
0.07119999645510688,0.09689607471227646,0.009104517288506031
0.07159999950090423,0.09688874334096909,0.009221518412232399
0.07200000254670158,0.09688132256269455,0.009338505566120148
0.07239999831654131,0.09687380492687225,0.009455476887524128
0.07280000136233866,0.0968661904335022,0.009572434239089489
0.0731999971321784,0.09685848653316498,0.009689375758171082
0.07360000017797574,0.09685068577528,0.00980630237609148
0.07400000322377309,0.09684279561042786,0.009923214092850685
0.07439999899361283,0.09683480858802795,0.010040110908448696
0.07480000203941017,0.09682673215866089,0.010156991891562939
0.07519999780924991,0.09681855887174606,0.010273857042193413
0.07560000085504726,0.09681029617786407,0.010390707291662693
0.07599999662488699,0.09680193662643433,0.010507541708648205
0.07639999967068434,0.09679348021745682,0.010624359361827374
0.07680000271648169,0.09678493440151215,0.010741162113845348
0.07719999848632142,0.09677629172801971,0.01085794810205698
0.07760000153211877,0.09676755964756012,0.010974718257784843
0.0779999973019585,0.09675873816013336,0.011091471649706364
0.07840000034775585,0.09674981236457825,0.011208209209144115
0.0788000033935532,0.09674080461263657,0.011324930004775524
0.07919999916339293,0.09673169255256653,0.01144163403660059
0.07960000220919028,0.09672249853610992,0.011558321304619312
0.07999999797903001,0.09671320021152496,0.011674991808831692
0.08040000102482736,0.09670381247997284,0.011791645549237728
0.0807999967946671,0.09669433534145355,0.011908281594514847
0.08119999984046444,0.0966847613453865,0.012024900875985622
0.08160000288626179,0.0966750904917717,0.012141503393650055
0.08199999865610152,0.09666533023118973,0.012258087284862995
0.08240000170189887,0.0966554805636406,0.012374654412269592
0.0827999974717386,0.0966455340385437,0.012491203844547272
0.08320000051753595,0.09663549810647964,0.012607735581696033
0.0836000035633333,0.09662536531686783,0.012724248692393303
0.08399999933317304,0.09661513566970825,0.01284074503928423
0.08440000237897038,0.09660481661558151,0.012957222759723663
0.08479999814881012,0.09659440815448761,0.013073681853711605
0.08520000119460747,0.09658389538526535,0.013190123252570629
0.0855999969644472,0.09657330065965652,0.013306545093655586
0.08600000001024455,0.09656260907649994,0.013422949239611626
0.0864000030560419,0.0965518206357956,0.013539334759116173
0.08679999882588163,0.09654094278812408,0.013655701652169228
0.08720000187167898,0.09652997553348541,0.01377204991877079
0.08759999764151871,0.09651891142129898,0.013888378627598286
0.08800000068731606,0.09650775045156479,0.014004687778651714
0.0883999964571558,0.09649650007486343,0.01412097830325365
0.08879999950295314,0.09648516029119492,0.01423724927008152
0.08920000254875049,0.09647372364997864,0.014353501610457897
0.08959999831859022,0.0964621976017952,0.014469733461737633
0.09000000136438757,0.10887003690004349,0.014587114565074444
0.0903999971342273,0.12127777189016342,0.014732245355844498
0.09080000018002465,0.12126592546701431,0.014878523536026478
0.091200003225822,0.12125395983457565,0.015024780295789242
0.09159999899566174,0.12124188244342804,0.01517101563513279
0.09200000204145908,0.12122968584299088,0.015317229554057121
0.09239999781129882,0.12121737748384476,0.015463420189917088
0.09280000085709617,0.12120494991540909,0.015609590336680412
0.0931999966269359,0.12119240313768387,0.01575573720037937
0.09359999967273325,0.1211797371506691,0.01590186171233654
0.0940000027185306,0.12116695940494537,0.016047963872551918
0.09439999848837033,0.1211540624499321,0.016194043681025505
0.09480000153416768,0.12114104628562927,0.0163401011377573
0.09519999730400741,0.12112791836261749,0.016486134380102158
0.09560000034980476,0.12111467123031616,0.016632145270705223
0.09600000339560211,0.12110130488872528,0.016778133809566498
0.09639999916544184,0.12108782678842545,0.016924098134040833
0.09680000221123919,0.12107422947883606,0.017070038244128227
0.09719999798107892,0.12106051295995712,0.01721595600247383
0.09760000102687627,0.12104668468236923,0.017361847683787346
0.097999996796716,0.12103273719549179,0.01750771887600422
0.09839999984251335,0.1210186704993248,0.017653563991189003
0.0988000028883107,0.12100449204444885,0.017799384891986847
0.09919999865815043,0.12099019438028336,0.01794518157839775
0.09960000170394778,0.12097577750682831,0.018090954050421715
0.09999999747378752,0.1209612488746643,0.01823670230805874
0.10040000051958486,0.12094660103321075,0.018382424488663673
0.10080000356538221,0.12093183398246765,0.018528124317526817
0.10119999933522195,0.1209169551730156,0.018673796206712723
0.1016000023810193,0.12090195715427399,0.018819443881511688
0.10199999815085903,0.12088684737682343,0.018965067341923714
0.10240000119665638,0.12087161839008331,0.01911066472530365
0.10279999696649611,0.12085627019405365,0.019256236031651497
0.10320000001229346,0.12084080278873444,0.019401783123612404
0.1036000030580908,0.12082522362470627,0.019547302275896072
0.10399999882793054,0.12080953270196915,0.0196927972137928
0.10440000187372789,0.12079371511936188,0.01983826421201229
0.10479999764356762,0.12077778577804565,0.019983705133199692
0.10520000068936497,0.12076174467802048,0.020129121840000153
0.1055999964592047,0.12074558436870575,0.020274508744478226
0.10599999950500205,0.12072930485010147,0.02041987143456936
0.1064000025507994,0.12071290612220764,0.020565206184983253
0.10679999832063913,0.12069639563560486,0.02071051485836506
0.10720000136643648,0.12067977339029312,0.020855795592069626
0.10759999713627622,0.12066303193569183,0.021001048386096954
0.10800000018207356,0.120646171271801,0.021146275103092194
0.10840000322787091,0.1206291988492012,0.021291473880410194
0.10879999899771065,0.12061210721731186,0.021436644718050957
0.109200002043508,0.12059489637613297,0.02158178761601448
0.10959999781334773,0.12057757377624512,0.021726904436945915
0.11000000085914508,0.1330641210079193,0.021873176097869873
0.11039999662898481,0.14555053412914276,0.022047361359000206
0.11079999967478216,0.14553281664848328,0.02222270332276821
0.1112000027205795,0.14551497995853424,0.02239801362156868
0.11159999849041924,0.14549697935581207,0.02257329411804676
0.11200000153621659,0.14547885954380035,0.022748544812202454
0.11239999730605632,0.1454605907201767,0.02292376384139061
0.11280000035185367,0.1454421728849411,0.023098953068256378
0.11320000339765102,0.14542363584041595,0.02327411063015461
0.11359999916749075,0.14540493488311768,0.023449238389730453
0.1140000022132881,0.14538611471652985,0.02362433448433876
0.11439999798312783,0.14536714553833008,0.02379939891397953
0.11480000102892518,0.14534802734851837,0.023974431678652763
0.11519999679876491,0.14532877504825592,0.02414943277835846
0.11559999984456226,0.14530938863754272,0.02432440221309662
0.11600000289035961,0.14528986811637878,0.02449933998286724
0.11639999866019934,0.1452701985836029,0.024674244225025177
0.11680000170599669,0.1452503800392151,0.024849116802215576
0.11719999747583643,0.14523042738437653,0.02502395585179329
0.11760000052163377,0.14521034061908722,0.025198763236403465
0.11800000356743112,0.14519011974334717,0.025373538956046104
0.11839999933727086,0.14516974985599518,0.025548279285430908
0.1188000023830682,0.14514924585819244,0.025722987949848175
0.11919999815290794,0.14512859284877777,0.025897661224007607
0.11960000119870529,0.14510780572891235,0.0260723028331995
0.11999999696854502,0.145086869597435,0.02624691091477871
0.12040000001434237,0.1450657993555069,0.026421483606100082
0.12080000306013972,0.14504459500312805,0.02659602276980877
0.12119999882997945,0.14502324163913727,0.02677052840590477
0.1216000018757768,0.14500176906585693,0.026944998651742935
0.12199999764561653,0.14498013257980347,0.027119435369968414
0.12240000069141388,0.14495837688446045,0.027293836697936058
0.12280000373721123,0.1449364721775055,0.027468202635645866
0.12320000678300858,0.1449144184589386,0.02764253318309784
0.1235999952768907,0.14489224553108215,0.027816830202937126
0.12399999832268804,0.14486990869045258,0.02799108996987343
0.12440000136848539,0.14484745264053345,0.028165314346551895
0.12480000441428274,0.14482484757900238,0.028339503332972527
0.12519999290816486,0.14480210840702057,0.028513656929135323
0.1255999959539622,0.144779235124588,0.028687775135040283
0.12599999899975955,0.14475621283054352,0.02886185608804226
0.1264000020455569,0.14473305642604828,0.02903589978814125
0.12680000509135425,0.1447097510099411,0.029209908097982407
0.12719999358523637,0.14468631148338318,0.029383879154920578
0.12759999663103372,0.1446627378463745,0.029557812958955765
0.12799999967683107,0.1446390151977539,0.029731709510087967
0.12840000272262841,0.14461517333984375,0.029905570670962334
0.12880000576842576,0.14459116756916046,0.030079392716288567
0.12919999426230788,0.14456704258918762,0.030253177508711815
0.12959999730810523,0.14454276859760284,0.03042692504823208
0.13000000035390258,0.15713928639888763,0.03060184046626091
0.13040000339969993,0.1697356402873993,0.03080490045249462
0.13080000644549727,0.1697109192609787,0.03100912645459175
0.1311999949393794,0.16968603432178497,0.031213313341140747
0.13159999798517674,0.16966098546981812,0.03141745924949646
0.1320000010309741,0.16963575780391693,0.03162156417965889
0.13240000407677144,0.1696103811264038,0.031825631856918335
0.1328000071225688,0.16958484053611755,0.0320296548306942
0.1331999956164509,0.16955913603305817,0.03223364055156708
0.13359999866224825,0.16953326761722565,0.032437581568956375
0.1340000017080456,0.16950723528862,0.03264148533344269
0.13440000475384295,0.1694810390472412,0.03284534439444542
0.13479999324772507,0.1694546788930893,0.03304916247725487
0.13519999629352242,0.16942816972732544,0.03325293958187103
0.13559999933931977,0.16940148174762726,0.033456671983003616
