time[s],iL[A],v out[V]
0.0,0.0,0.0
0.00040000000467443897,0.07999999076128006,4.8484060243936256e-05
0.0008000000093488779,0.15999989211559296,0.00019393306865822524
0.0012000000424450263,0.2399996519088745,0.0004363421758171171
0.0016000000186977559,0.31999915838241577,0.0007757064304314554
0.0019999999949504854,0.39999839663505554,0.0012120208702981472
0.0024000000848900527,0.4799972176551819,0.00174528022762388
0.0027999999474559445,0.5599955916404724,0.002375479321926832
0.0032000000373955118,0.6399933695793152,0.0031026131473481655
0.0035999998999614036,0.7199905514717102,0.003926675766706467
0.003999999989900971,0.7999870777130127,0.004847662057727575
0.004399999852466863,0.8799827694892883,0.005865566432476044
0.004800000169780105,0.9599776864051819,0.006980383303016424
0.005200000032345997,1.0399715900421143,0.008192106150090694
0.005599999894911889,1.1199644804000854,0.009500729851424694
0.006000000212225132,1.1999564170837402,0.010906248353421688
0.0064000000747910235,1.27994704246521,0.012408655136823654
0.006799999937356915,1.3599364757537842,0.01400794554501772
0.007199999799922807,1.4399245977401733,0.015704110264778137
0.00760000011723605,1.519911289215088,0.017497146502137184
0.007999999979801942,1.5998965501785278,0.01938704587519169
0.008400000297115184,1.6798802614212036,0.021373800933361053
0.008799999704933725,1.7598624229431152,0.02345740795135498
0.009200000022246968,1.8398427963256836,0.025637857615947723
0.00960000033956021,1.9198213815689087,0.027915144339203835
0.009999999747378752,1.999798059463501,0.030289260670542717
0.010400000064691994,2.07977294921875,0.032760199159383774
0.010800000382005237,2.159745693206787,0.03532795608043671
0.011199999789823778,2.2397162914276123,0.03799251839518547
0.01160000010713702,2.3196847438812256,0.04075388237833977
0.012000000424450263,2.399651050567627,0.0436120443046093
0.012399999832268804,2.4796149730682373,0.04656698927283287
0.012800000149582047,2.5595765113830566,0.049618713557720184
0.013199999557400588,2.639535665512085,0.05276720970869064
0.01359999987471383,2.719491958618164,0.05601246654987335
0.014000000192027073,2.799445867538452,0.05935448035597801
0.014399999599845614,2.87939715385437,0.06279324740171432
0.014799999917158857,2.9593453407287598,0.0663287490606308
0.0152000002344721,3.0392909049987793,0.06996098160743713
0.015600000551785342,3.1192333698272705,0.07368993759155273
0.015999999959603883,3.1991729736328125,0.077515609562397
0.016399999367422424,3.279109477996826,0.08143799006938934
0.01680000059423037,3.3590426445007324,0.08545706421136856
0.01720000000204891,3.4389727115631104,0.08957283198833466
0.01759999940986745,3.518899440765381,0.09378527849912643
0.018000000636675395,3.598822593688965,0.0980944037437439
0.018400000044493936,3.6787424087524414,0.10250018537044525
0.018799999452312477,3.7586586475372314,0.1070026233792305
0.01920000067912042,3.838571071624756,0.11160170286893845
0.019600000086938962,3.9184799194335938,0.11629742383956909
0.019999999494757503,3.998384952545166,0.12108977138996124
0.020400000721565448,4.078286170959473,0.1259787380695343
0.02080000012938399,4.158183574676514,0.13096430897712708
0.02119999953720253,4.238076686859131,0.13604646921157837
0.021600000764010474,4.317965507507324,0.14122523367404938
0.022000000171829015,4.397850513458252,0.1465005725622177
0.022399999579647556,4.477731227874756,0.15187248587608337
0.0228000008064555,4.557607650756836,0.15734094381332397
0.02320000021427404,4.637479305267334,0.1629059612751007
0.023599999622092582,4.717346668243408,0.16856752336025238
0.024000000848900527,4.797209739685059,0.1743256151676178
0.024400000256719068,4.877068042755127,0.18018022179603577
0.02479999966453761,4.956921577453613,0.1861313283443451
0.025200000891345553,5.036769866943359,0.19217894971370697
0.025600000299164094,5.116613864898682,0.19832304120063782
0.025999999706982635,5.196452617645264,0.20456361770629883
0.026399999114801176,5.276286602020264,0.2109006643295288
0.02680000034160912,5.356115341186523,0.21733416616916656
0.02719999974942766,5.435938835144043,0.2238641083240509
0.027599999157246202,5.515757083892822,0.23049049079418182
0.028000000384054147,5.595570087432861,0.23721328377723694
0.028399999791872688,5.675377368927002,0.24403250217437744
0.02879999919969123,5.755179405212402,0.25094810128211975
0.029200000426499173,5.8349761962890625,0.25796011090278625
0.029599999834317714,5.914766788482666,0.26506850123405457
0.029999999242136255,5.994551658630371,0.2722732424736023
0.0304000004689442,6.074331283569336,0.27957433462142944
0.030800001695752144,6.154104709625244,0.286971777677536
0.031200001103570685,6.233871936798096,0.2944655418395996
0.031600000511389226,6.313633441925049,0.30205562710762024
0.03199999991920777,6.393388748168945,0.3097420334815979
0.03239999932702631,6.473137855529785,0.3175247013568878
0.03279999873484485,6.552880764007568,0.32540369033813477
0.0332000017806422,6.632616996765137,0.3333789110183716
0.03360000118846074,6.712347030639648,0.34145042300224304
0.03400000059627928,6.7920708656311035,0.34961816668510437
0.03440000000409782,6.8717875480651855,0.35788214206695557
0.03479999941191636,6.951498031616211,0.36624234914779663
0.0351999988197349,7.0312018394470215,0.3746987283229828
0.03559999822755344,7.110898494720459,0.3832513391971588
0.03600000127335079,7.190588474273682,0.39190012216567993
0.03640000068116933,7.270271301269531,0.40064504742622375
0.03680000008898787,7.349947452545166,0.40948614478111267
0.03719999949680641,7.429616451263428,0.4184234142303467
0.037599998904624954,7.509277820587158,0.4274567663669586
0.037999998312443495,7.588932514190674,0.43658626079559326
0.03840000135824084,7.6685791015625,0.44581183791160583
0.038800000766059384,7.748219013214111,0.4551335275173187
0.039200000173877925,7.827851295471191,0.46455127000808716
0.039599999581696466,7.907475471496582,0.47406506538391113
0.03999999898951501,7.9870924949646,0.48367491364479065
0.04039999839733355,8.066701889038086,0.4933808147907257
0.040800001443130895,8.146303176879883,0.5031827092170715
0.041200000850949436,8.225896835327148,0.5130805969238281
0.04160000025876798,8.305481910705566,0.5230745077133179
0.04199999966658652,8.385059356689453,0.533164381980896
0.04239999907440506,8.464629173278809,0.5433502197265625
0.0427999984822236,8.544190406799316,0.5536320209503174
0.04320000152802095,8.623743057250977,0.5640097260475159
0.04360000093583949,8.703288078308105,0.574483335018158
0.04400000034365803,8.78282356262207,0.5850529074668884
0.04439999975147657,8.862351417541504,0.5957183241844177
0.04479999915929511,8.94187068939209,0.6064795851707458
0.04519999856711365,9.021381378173828,0.6173367500305176
0.045600001612911,9.100883483886719,0.6282897591590881
0.04600000102072954,9.180376052856445,0.6393385529518127
0.04640000042854808,9.259860038757324,0.6504831910133362
0.046799999836366624,9.339335441589355,0.6617236137390137
0.047199999244185165,9.418801307678223,0.67305988073349
0.047599998652003706,9.498258590698242,0.6844918131828308
0.048000001697801054,9.577706336975098,0.6960195302963257
0.048400001105619594,9.657144546508789,0.7076430320739746
0.048800000513438135,9.736574172973633,0.719362199306488
0.049199999921256676,9.815993309020996,0.7311770915985107
0.04959999932907522,9.895403861999512,0.743087649345398
0.04999999873689376,9.974804878234863,0.7550938725471497
0.050400001782691106,10.054195404052734,0.7671957612037659
0.05080000119050965,10.133577346801758,0.7793932557106018
0.05120000059832819,10.2129487991333,0.7916864156723022
0.05160000000614673,10.29231071472168,0.8040751814842224
0.05199999941396527,10.371662139892578,0.8165594935417175
0.05239999882178381,10.451004028320312,0.8291394114494324
0.05279999822960235,10.530335426330566,0.8418148756027222
0.0532000012753997,10.609657287597656,0.8545858263969421
0.05360000068321824,10.68896770477295,0.8674523830413818
0.05400000009103678,10.768268585205078,0.8804143667221069
0.05439999949885532,10.847558975219727,0.893471896648407
0.054799998906673864,10.926839828491211,0.9066248536109924
0.055199998314492404,11.006109237670898,0.9198732376098633
0.05560000136028975,11.085367202758789,0.9332171082496643
0.05600000076810829,11.164615631103516,0.9466564059257507
0.056400000175926834,11.243852615356445,0.960191011428833
0.056799999583745375,11.323079109191895,0.9738211035728455
0.057199998991563916,11.402295112609863,0.9875465035438538
0.05759999839938246,11.481499671936035,1.001367211341858
0.058000001445179805,11.56069278717041,1.0152833461761475
0.058400000852998346,11.639874458312988,1.029294729232788
0.05880000026081689,11.719045639038086,1.0434013605117798
0.05919999966863543,11.798205375671387,1.057603359222412
0.05959999907645397,11.87735366821289,1.071900486946106
0.05999999848427251,11.956490516662598,1.0862929821014404
0.06040000153006986,12.035615921020508,1.1007806062698364
0.0608000009378884,12.114728927612305,1.1153634786605835
0.06120000034570694,12.193831443786621,1.130041480064392
0.06160000339150429,12.272921562194824,1.1448147296905518
0.06199999916134402,12.351999282836914,1.1596829891204834
0.06240000220714137,12.431065559387207,1.1746464967727661
0.0627999979769811,12.510119438171387,1.1897050142288208
0.06320000102277845,12.58916187286377,1.204858660697937
0.06359999679261819,12.668191909790039,1.2201073169708252
0.06399999983841553,12.747209548950195,1.235451102256775
0.06440000288421288,12.826215744018555,1.2508898973464966
0.06479999865405262,12.905208587646484,1.2664237022399902
0.06520000169984996,12.9841890335083,1.2820523977279663
0.0655999974696897,13.063157081604004,1.297776222229004
0.06600000051548705,13.142112731933594,1.3135948181152344
0.0664000035612844,13.221055030822754,1.3295084238052368
0.06679999933112413,13.2999849319458,1.3455169200897217
0.06720000237692147,13.378902435302734,1.361620306968689
0.06759999814676121,13.457806587219238,1.3778185844421387
0.06800000119255856,13.536698341369629,1.3941117525100708
0.06839999696239829,13.615575790405273,1.4104996919631958
0.06880000000819564,13.694440841674805,1.4269824028015137
0.06920000305399299,13.773292541503906,1.4435598850250244
0.06959999882383272,13.852131843566895,1.4602322578430176
0.07000000186963007,13.930956840515137,1.476999282836914
0.0703999976394698,14.00976848602295,1.4938609600067139
0.07080000068526715,14.088566780090332,1.5108174085617065
0.07119999645510688,14.167350769042969,1.527868628501892
0.07159999950090423,14.246121406555176,1.5450143814086914
0.07200000254670158,14.324878692626953,1.562254786491394
0.07239999831654131,14.403621673583984,1.57958984375
0.07280000136233866,14.482351303100586,1.5970195531845093
0.0731999971321784,14.561066627502441,1.6145436763763428
0.07360000017797574,14.639768600463867,1.6321624517440796
0.07400000322377309,14.71845531463623,1.6498757600784302
0.07439999899361283,14.797128677368164,1.6676836013793945
0.07480000203941017,14.875786781311035,1.685585856437683
0.07519999780924991,14.954431533813477,1.7035826444625854
0.07560000085504726,15.033061027526855,1.721673846244812
0.07599999662488699,15.111676216125488,1.7398594617843628
0.07639999967068434,15.190277099609375,1.7581394910812378
0.07680000271648169,15.268863677978516,1.776513934135437
0.07719999848632142,15.347434997558594,1.794982671737671
0.07760000153211877,15.425992012023926,1.8135457038879395
0.0779999973019585,15.504533767700195,1.8322031497955322
0.07840000034775585,15.583060264587402,1.8509547710418701
0.0788000033935532,15.661571502685547,1.8698008060455322
0.07919999916339293,15.740068435668945,1.88874089717865
0.07960000220919028,15.818550109863281,1.9077752828598022
0.07999999797903001,15.897015571594238,1.9269039630889893
0.08040000102482736,15.97546672821045,1.9461266994476318
0.0807999967946671,16.05390167236328,1.9654436111450195
0.08119999984046444,16.132322311401367,1.9848546981811523
0.08160000288626179,16.210725784301758,2.004359722137451
0.08199999865610152,16.289113998413086,2.023959159851074
0.08240000170189887,16.36748695373535,2.043652296066284
0.0827999974717386,16.445844650268555,2.0634396076202393
0.08320000051753595,16.524185180664062,2.0833208560943604
0.0836000035633333,16.60251235961914,2.1032962799072266
0.08399999933317304,16.68082046508789,2.1233654022216797
0.08440000237897038,16.759113311767578,2.143528699874878
0.08479999814881012,16.837390899658203,2.163785696029663
0.08520000119460747,16.915651321411133,2.1841368675231934
0.0855999969644472,16.993896484375,2.2045814990997314
0.08600000001024455,17.072124481201172,2.2251203060150146
0.0864000030560419,17.15033531188965,2.2457528114318848
0.08679999882588163,17.228530883789062,2.266479015350342
0.08720000187167898,17.30670928955078,2.287299156188965
0.08759999764151871,17.384872436523438,2.308212995529175
0.08800000068731606,17.463016510009766,2.3292205333709717
0.0883999964571558,17.54114532470703,2.3503217697143555
0.08879999950295314,17.6192569732666,2.371516466140747
0.08920000254875049,17.697349548339844,2.3928050994873047
0.08959999831859022,17.775426864624023,2.41418719291687
0.09000000136438757,17.853487014770508,2.4356629848480225
0.0903999971342273,17.931529998779297,2.4572322368621826
0.09080000018002465,18.00955581665039,2.4788949489593506
0.091200003225822,18.08756446838379,2.5006513595581055
0.09159999899566174,18.165555953979492,2.522500991821289
0.09200000204145908,18.243528366088867,2.5444443225860596
0.09239999781129882,18.321483612060547,2.566481113433838
0.09280000085709617,18.39942169189453,2.588611125946045
0.0931999966269359,18.47734260559082,2.610834836959839
0.09359999967273325,18.55524444580078,2.6331515312194824
0.0940000027185306,18.633129119873047,2.655561685562134
0.09439999848837033,18.710994720458984,2.678065299987793
0.09480000153416768,18.788843154907227,2.700662136077881
0.09519999730400741,18.866674423217773,2.7233521938323975
0.09560000034980476,18.944486618041992,2.7461354732513428
0.09600000339560211,19.022279739379883,2.7690117359161377
0.09639999916544184,19.100055694580078,2.7919814586639404
0.09680000221123919,19.177812576293945,2.8150441646575928
0.09719999798107892,19.255552291870117,2.838200092315674
0.09760000102687627,19.33327293395996,2.8614492416381836
0.097999996796716,19.410974502563477,2.884791135787964
0.09839999984251335,19.488656997680664,2.908226251602173
0.0988000028883107,19.566320419311523,2.9317543506622314
0.09919999865815043,19.643966674804688,2.9553754329681396
0.09960000170394778,19.72159194946289,2.9790894985198975
0.09999999747378752,19.7992000579834,3.002896547317505
0.10040000051958486,19.876789093017578,3.026796340942383
0.10080000356538221,19.954357147216797,3.0507891178131104
0.10119999933522195,20.031906127929688,3.0748748779296875
0.1016000023810193,20.109437942504883,3.099053144454956
0.10199999815085903,20.186948776245117,3.123324394226074
0.10240000119665638,20.264440536499023,3.147688388824463
0.10279999696649611,20.34191131591797,3.172145128250122
0.10320000001229346,20.41936492919922,3.1966946125030518
0.1036000030580908,20.496797561645508,3.221336603164673
0.10399999882793054,20.57421112060547,3.2460713386535645
0.10440000187372789,20.65160369873047,3.2708985805511475
0.10479999764356762,20.72897720336914,3.295818567276001
0.10520000068936497,20.80632972717285,3.320831060409546
0.1055999964592047,20.883663177490234,3.3459362983703613
0.10599999950500205,20.96097755432129,3.371133804321289
0.1064000025507994,21.03826904296875,3.396423816680908
0.10679999832063913,21.115543365478516,3.4218063354492188
0.10720000136643648,21.192794799804688,3.4472811222076416
0.10759999713627622,21.27002716064453,3.472848415374756
0.10800000018207356,21.347238540649414,3.4985079765319824
0.10840000322787091,21.424428939819336,3.5242600440979004
0.10879999899771065,21.50160026550293,3.5501043796539307
0.109200002043508,21.57874870300293,3.5760409832000732
0.10959999781334773,21.6558780670166,3.602069616317749
0.11000000085914508,21.732986450195312,3.628190755844116
0.11039999662898481,21.81007194519043,3.6544039249420166
0.11079999967478216,21.88713836669922,3.68070912361145
0.1112000027205795,21.964183807373047,3.707106590270996
0.11159999849041924,22.04120635986328,3.7335963249206543
0.11200000153621659,22.118209838867188,3.7601778507232666
0.11239999730605632,22.1951904296875,3.786851406097412
0.11280000035185367,22.27215003967285,3.81361722946167
0.11320000339765102,22.349088668823242,3.840474843978882
0.11359999916749075,22.426006317138672,3.867424249649048
0.1140000022132881,22.502901077270508,3.894465684890747
0.11439999798312783,22.579774856567383,3.9215991497039795
0.11480000102892518,22.656625747680664,3.948824405670166
0.11519999679876491,22.733455657958984,3.9761414527893066
0.11559999984456226,22.810264587402344,4.003550052642822
0.11600000289035961,22.88705062866211,4.031050682067871
0.11639999866019934,22.963815689086914,4.058642864227295
0.11680000170599669,23.040557861328125,4.086327075958252
0.11719999747583643,23.117277145385742,4.114102840423584
0.11760000052163377,23.193973541259766,4.141970157623291
0.11800000356743112,23.270648956298828,4.169929027557373
0.11839999933727086,23.34730339050293,4.19797945022583
0.1188000023830682,23.423933029174805,4.226121425628662
0.11919999815290794,23.500539779663086,4.254354953765869
0.11960000119870529,23.577125549316406,4.282679557800293
0.11999999696854502,23.653688430786133,4.31109619140625
0.12040000001434237,23.730228424072266,4.339603900909424
0.12080000306013972,23.806745529174805,4.368203163146973
0.12119999882997945,23.88323974609375,4.396893501281738
0.1216000018757768,23.95970916748047,4.425675392150879
0.12199999764561653,24.036157608032227,4.4545488357543945
0.12240000069141388,24.11258316040039,4.483512878417969
0.12280000373721123,24.188983917236328,4.512568473815918
0.12320000678300858,24.265361785888672,4.541715621948242
0.1235999952768907,24.341716766357422,4.570953369140625
0.12399999832268804,24.418048858642578,4.600282192230225
0.12440000136848539,24.494356155395508,4.629702568054199
0.12480000441428274,24.570640563964844,4.659213542938232
0.12519999290816486,24.646902084350586,4.688816070556641
0.1255999959539622,24.7231388092041,4.718509197235107
0.12599999899975955,24.799352645874023,4.748293399810791
0.1264000020455569,24.87554168701172,4.778168201446533
0.12680000509135425,24.95170783996582,4.808134078979492
0.12719999358523637,25.027849197387695,4.838191032409668
0.12759999663103372,25.103965759277344,4.868338584899902
0.12799999967683107,25.1800594329834,4.8985772132873535
0.12840000272262841,25.256128311157227,4.928905963897705
0.12880000576842576,25.33217430114746,4.959326267242432
0.12919999426230788,25.408193588256836,4.989836692810059
0.12959999730810523,25.484189987182617,5.020437717437744
0.13000000035390258,25.560161590576172,5.0511298179626465
0.13040000339969993,25.6361083984375,5.081912040710449
0.13080000644549727,25.7120304107666,5.1127848625183105
0.1311999949393794,25.787927627563477,5.1437482833862305
0.13159999798517674,25.863800048828125,5.174802303314209
0.1320000010309741,25.939647674560547,5.205946922302246
0.13240000407677144,26.015470504760742,5.237181663513184
0.1328000071225688,26.09126853942871,5.2685065269470215
0.1331999956164509,26.16703987121582,5.299921989440918
0.13359999866224825,26.242788314819336,5.331428050994873
0.1340000017080456,26.318510055541992,5.3630242347717285
0.13440000475384295,26.394207000732422,5.394710540771484
0.13479999324772507,26.469879150390625,5.426486968994141
0.13519999629352242,26.54552459716797,5.458353519439697
0.13559999933931977,26.621145248413086,5.490310192108154
0.1360000023851171,26.696741104125977,5.52235746383667
0.13640000543091446,26.772310256958008,5.554494380950928
0.13679999392479658,26.84785270690918,5.586721420288086
0.13719999697059393,26.923370361328125,5.619038105010986
0.13760000001639128,26.998863220214844,5.651444911956787
0.13800000306218863,27.074329376220703,5.683941841125488
0.13840000610798597,27.149768829345703,5.716528415679932
