time[s],iL[A],v out[V]
0.0,0.0,0.0
0.00040000000467443897,0.03781600296497345,1.0833630767592695e-05
0.0008000000093488779,0.11781596392393112,0.00010515362373553216
0.0012000000424450263,0.19781580567359924,0.0002964362793136388
0.0016000000186977559,0.27781546115875244,0.0005846766871400177
0.0019999999949504854,0.35781484842300415,0.0009698699577711523
0.0024000000848900527,0.4378138780593872,0.0014520109398290515
0.0027999999474559445,0.5178124904632568,0.0020310943946242332
0.0032000000373955118,0.5978106260299683,0.002707115141674876
0.0035999998999614036,0.6778081655502319,0.003480067942291498
0.003999999989900971,0.7578049898147583,0.004349946975708008
0.004399999852466863,0.8378011584281921,0.005316747352480888
0.004800000169780105,0.9177964925765991,0.006380463019013405
0.005200000032345997,0.9977909326553345,0.007541087921708822
0.005599999894911889,1.0777844190597534,0.00879861693829298
0.006000000212225132,1.1577768325805664,0.010153043083846569
0.0064000000747910235,1.2377681732177734,0.011604362167418003
0.006799999937356915,1.3177582025527954,0.01315256580710411
0.007199999799922807,1.3977470397949219,0.014797649346292019
0.00760000011723605,1.4777345657348633,0.01653960719704628
0.007999999979801942,1.5577205419540405,0.018378430977463722
0.008400000297115184,1.6377050876617432,0.020314114168286324
0.008799999704933725,1.7176880836486816,0.022346653044223785
0.009200000022246968,1.7976692914962769,0.02447603829205036
0.00960000033956021,1.8776488304138184,0.026702262461185455
0.009999999747378752,1.9576265811920166,0.029025321826338768
0.010400000064691994,2.037602424621582,0.0314452089369297
0.010800000382005237,2.1175761222839355,0.033961910754442215
0.011199999789823778,2.1975479125976562,0.036575429141521454
0.01160000010713702,2.277517795562744,0.039285752922296524
0.012000000424450263,2.357485055923462,0.04209287464618683
0.012399999832268804,2.437450408935547,0.04499678313732147
0.012800000149582047,2.5174131393432617,0.047997478395700455
0.013199999557400588,2.5973734855651855,0.05109494552016258
0.01359999987471383,2.6773314476013184,0.054289184510707855
0.014000000192027073,2.757286548614502,0.05758018046617508
0.014399999599845614,2.8372392654418945,0.060967929661273956
0.014799999917158857,2.917189121246338,0.06445241719484329
0.0152000002344721,2.997136116027832,0.06803365051746368
0.015600000551785342,3.077080249786377,0.07171160727739334
0.015999999959603883,3.1570212841033936,0.07548628002405167
0.016399999367422424,3.236959218978882,0.07935766875743866
0.01680000059423037,3.316894292831421,0.08332575857639313
0.01720000000204891,3.3968260288238525,0.08739054203033447
0.01759999940986745,3.4767544269561768,0.0915520116686821
0.018000000636675395,3.5566794872283936,0.09581015259027481
0.018400000044493936,3.636601209640503,0.1001649722456932
0.018799999452312477,3.7165191173553467,0.1046164408326149
0.01920000067912042,3.796433687210083,0.10916456580162048
0.019600000086938962,3.8763444423675537,0.11380933225154877
0.019999999494757503,3.914067506790161,0.11853723973035812
0.020400000721565448,3.9727067947387695,0.12330178171396255
0.02080000012938399,4.052606105804443,0.1281595081090927
0.02119999953720253,4.132501602172852,0.13311384618282318
0.021600000764010474,4.212393283843994,0.13816478848457336
0.022000000171829015,4.292280673980713,0.14331230521202087
0.022399999579647556,4.372163772583008,0.1485564112663269
0.0228000008064555,4.452043056488037,0.15389709174633026
0.02320000021427404,4.531917572021484,0.15933431684970856
0.023599999622092582,4.611787796020508,0.16486810147762299
0.024000000848900527,4.691653728485107,0.17049841582775116
0.024400000256719068,4.771514892578125,0.17622527480125427
0.02479999966453761,4.851371765136719,0.18204863369464874
0.025200000891345553,4.9312238693237305,0.18796850740909576
0.025600000299164094,5.01107120513916,0.19398488104343414
0.025999999706982635,5.09091329574585,0.20009775459766388
0.026399999114801176,5.170750617980957,0.2063070833683014
0.02680000034160912,5.250583171844482,0.21261289715766907
0.02719999974942766,5.330410480499268,0.21901515126228333
0.027599999157246202,5.410233020782471,0.22551386058330536
0.028000000384054147,5.490049839019775,0.23210899531841278
0.028399999791872688,5.56986141204834,0.2388005554676056
0.02879999919969123,5.649667739868164,0.2455885261297226
0.029200000426499173,5.72946834564209,0.2524729073047638
0.029599999834317714,5.809263706207275,0.2594536542892456
0.029999999242136255,5.8890533447265625,0.2665308117866516
0.0304000004689442,5.968837261199951,0.27370432019233704
0.030800001695752144,6.048615455627441,0.2809741795063019
0.031200001103570685,6.128387451171875,0.28834035992622375
0.031600000511389226,6.208154201507568,0.29580289125442505
0.03199999991920777,6.287914276123047,0.3033617436885834
0.03239999932702631,6.367668628692627,0.31101691722869873
0.03279999873484485,6.44741678237915,0.31876835227012634
0.0332000017806422,6.527158737182617,0.326616108417511
0.03360000118846074,6.606894016265869,0.3345600962638855
0.03400000059627928,6.6866230964660645,0.34260037541389465
0.03440000000409782,6.766345977783203,0.3507368564605713
0.03479999941191636,6.846062183380127,0.3589695990085602
0.0351999988197349,6.925771713256836,0.36729857325553894
0.03559999822755344,7.005474090576172,0.3757237493991852
0.03600000127335079,7.085170269012451,0.3842450976371765
0.03640000068116933,7.164859294891357,0.3928626477718353
0.03680000008898787,7.244541645050049,0.40157637000083923
0.03719999949680641,7.324216842651367,0.41038623452186584
0.037599998904624954,7.4038848876953125,0.41929224133491516
0.037999998312443495,7.483546257019043,0.4282943606376648
0.03840000135824084,7.563199996948242,0.43739262223243713
0.038800000766059384,7.64284610748291,0.4465869963169098
0.039200000173877925,7.722485065460205,0.455877423286438
0.039599999581696466,7.802116870880127,0.4652639627456665
0.03999999898951501,7.860476493835449,0.4747430980205536
0.04039999839733355,7.860093116760254,0.48424747586250305
0.040800001443130895,7.859701633453369,0.4937509000301361
0.041200000850949436,7.928953170776367,0.5032901763916016
0.04160000025876798,8.008546829223633,0.5129246115684509
0.04199999966658652,8.088132858276367,0.5226550698280334
0.04239999907440506,8.167710304260254,0.5324815511703491
0.0427999984822236,8.24728012084961,0.5424039363861084
0.04320000152802095,8.326842308044434,0.5524223446846008
0.04360000093583949,8.406396865844727,0.5625366568565369
0.04400000034365803,8.485942840576172,0.5727469325065613
0.04439999975147657,8.56548023223877,0.5830531120300293
0.04479999915929511,8.645009994506836,0.5934551954269409
0.04519999856711365,8.724531173706055,0.6039531230926514
0.045600001612911,8.804043769836426,0.6145469546318054
0.04600000102072954,8.88354778289795,0.6252366900444031
0.04640000042854808,8.963043212890625,0.6360222101211548
0.046799999836366624,9.042530059814453,0.6469035744667053
0.047199999244185165,9.122007369995117,0.6578807830810547
0.047599998652003706,9.20147705078125,0.6689537763595581
0.048000001697801054,9.280937194824219,0.6801224946975708
0.048400001105619594,9.36038875579834,0.6913870573043823
0.048800000513438135,9.439830780029297,0.7027472853660583
0.049199999921256676,9.519264221191406,0.7142032980918884
0.04959999932907522,9.598688125610352,0.7257550358772278
0.04999999873689376,9.67810344696045,0.7374024987220764
0.050400001782691106,9.757508277893066,0.7491456270217896
0.05080000119050965,9.836904525756836,0.7609844207763672
0.05120000059832819,9.916291236877441,0.7729188799858093
0.05160000000614673,9.995667457580566,0.7849489450454712
0.05199999941396527,10.075035095214844,0.7970746755599976
0.05239999882178381,10.15439224243164,0.8092959523200989
0.05279999822960235,10.233739852905273,0.8216128945350647
0.0532000012753997,10.313077926635742,0.8340253829956055
0.05360000068321824,10.39240550994873,0.8465334177017212
0.05400000009103678,10.471723556518555,0.8591369986534119
0.05439999949885532,10.551031112670898,0.8718360662460327
0.054799998906673864,10.630328178405762,0.8846306800842285
0.055199998314492404,10.709615707397461,0.8975207805633545
0.05560000136028975,10.78889274597168,0.9105063676834106
0.05600000076810829,10.868158340454102,0.9235873818397522
0.056400000175926834,10.94741439819336,0.9367638230323792
0.056799999583745375,11.026659965515137,0.9500357508659363
0.057199998991563916,11.105895042419434,0.9634029865264893
0.05759999839938246,11.185118675231934,0.9768657088279724
0.058000001445179805,11.264331817626953,0.9904237389564514
0.058400000852998346,11.343533515930176,1.0040770769119263
0.05880000026081689,11.422724723815918,1.0178258419036865
0.05919999966863543,11.491555213928223,1.031669020652771
0.05959999907645397,11.490724563598633,1.045547366142273
0.05999999848427251,11.489882469177246,1.0594239234924316
0.06040000153006986,11.489028930664062,1.0732988119125366
0.0608000009378884,11.488164901733398,1.087172031402588
0.06120000034570694,11.487289428710938,1.101043462753296
0.06160000339150429,11.486403465270996,1.1149132251739502
0.06199999916134402,11.485506057739258,1.1287811994552612
0.06240000220714137,11.484597206115723,1.142647385597229
0.0627999979769811,11.483677864074707,1.156511902809143
0.06320000102277845,11.482747077941895,1.1703745126724243
0.06359999679261819,11.481804847717285,1.1842353343963623
0.06399999983841553,11.480852127075195,1.198094367980957
0.06440000288421288,11.479887962341309,1.211951494216919
0.06479999865405262,11.478913307189941,1.2258068323135376
0.06520000169984996,11.477927207946777,1.2396602630615234
0.0655999974696897,11.476929664611816,1.253511905670166
0.06600000051548705,11.475921630859375,1.2673616409301758
0.0664000035612844,11.474902153015137,1.2812094688415527
0.06679999933112413,11.473871231079102,1.2950552701950073
0.06720000237692147,11.472829818725586,1.3088992834091187
0.06759999814676121,11.471776962280273,1.3227412700653076
0.06800000119255856,11.47071361541748,1.3365813493728638
0.06839999696239829,11.46963882446289,1.350419521331787
0.06880000000819564,11.468552589416504,1.364255666732788
0.06920000305399299,11.538959503173828,1.3781285285949707
0.06959999882383272,11.617851257324219,1.3920958042144775
0.07000000186963007,11.696732521057129,1.4061579704284668
0.0703999976394698,11.775601387023926,1.420315146446228
0.07080000068526715,11.854459762573242,1.4345670938491821
0.07119999645510688,11.924809455871582,1.44891357421875
0.07159999950090423,11.92364501953125,1.4632965326309204
0.07200000254670158,11.922468185424805,1.4776774644851685
0.07239999831654131,11.921280860900879,1.4920562505722046
0.07280000136233866,11.92008113861084,1.5064327716827393
0.0731999971321784,11.918869972229004,1.5208072662353516
0.07360000017797574,11.917648315429688,1.535179615020752
0.07400000322377309,11.916414260864258,1.5495496988296509
0.07439999899361283,11.915168762207031,1.563917636871338
0.07480000203941017,11.913911819458008,1.5782833099365234
0.07519999780924991,11.912643432617188,1.5926467180252075
0.07560000085504726,11.91136360168457,1.6070079803466797
0.07599999662488699,11.910072326660156,1.6213669776916504
0.07639999967068434,11.908769607543945,1.63572359085083
0.07680000271648169,11.907455444335938,1.6500780582427979
0.07719999848632142,11.906128883361816,1.6644301414489746
0.07760000153211877,11.904791831970215,1.67877995967865
0.0779999973019585,11.903443336486816,1.6931275129318237
0.07840000034775585,11.902082443237305,1.7074726819992065
0.0788000033935532,11.900711059570312,1.7218154668807983
0.07919999916339293,11.899328231811523,1.7361558675765991
0.07960000220919028,11.897933006286621,1.7504938840866089
0.07999999797903001,11.896527290344238,1.7648296356201172
0.08040000102482736,11.895110130310059,1.779162883758545
0.0807999967946671,11.893680572509766,1.7934937477111816
0.08119999984046444,11.892240524291992,1.8078221082687378
0.08160000288626179,11.890788078308105,1.822148084640503
0.08199999865610152,11.889325141906738,1.8364715576171875
0.08240000170189887,11.887849807739258,1.850792646408081
0.0827999974717386,11.88636302947998,1.8651111125946045
0.08320000051753595,11.884865760803223,1.879427194595337
0.0836000035633333,11.883356094360352,1.8937406539916992
0.08399999933317304,11.8818359375,1.9080517292022705
0.08440000237897038,11.880303382873535,1.9223600625991821
0.08479999814881012,11.878759384155273,1.9366660118103027
0.08520000119460747,11.877204895019531,1.9509693384170532
0.0855999969644472,11.875638008117676,1.9652700424194336
0.08600000001024455,11.87406063079834,1.9795681238174438
0.0864000030560419,11.87247085571289,1.9938637018203735
0.08679999882588163,11.870870590209961,2.0081565380096436
0.08720000187167898,11.869257926940918,2.022446870803833
0.08759999764151871,11.867633819580078,2.0367343425750732
0.08800000068731606,11.865999221801758,2.0510194301605225
0.0883999964571558,11.864352226257324,2.0653016567230225
0.08879999950295314,11.86269474029541,2.0795810222625732
0.08920000254875049,11.898064613342285,2.0938682556152344
0.08959999831859022,11.976384162902832,2.1082358360290527
0.09000000136438757,12.054691314697266,2.122697591781616
0.0903999971342273,12.132987976074219,2.137253522872925
0.09080000018002465,12.211272239685059,2.1519036293029785
0.091200003225822,12.246583938598633,2.1666338443756104
0.09159999899566174,12.244845390319824,2.1813716888427734
0.09200000204145908,12.243093490600586,2.1961069107055664
0.09239999781129882,12.241331100463867,2.210839033126831
0.09280000085709617,12.239556312561035,2.2255685329437256
0.0931999966269359,12.237770080566406,2.240294933319092
0.09359999967273325,12.23597240447998,2.255018472671509
0.0940000027185306,12.234162330627441,2.2697391510009766
0.09439999848837033,12.232340812683105,2.284456968307495
0.09480000153416768,12.230506896972656,2.2991719245910645
0.09519999730400741,12.22866153717041,2.3138837814331055
0.09560000034980476,12.226804733276367,2.3285927772521973
0.09600000339560211,12.224936485290527,2.3432986736297607
0.09639999916544184,12.223055839538574,2.358001708984375
0.09680000221123919,12.221163749694824,2.372701644897461
0.09719999798107892,12.219259262084961,2.3873987197875977
0.09760000102687627,12.2173433303833,2.402092695236206
0.097999996796716,12.215415954589844,2.416783571243286
0.09839999984251335,12.213476181030273,2.431471347808838
0.0988000028883107,12.211525917053223,2.4461562633514404
0.09919999865815043,12.209562301635742,2.4608378410339355
0.09960000170394778,12.207588195800781,2.4755165576934814
0.09999999747378752,12.205601692199707,2.49019193649292
0.10040000051958486,12.203603744506836,2.50486421585083
0.10080000356538221,12.201594352722168,2.519533634185791
0.10119999933522195,12.199572563171387,2.5341997146606445
0.1016000023810193,12.197539329528809,2.5488624572753906
0.10199999815085903,12.195494651794434,2.5635223388671875
0.10240000119665638,12.193437576293945,2.578178644180298
0.10279999696649611,12.19136905670166,2.592832088470459
0.10320000001229346,12.189289093017578,2.6074821949005127
0.1036000030580908,12.187196731567383,2.622128963470459
0.10399999882793054,12.185093879699707,2.636772632598877
0.10440000187372789,12.182978630065918,2.6514129638671875
0.10479999764356762,12.180850982666016,2.6660499572753906
0.10520000068936497,12.178712844848633,2.6806838512420654
0.1055999964592047,12.176562309265137,2.6953141689300537
0.10599999950500205,12.174400329589844,2.7099413871765137
0.1064000025507994,12.172225952148438,2.724565029144287
0.10679999832063913,12.17004108428955,2.7391855716705322
0.10720000136643648,12.16784381866455,2.753802537918091
0.10759999713627622,12.165635108947754,2.768416404724121
0.10800000018207356,12.163414001464844,2.783026695251465
0.10840000322787091,12.161182403564453,2.797633409500122
0.10879999899771065,12.15893840789795,2.812237024307251
0.109200002043508,12.160890579223633,2.8268370628356934
0.10959999781334773,12.23862361907959,2.841487407684326
0.11000000085914508,12.316344261169434,2.8562309741973877
0.11039999662898481,12.39405345916748,2.871068239212036
0.11079999967478216,12.471750259399414,2.8859987258911133
0.1112000027205795,12.473644256591797,2.9009792804718018
0.11159999849041924,12.471317291259766,2.915956497192383
0.11200000153621659,12.468978881835938,2.9309301376342773
0.11239999730605632,12.466628074645996,2.9458999633789062
0.11280000035185367,12.464264869689941,2.9608664512634277
0.11320000339765102,12.46189022064209,2.9758293628692627
0.11359999916749075,12.459504127502441,2.990788459777832
0.1140000022132881,12.457104682922363,3.005744218826294
0.11439999798312783,12.454694747924805,3.0206961631774902
0.11480000102892518,12.452272415161133,3.03564453125
0.11519999679876491,12.449837684631348,3.050589084625244
0.11559999984456226,12.447391510009766,3.0655300617218018
0.11600000289035961,12.44493293762207,3.0804672241210938
0.11639999866019934,12.442461967468262,3.095400810241699
0.11680000170599669,12.439979553222656,3.110330581665039
0.11719999747583643,12.437485694885254,3.1252567768096924
0.11760000052163377,12.434979438781738,3.14017915725708
0.11800000356743112,12.432461738586426,3.155097723007202
0.11839999933727086,12.429931640625,3.1700124740600586
0.1188000023830682,12.427389144897461,3.1849234104156494
0.11919999815290794,12.424835205078125,3.1998305320739746
0.11960000119870529,12.422269821166992,3.2147340774536133
0.11999999696854502,12.419692039489746,3.2296335697174072
0.12040000001434237,12.417102813720703,3.2445292472839355
0.12080000306013972,12.414501190185547,3.2594211101531982
0.12119999882997945,12.411887168884277,3.274308919906616
0.1216000018757768,12.409261703491211,3.2891929149627686
0.12199999764561653,12.406624794006348,3.3040730953216553
0.12240000069141388,12.403975486755371,3.3189492225646973
0.12280000373721123,12.401314735412598,3.3338215351104736
0.12320000678300858,12.398641586303711,3.3486897945404053
0.1235999952768907,12.395956039428711,3.363554000854492
0.12399999832268804,12.39326000213623,3.3784143924713135
0.12440000136848539,12.39055061340332,3.39327073097229
0.12480000441428274,12.38783073425293,3.408123016357422
0.12519999290816486,12.38509750366211,3.422971248626709
0.1255999959539622,12.382353782653809,3.4378154277801514
0.12599999899975955,12.379597663879395,3.452655792236328
0.1264000020455569,12.376829147338867,3.467491865158081
0.12680000509135425,12.374049186706543,3.4823238849639893
0.12719999358523637,12.371257781982422,3.4971518516540527
0.12759999663103372,12.368453979492188,3.5119757652282715
0.12799999967683107,12.365638732910156,3.5267953872680664
0.12840000272262841,12.362811088562012,3.5416109561920166
0.12880000576842576,12.35997200012207,3.556422472000122
0.12919999426230788,12.357120513916016,3.5712296962738037
0.12959999730810523,12.419090270996094,3.586064577102661
0.13000000035390258,12.496214866638184,3.6009905338287354
0.13040000339969993,12.573328018188477,3.61600923538208
0.13080000644549727,12.635261535644531,3.6311190128326416
0.1311999949393794,12.632349967956543,3.6462562084198
0.13159999798517674,12.629426956176758,3.6613893508911133
0.1320000010309741,12.626492500305176,3.676517963409424
0.13240000407677144,12.623544692993164,3.6916425228118896
0.1328000071225688,12.620585441589355,3.7067625522613525
0.1331999956164509,12.617613792419434,3.7218782901763916
0.13359999866224825,12.614630699157715,3.736989736557007
0.1340000017080456,12.611635208129883,3.7520968914031982
0.13440000475384295,12.608627319335938,3.767199754714966
0.13479999324772507,12.605607032775879,3.7822980880737305
0.13519999629352242,12.602575302124023,3.797391891479492
0.13559999933931977,12.599531173706055,3.81248140335083
0.1360000023851171,12.596475601196289,3.827566623687744
0.13640000543091446,12.59340763092041,3.8426473140716553
0.13679999392479658,12.590327262878418,3.8577234745025635
0.13719999697059393,12.587235450744629,3.8727951049804688
0.13760000001639128,12.584131240844727,3.88786244392395
0.13800000306218863,12.581014633178711,3.9029250144958496
