time[s],iL[A],v out[V]
0.0,0.0,0.0
0.00040000000467443897,0.0797935202717781,4.823412382393144e-05
0.0008000000093488779,0.159793421626091,0.00019343287567608058
0.0012000000424450263,0.23979318141937256,0.0004355917335487902
0.0016000000186977559,0.3197927176952362,0.000774705782532692
0.0019999999949504854,0.3997919261455536,0.0012107699876651168
0.0024000000848900527,0.47979074716567993,0.0017437791684642434
0.0027999999474559445,0.5597891211509705,0.0023737282026559114
0.0032000000373955118,0.6397868990898132,0.003100611735135317
0.0035999998999614036,0.719784140586853,0.003924424294382334
0.003999999989900971,0.7997806072235107,0.004845160525292158
0.004399999852466863,0.8797763586044312,0.005862814839929342
0.004800000169780105,0.9597712159156799,0.006977381184697151
0.005200000032345997,1.0397651195526123,0.008188853971660137
0.005599999894911889,1.119758129119873,0.00949722807854414
0.006000000212225132,1.1997499465942383,0.010902496054768562
0.0064000000747910235,1.279740571975708,0.012404653243720531
0.006799999937356915,1.3597300052642822,0.014003693126142025
0.007199999799922807,1.4397181272506714,0.015699608251452446
0.00760000011723605,1.5197049379348755,0.017492394894361496
0.007999999979801942,1.5996901988983154,0.019382042810320854
0.008400000297115184,1.6796739101409912,0.02136855013668537
0.008799999704933725,1.7596559524536133,0.023451905697584152
0.009200000022246968,1.8396363258361816,0.025632105767726898
0.00960000033956021,1.9196149110794067,0.027909142896533012
0.009999999747378752,1.999591588973999,0.030283009633421898
0.010400000064691994,2.079566478729248,0.03275369852781296
0.010800000382005237,2.159539222717285,0.035321202129125595
0.011199999789823778,2.2395098209381104,0.03798551857471466
0.01160000010713702,2.3194785118103027,0.04074663296341896
0.012000000424450263,2.399444580078125,0.043604541569948196
0.012399999832268804,2.4794085025787354,0.04655923694372177
0.012800000149582047,2.5593700408935547,0.04961071163415909
0.013199999557400588,2.639329195022583,0.05275895819067955
0.01359999987471383,2.719285726547241,0.05600396543741226
0.014000000192027073,2.7992396354675293,0.059345733374357224
0.014399999599845614,2.879190683364868,0.06278424710035324
0.014799999917158857,2.959139108657837,0.06631949543952942
0.0152000002344721,3.0390846729278564,0.06995148211717606
0.015600000551785342,3.1190271377563477,0.07368019223213196
0.015999999959603883,3.1989667415618896,0.07750561088323593
0.016399999367422424,3.278903007507324,0.08142773807048798
0.01680000059423037,3.3588364124298096,0.0854465663433075
0.01720000000204891,3.4387664794921875,0.08956208825111389
0.01759999940986745,3.518692970275879,0.09377428144216537
0.018000000636675395,3.598616361618042,0.09808315336704254
0.018400000044493936,3.6785361766815186,0.1024886891245842
0.018799999452312477,3.7584524154663086,0.10699087381362915
0.01920000067912042,3.838364839553833,0.1115897074341774
0.019600000086938962,3.918273687362671,0.11628518253564835
0.019999999494757503,3.997972249984741,0.1210772767663002
0.020400000721565448,4.07515287399292,0.125962495803833
0.02080000012938399,4.155050277709961,0.13094426691532135
0.02119999953720253,4.234943389892578,0.1360226422548294
0.021600000764010474,4.31483268737793,0.14119760692119598
0.022000000171829015,4.394717693328857,0.1464691460132599
0.022399999579647556,4.474598407745361,0.15183725953102112
0.0228000008064555,4.554474353790283,0.15730193257331848
0.02320000021427404,4.6343464851379395,0.16286316514015198
0.023599999622092582,4.714213848114014,0.16852091252803802
0.024000000848900527,4.794076919555664,0.174275204539299
0.024400000256719068,4.873935222625732,0.18012602627277374
0.02479999966453761,4.953788757324219,0.18607333302497864
0.025200000891345553,5.033637523651123,0.19211715459823608
0.025600000299164094,5.113481044769287,0.1982574611902237
0.025999999706982635,5.193320274353027,0.20449425280094147
0.026399999114801176,5.273153781890869,0.21082749962806702
0.02680000034160912,5.352982521057129,0.21725720167160034
0.02719999974942766,5.432806491851807,0.22378335893154144
0.027599999157246202,5.512624740600586,0.23040594160556793
0.028000000384054147,5.592437744140625,0.2371249496936798
0.028399999791872688,5.672245025634766,0.24394036829471588
0.02879999919969123,5.752047538757324,0.25085219740867615
0.029200000426499173,5.831843852996826,0.257860392332077
0.029599999834317714,5.911634922027588,0.2649649679660797
0.029999999242136255,5.991419792175293,0.2721659243106842
0.0304000004689442,6.071199417114258,0.2794632315635681
0.030800001695752144,6.150972843170166,0.28685688972473145
0.031200001103570685,6.230740070343018,0.2943468689918518
0.031600000511389226,6.310501575469971,0.3019331693649292
0.03199999991920777,6.390256881713867,0.30961576104164124
0.03239999932702631,6.470006465911865,0.3173946738243103
0.03279999873484485,6.549749374389648,0.3252698481082916
0.0332000017806422,6.629485607147217,0.3332413136959076
0.03360000118846074,6.709216117858887,0.3413090109825134
0.03400000059627928,6.788939952850342,0.3494729697704315
0.03440000000409782,6.868656635284424,0.3577331602573395
0.03479999941191636,6.948367118835449,0.3660895526409149
0.0351999988197349,7.02807092666626,0.3745421767234802
0.03559999822755344,7.1077680587768555,0.383091002702713
0.03600000127335079,7.187458038330078,0.3917359709739685
0.03640000068116933,7.267141342163086,0.4004771411418915
0.03680000008898787,7.346817493438721,0.40931445360183716
0.03719999949680641,7.426486492156982,0.41824790835380554
0.037599998904624954,7.506147861480713,0.42727750539779663
0.037999998312443495,7.5858025550842285,0.43640318512916565
0.03840000135824084,7.665449619293213,0.4456250071525574
0.038800000766059384,7.745089530944824,0.45494288206100464
0.039200000173877925,7.824721813201904,0.46435683965682983
0.039599999581696466,7.904346466064453,0.47386687994003296
0.03999999898951501,7.981243133544922,0.48347288370132446
0.04039999839733355,7.9808526039123535,0.49312320351600647
0.040800001443130895,7.980453968048096,0.5027725696563721
0.041200000850949436,8.039227485656738,0.5124475359916687
0.04160000025876798,8.118813514709473,0.5222151875495911
0.04199999966658652,8.198391914367676,0.5320788621902466
0.04239999907440506,8.277961730957031,0.5420385003089905
0.0427999984822236,8.357523918151855,0.5520941019058228
0.04320000152802095,8.437078475952148,0.5622456073760986
0.04360000093583949,8.516624450683594,0.5724930763244629
0.04400000034365803,8.596162796020508,0.5828364491462708
0.04439999975147657,8.675692558288574,0.5932757258415222
0.04479999915929511,8.755213737487793,0.6038109064102173
0.04519999856711365,8.834726333618164,0.6144419312477112
0.045600001612911,8.914230346679688,0.6251688599586487
0.04600000102072954,8.993725776672363,0.6359915733337402
0.04640000042854808,9.073212623596191,0.6469101309776306
0.046799999836366624,9.152690887451172,0.6579245328903198
0.047199999244185165,9.232159614562988,0.6690346598625183
0.047599998652003706,9.311619758605957,0.6802406311035156
0.048000001697801054,9.391071319580078,0.6915423274040222
0.048400001105619594,9.470513343811035,0.7029398083686829
0.048800000513438135,9.549946784973145,0.714432954788208
0.049199999921256676,9.62937068939209,0.7260218858718872
0.04959999932907522,9.708785057067871,0.7377064824104309
0.04999999873689376,9.788189888000488,0.7494868040084839
0.050400001782691106,9.867586135864258,0.7613627910614014
0.05080000119050965,9.946971893310547,0.7733343839645386
0.05120000059832819,10.026348114013672,0.7854016423225403
0.05160000000614673,10.10571575164795,0.7975645065307617
0.05199999941396527,10.18507194519043,0.8098229765892029
0.05239999882178381,10.264419555664062,0.8221770524978638
0.05279999822960235,10.343756675720215,0.8346267342567444
0.0532000012753997,10.423084259033203,0.8471719026565552
0.05360000068321824,10.502401351928711,0.8598126173019409
0.05400000009103678,10.581707954406738,0.8725488781929016
0.05439999949885532,10.661005020141602,0.8853806257247925
0.054799998906673864,10.740291595458984,0.8983078598976135
0.055199998314492404,10.819567680358887,0.9113305807113647
0.05560000136028975,10.898833274841309,0.9244487881660461
0.05600000076810829,10.97808837890625,0.9376623630523682
0.056400000175926834,11.057332992553711,0.9509713649749756
0.056799999583745375,11.136567115783691,0.9643757939338684
0.057199998991563916,11.215790748596191,0.9778755903244019
0.05759999839938246,11.295002937316895,0.9914707541465759
0.058000001445179805,11.3742036819458,1.0051612854003906
0.058400000852998346,11.453393936157227,1.0189471244812012
0.05880000026081689,11.532573699951172,1.0328282117843628
0.05919999966863543,11.590920448303223,1.0468014478683472
0.05959999907645397,11.59007740020752,1.060799479484558
0.05999999848427251,11.589223861694336,1.0747957229614258
0.06040000153006986,11.588358879089355,1.0887902975082397
0.0608000009378884,11.587481498718262,1.1027830839157104
0.06120000034570694,11.586593627929688,1.1167742013931274
0.06160000339150429,11.585695266723633,1.1307635307312012
0.06199999916134402,11.584784507751465,1.1447510719299316
0.06240000220714137,11.583863258361816,1.1587368249893188
0.0627999979769811,11.582930564880371,1.1727207899093628
0.06320000102277845,11.581987380981445,1.1867029666900635
0.06359999679261819,11.581031799316406,1.2006832361221313
0.06399999983841553,11.580065727233887,1.214661717414856
0.06440000288421288,11.57908821105957,1.2286384105682373
0.06479999865405262,11.578100204467773,1.2426130771636963
0.06520000169984996,11.57710075378418,1.256585955619812
0.0655999974696897,11.576089859008789,1.270556926727295
0.06600000051548705,11.575067520141602,1.284525990486145
0.0664000035612844,11.574034690856934,1.2984931468963623
0.06679999933112413,11.572989463806152,1.3124583959579468
0.06720000237692147,11.571934700012207,1.3264216184616089
0.06759999814676121,11.570867538452148,1.3403829336166382
0.06800000119255856,11.56978988647461,1.3543422222137451
0.06839999696239829,11.568700790405273,1.3682996034622192
0.06880000000819564,11.56760025024414,1.382254958152771
0.06920000305399299,11.566489219665527,1.3962081670761108
0.06959999882383272,11.602412223815918,1.4101698398590088
0.07000000186963007,11.681278228759766,1.4242124557495117
0.0703999976394698,11.760133743286133,1.438349962234497
0.07080000068526715,11.796022415161133,1.4525684118270874
0.07119999645510688,11.794855117797852,1.4667952060699463
0.07159999950090423,11.793676376342773,1.4810197353363037
0.07200000254670158,11.792485237121582,1.4952422380447388
0.07239999831654131,11.79128360748291,1.509462594985962
0.07280000136233866,11.790070533752441,1.5236808061599731
0.0731999971321784,11.788846015930176,1.5378968715667725
0.07360000017797574,11.787610054016113,1.5521106719970703
0.07400000322377309,11.786362648010254,1.5663223266601562
0.07439999899361283,11.785103797912598,1.5805318355560303
0.07480000203941017,11.783833503723145,1.5947390794754028
0.07519999780924991,11.782551765441895,1.608944058418274
0.07560000085504726,11.781259536743164,1.6231467723846436
0.07599999662488699,11.77995491027832,1.6373473405838013
0.07639999967068434,11.778639793395996,1.651545524597168
0.07680000271648169,11.777312278747559,1.6657414436340332
0.07719999848632142,11.77597427368164,1.6799349784851074
0.07760000153211877,11.774624824523926,1.6941263675689697
0.0779999973019585,11.773263931274414,1.7083152532577515
0.07840000034775585,11.771891593933105,1.7225018739700317
0.0788000033935532,11.7705078125,1.736686110496521
0.07919999916339293,11.769112586975098,1.7508680820465088
0.07960000220919028,11.767705917358398,1.765047550201416
0.07999999797903001,11.766288757324219,1.7792246341705322
0.08040000102482736,11.764860153198242,1.7933993339538574
0.0807999967946671,11.763419151306152,1.8075716495513916
0.08119999984046444,11.761967658996582,1.8217414617538452
0.08160000288626179,11.760504722595215,1.8359087705612183
0.08199999865610152,11.75903034210205,1.8500736951828003
0.08240000170189887,11.75754451751709,1.8642361164093018
0.0827999974717386,11.756047248840332,1.8783960342407227
0.08320000051753595,11.754538536071777,1.892553448677063
0.0836000035633333,11.753019332885742,1.9067083597183228
0.08399999933317304,11.75148868560791,1.920860767364502
0.08440000237897038,11.749945640563965,1.935010552406311
0.08479999814881012,11.748392105102539,1.9491578340530396
0.08520000119460747,11.746827125549316,1.963302493095398
0.0855999969644472,11.745250701904297,1.9774446487426758
0.08600000001024455,11.743663787841797,1.991584062576294
0.0864000030560419,11.742064476013184,2.005720853805542
0.08679999882588163,11.740453720092773,2.019855260848999
0.08720000187167898,11.738832473754883,2.033986806869507
0.08759999764151871,11.737199783325195,2.0481157302856445
0.08800000068731606,11.735555648803711,2.062242031097412
0.0883999964571558,11.73390007019043,2.0763657093048096
0.08879999950295314,11.781373977661133,2.0905048847198486
0.08920000254875049,11.859696388244629,2.1047310829162598
0.08959999831859022,11.938006401062012,2.119051456451416
0.09000000136438757,12.016305923461914,2.1334662437438965
0.0903999971342273,12.094593048095703,2.147974967956543
0.09080000018002465,12.172868728637695,2.1625781059265137
0.091200003225822,12.25113296508789,2.1772751808166504
0.09159999899566174,12.2985258102417,2.1920595169067383
0.09200000204145908,12.29676628112793,2.2068591117858887
0.09239999781129882,12.294995307922363,2.22165584564209
0.09280000085709617,12.293211936950684,2.236449718475342
0.0931999966269359,12.291417121887207,2.2512407302856445
0.09359999967273325,12.289609909057617,2.266028642654419
0.0940000027185306,12.28779125213623,2.2808139324188232
0.09439999848837033,12.28596019744873,2.295596122741699
0.09480000153416768,12.284117698669434,2.310375452041626
0.09519999730400741,12.28226375579834,2.3251516819000244
0.09560000034980476,12.280397415161133,2.3399250507354736
0.09600000339560211,12.278519630432129,2.3546955585479736
0.09639999916544184,12.276630401611328,2.3694629669189453
0.09680000221123919,12.274728775024414,2.3842272758483887
0.09719999798107892,12.272815704345703,2.398988723754883
0.09760000102687627,12.270890235900879,2.4137468338012695
0.097999996796716,12.268953323364258,2.428502082824707
0.09839999984251335,12.26700496673584,2.443254232406616
0.0988000028883107,12.265044212341309,2.458003520965576
0.09919999865815043,12.26307201385498,2.4727494716644287
0.09960000170394778,12.261088371276855,2.487492322921753
0.09999999747378752,12.259092330932617,2.502232074737549
0.10040000051958486,12.257084846496582,2.5169687271118164
0.10080000356538221,12.255064964294434,2.5317020416259766
0.10119999933522195,12.253033638000488,2.5464324951171875
0.1016000023810193,12.250990867614746,2.561159610748291
0.10199999815085903,12.24893569946289,2.575883388519287
0.10240000119665638,12.246869087219238,2.590604066848755
0.10279999696649611,12.244791030883789,2.6053216457366943
0.10320000001229346,12.242700576782227,2.6200358867645264
0.1036000030580908,12.240598678588867,2.634746789932251
0.10399999882793054,12.238485336303711,2.6494545936584473
0.10440000187372789,12.236359596252441,2.664159059524536
0.10479999764356762,12.234222412109375,2.6788601875305176
0.10520000068936497,12.232073783874512,2.6935579776763916
0.1055999964592047,12.229912757873535,2.708252429962158
0.10599999950500205,12.227740287780762,2.7229435443878174
0.1064000025507994,12.225556373596191,2.737631320953369
0.10679999832063913,12.223360061645508,2.7523157596588135
0.10720000136643648,12.221152305603027,2.7669968605041504
0.10759999713627622,12.21893310546875,2.78167462348938
0.10800000018207356,12.21670150756836,2.796348810195923
0.10840000322787091,12.214459419250488,2.8110196590423584
0.10879999899771065,12.212203979492188,2.8256869316101074
0.109200002043508,12.249250411987305,2.840362548828125
0.10959999781334773,12.326972007751465,2.855119228363037
0.11000000085914508,12.404682159423828,2.869969367980957
0.11039999662898481,12.482380867004395,2.8849129676818848
0.11079999967478216,12.560066223144531,2.899949789047241
0.1112000027205795,12.597053527832031,2.915067672729492
0.11159999849041924,12.594715118408203,2.9301939010620117
0.11200000153621659,12.592365264892578,2.9453163146972656
0.11239999730605632,12.59000301361084,2.960435152053833
0.11280000035185367,12.587628364562988,2.975550413131714
0.11320000339765102,12.585241317749023,2.990662097930908
0.11359999916749075,12.582842826843262,3.005770206451416
0.1140000022132881,12.580432891845703,3.020874500274658
0.11439999798312783,12.578009605407715,3.035975217819214
0.11480000102892518,12.57557487487793,3.051072120666504
0.11519999679876491,12.573127746582031,3.0661654472351074
0.11559999984456226,12.570669174194336,3.0812551975250244
0.11600000289035961,12.568198204040527,3.096341133117676
0.11639999866019934,12.565714836120605,3.1114232540130615
0.11680000170599669,12.563220024108887,3.1265017986297607
0.11719999747583643,12.560712814331055,3.1415762901306152
0.11760000052163377,12.55819320678711,3.156647205352783
0.11800000356743112,12.555662155151367,3.1717143058776855
0.11839999933727086,12.553118705749512,3.1867775917053223
0.1188000023830682,12.550562858581543,3.2018370628356934
0.11919999815290794,12.547995567321777,3.216892719268799
0.11960000119870529,12.545415878295898,3.2319445610046387
0.11999999696854502,12.542824745178223,3.246992588043213
0.12040000001434237,12.540221214294434,3.2620365619659424
0.12080000306013972,12.537605285644531,3.2770767211914062
0.12119999882997945,12.534977912902832,3.2921130657196045
0.1216000018757768,12.53233814239502,3.307145357131958
0.12199999764561653,12.529685974121094,3.322173833847046
0.12240000069141388,12.527022361755371,3.337198257446289
0.12280000373721123,12.524347305297852,3.3522186279296875
0.12320000678300858,12.521658897399902,3.3672351837158203
0.1235999952768907,12.518959045410156,3.3822476863861084
0.12399999832268804,12.516247749328613,3.3972561359405518
0.12440000136848539,12.513524055480957,3.4122607707977295
0.12480000441428274,12.510787963867188,3.4272611141204834
0.12519999290816486,12.508040428161621,3.4422576427459717
0.1255999959539622,12.505280494689941,3.457249879837036
0.12599999899975955,12.502508163452148,3.472238063812256
0.1264000020455569,12.499724388122559,3.487222194671631
0.12680000509135425,12.496929168701172,3.502202272415161
0.12719999358523637,12.494121551513672,3.5171782970428467
0.12759999663103372,12.491301536560059,3.5321500301361084
0.12799999967683107,12.488470077514648,3.5471177101135254
0.12840000272262841,12.485626220703125,3.5620810985565186
0.12880000576842576,12.482769966125488,3.577040433883667
0.12919999426230788,12.479903221130371,3.5919954776763916
0.12959999730810523,12.54212474822998,3.60697865486145
0.13000000035390258,12.619234085083008,3.6220526695251465
0.13040000339969993,12.696330070495605,3.6372194290161133
0.13080000644549727,12.758516311645508,3.652477264404297
0.1311999949393794,12.755587577819824,3.6677627563476562
0.13159999798517674,12.752647399902344,3.683044195175171
0.1320000010309741,12.74969482421875,3.6983211040496826
0.13240000407677144,12.746729850769043,3.7135939598083496
0.1328000071225688,12.743753433227539,3.7288622856140137
0.1331999956164509,12.740764617919922,3.744126319885254
0.13359999866224825,12.737762451171875,3.759385824203491
0.1340000017080456,12.734748840332031,3.7746410369873047
0.13440000475384295,12.73172378540039,3.7898919582366943
0.13479999324772507,12.72868537902832,3.805138349533081
0.13519999629352242,12.725635528564453,3.820380449295044
0.13559999933931977,12.722572326660156,3.835618019104004
0.1360000023851171,12.719497680664062,3.850851058959961
0.13640000543091446,12.716411590576172,3.866079568862915
0.13679999392479658,12.713312149047852,3.8813037872314453
0.13719999697059393,12.710201263427734,3.8965234756469727
0.13760000001639128,12.707077980041504,3.911738634109497
0.13800000306218863,12.70394229888916,3.9269492626190186
