time[s],iL[A],v out[V]
0.0,0.0,0.0
0.00040000000467443897,0.0,0.0
0.0008000000093488779,0.0,0.0
0.0012000000424450263,0.0,0.0
0.0016000000186977559,0.0,0.0
0.0019999999949504854,0.0,0.0
0.0024000000848900527,0.0,0.0
0.0027999999474559445,0.0,0.0
0.0032000000373955118,0.0,0.0
0.0035999998999614036,0.0,0.0
0.003999999989900971,0.0,0.0
0.004399999852466863,0.0,0.0
0.004800000169780105,0.0,0.0
0.005200000032345997,0.0,0.0
0.005599999894911889,0.0,0.0
0.006000000212225132,0.0,0.0
0.0064000000747910235,0.0,0.0
0.006799999937356915,0.0,0.0
0.007199999799922807,0.0,0.0
0.00760000011723605,0.0,0.0
0.007999999979801942,0.0,0.0
0.008400000297115184,0.0,0.0
0.008799999704933725,0.0,0.0
0.009200000022246968,0.002785530174151063,5.878159470285027e-08
0.00960000033956021,0.08278551697731018,5.191915624891408e-05
0.009999999747378752,0.16278542578220367,0.00020074431085959077
0.010400000064691994,0.24278517067432404,0.0004465293895918876
0.010800000382005237,0.3227846920490265,0.0007892694557085633
0.011199999789823778,0.32556942105293274,0.0011837929487228394
0.01160000010713702,0.3255683183670044,0.00157835497520864
0.012000000424450263,0.3255668878555298,0.0019728962797671556
0.012399999832268804,0.3255651593208313,0.0023674166295677423
0.012800000149582047,0.32556310296058655,0.002761915558949113
0.013199999557400588,0.3255607485771179,0.00315639260224998
0.01359999987471383,0.325558066368103,0.0035508475266397
0.014000000192027073,0.32555505633354187,0.0039452798664569855
0.014399999599845614,0.32555174827575684,0.004339688923209906
0.014799999917158857,0.32554811239242554,0.004734075162559748
0.0152000002344721,0.32554417848587036,0.005128437653183937
0.015600000551785342,0.3255399167537689,0.0055227759294211864
0.015999999959603883,0.3255353271961212,0.0059170895256102085
0.016399999367422424,0.32553043961524963,0.006311378441751003
0.01680000059423037,0.3255252242088318,0.006705642212182283
0.01720000000204891,0.32551971077919006,0.007099879905581474
0.01759999940986745,0.3255138695240021,0.007494091987609863
0.018000000636675395,0.3255077302455902,0.007888277992606163
0.018400000044493936,0.3255012631416321,0.008282436989247799
0.018799999452312477,0.3254944682121277,0.008676568046212196
0.01920000067912042,0.3254873752593994,0.009070673026144505
0.019600000086938962,0.3254799544811249,0.009464749135077
0.019999999494757503,0.32547223567962646,0.009858797304332256
0.020400000721565448,0.3254641890525818,0.0102528166025877
0.02080000012938399,0.32545584440231323,0.01064680702984333
0.02119999953720253,0.325447142124176,0.011040767654776573
0.021600000764010474,0.32543817162513733,0.011434699408710003
0.022000000171829015,0.32542887330055237,0.01182860042899847
0.022399999579647556,0.32541924715042114,0.012222470715641975
0.0228000008064555,0.32540929317474365,0.012616310268640518
0.02320000021427404,0.3253990411758423,0.013010118156671524
0.023599999622092582,0.32538849115371704,0.013403894379734993
0.024000000848900527,0.32537761330604553,0.013797638937830925
0.024400000256719068,0.32536640763282776,0.014191350899636745
0.02479999966453761,0.3253549039363861,0.01458502933382988
0.025200000891345553,0.3253430724143982,0.014978675171732903
0.025600000299164094,0.3253309428691864,0.01537228748202324
0.025999999706982635,0.32531848549842834,0.01576586626470089
0.026399999114801176,0.325305700302124,0.016159409657120705
0.02680000034160912,0.3252926170825958,0.016552917659282684
0.02719999974942766,0.32527923583984375,0.016946392133831978
0.027599999157246202,0.325265496969223,0.017339831218123436
0.028000000384054147,0.3252514898777008,0.01773323304951191
0.028399999791872688,0.32523712515830994,0.018126599490642548
0.02879999919969123,0.3252224922180176,0.0185199286788702
0.029200000426499173,0.32520750164985657,0.01891322061419487
0.029599999834317714,0.3933200538158417,0.019341638311743736
0.029999999242136255,0.4733043909072876,0.019865915179252625
0.0304000004689442,0.5532882809638977,0.020487114787101746
0.030800001695752144,0.621399462223053,0.021204164251685143
0.031200001103570685,0.6213821768760681,0.021956318989396095
0.031600000511389226,0.6213642954826355,0.022708415985107422
0.03199999991920777,0.6213458180427551,0.023460453376173973
0.03239999932702631,0.621326744556427,0.024212433025240898
0.03279999873484485,0.6213070750236511,0.024964353069663048
0.0332000017806422,0.6212868094444275,0.025716211646795273
0.03360000118846074,0.6212659478187561,0.026468008756637573
0.03400000059627928,0.621244490146637,0.02721974439918995
0.03440000000409782,0.6212223768234253,0.02797141671180725
0.03479999941191636,0.6211997270584106,0.02872302383184433
0.0351999988197349,0.6211764216423035,0.029474569484591484
0.03559999822755344,0.6211525797843933,0.030226048082113266
0.03600000127335079,0.6211280822753906,0.030977461487054825
0.03640000068116933,0.6211029887199402,0.03172880783677101
0.03680000008898787,0.621077299118042,0.032480090856552124
0.03719999949680641,0.621051013469696,0.033231303095817566
0.037599998904624954,0.6210241317749023,0.03398244455456734
0.037999998312443495,0.6209966540336609,0.034733518958091736
0.03840000135824084,0.6209685802459717,0.035484522581100464
0.038800000766059384,0.6209399104118347,0.03623545542359352
0.039200000173877925,0.6209105849266052,0.03698631748557091
0.039599999581696466,0.6208807229995728,0.03773710876703262
0.03999999898951501,0.6208502054214478,0.03848782554268837
0.04039999839733355,0.620819091796875,0.03923846781253815
0.040800001443130895,0.6207874417304993,0.039989035576581955
0.041200000850949436,0.620755136013031,0.040739528834819794
0.04160000025876798,0.620722234249115,0.04148994758725166
0.04199999966658652,0.6206887364387512,0.042240288108587265
0.04239999907440506,0.6206546425819397,0.0429905503988266
0.0427999984822236,0.6206199526786804,0.043740734457969666
0.04320000152802095,0.6205846667289734,0.044490840286016464
0.04360000093583949,0.6205487847328186,0.045240867882966995
0.04400000034365803,0.6205123066902161,0.04599081352353096
0.04439999975147657,0.620475172996521,0.04674068093299866
0.04479999915929511,0.620437502861023,0.04749046638607979
0.04519999856711365,0.6203992366790771,0.048240166157484055
0.045600001612911,0.6203603148460388,0.048989783972501755
0.04600000102072954,0.6203207969665527,0.04973931983113289
0.04640000042854808,0.6202807426452637,0.05048877000808716
0.046799999836366624,0.6202400326728821,0.05123813450336456
0.047199999244185165,0.6201987266540527,0.0519874133169651
0.047599998652003706,0.6201568841934204,0.05273660644888878
0.048000001697801054,0.6201143860816956,0.05348571017384529
0.048400001105619594,0.620071291923523,0.05423472449183464
0.048800000513438135,0.6200276017189026,0.054983653128147125
0.049199999921256676,0.6199833154678345,0.05573249235749245
0.04959999932907522,0.6757549047470093,0.05650484189391136
0.04999999873689376,0.7557093501091003,0.05736963450908661
0.050400001782691106,0.8356630802154541,0.05833129957318306
0.05080000119050965,0.8914324045181274,0.05938539654016495
0.05120000059832819,0.891384482383728,0.060462985187768936
0.05160000000614673,0.891335666179657,0.06154046207666397
0.05199999941396527,0.8912860155105591,0.06261783093214035
0.05239999882178381,0.8912355303764343,0.06369508802890778
0.05279999822960235,0.8911840915679932,0.06477222591638565
0.0532000012753997,0.8911318778991699,0.06584925204515457
0.05360000068321824,0.891078770160675,0.06692615896463394
0.05400000009103678,0.8910247683525085,0.06800295412540436
0.05439999949885532,0.8909699320793152,0.06907962262630463
0.054799998906673864,0.890914261341095,0.07015617936849594
0.055199998314492404,0.8908576965332031,0.07123260945081711
0.05560000136028975,0.8908002972602844,0.07230892777442932
0.05600000076810829,0.8907420039176941,0.07338511943817139
0.056400000175926834,0.8906828761100769,0.0744611844420433
0.056799999583745375,0.8906228542327881,0.07553713023662567
0.057199998991563916,0.8905619978904724,0.0766129419207573
0.05759999839938246,0.8905003070831299,0.07768863439559937
0.058000001445179805,0.8904377222061157,0.07876420021057129
0.058400000852998346,0.8903742432594299,0.07983963191509247
0.05880000026081689,0.8903099894523621,0.0809149369597435
0.05919999966863543,0.8902447819709778,0.08199011534452438
0.05959999907645397,0.8901787996292114,0.08306515961885452
0.05999999848427251,0.8901119232177734,0.08414006978273392
0.06040000153006986,0.8900441527366638,0.08521484583616257
0.0608000009378884,0.8899756073951721,0.08628948777914047
0.06120000034570694,0.889906108379364,0.08736399561166763
0.06160000339150429,0.889835774898529,0.08843836188316345
0.06199999916134402,0.8897646069526672,0.08951259404420853
0.06240000220714137,0.8896926045417786,0.09058669209480286
0.0627999979769811,0.8896196484565735,0.09166064113378525
0.06320000102277845,0.8895459175109863,0.0927344560623169
0.06359999679261819,0.8894712924957275,0.0938081219792366
0.06399999983841553,0.8893958330154419,0.09488165378570557
0.06440000288421288,0.8893194794654846,0.09595503658056259
0.06479999865405262,0.8892422914505005,0.09702827036380768
0.06520000169984996,0.8891642689704895,0.09810136258602142
0.0655999974696897,0.8890853524208069,0.09917431324720383
0.06600000051548705,0.8890055418014526,0.1002471074461937
0.0664000035612844,0.8889249563217163,0.10131975263357162
0.06679999933112413,0.8888434767723083,0.10239224880933762
0.06720000237692147,0.8887611031532288,0.10346459597349167
0.06759999814676121,0.8886778950691223,0.10453678667545319
0.06800000119255856,0.888593852519989,0.10560882836580276
0.06839999696239829,0.8885089159011841,0.10668071359395981
0.06880000000819564,0.8884231448173523,0.10775244235992432
0.06920000305399299,0.8883365392684937,0.10882402211427689
0.06959999882383272,0.9280850887298584,0.10990745574235916
0.07000000186963007,1.007996678352356,0.11107548326253891
0.0703999976394698,1.087907314300537,0.11234031617641449
0.07080000068526715,1.1276530027389526,0.11368972063064575
0.07119999645510688,1.1275614500045776,0.11505097150802612
0.07159999950090423,1.1274688243865967,0.11641204357147217
0.07200000254670158,1.1273752450942993,0.11777293682098389
0.07239999831654131,1.1272804737091064,0.11913365125656128
0.07280000136233866,1.1271846294403076,0.12049418687820435
0.0731999971321784,1.1270875930786133,0.12185453623533249
0.07360000017797574,1.1269896030426025,0.1232147067785263
0.07400000322377309,1.1268905401229858,0.1245746836066246
0.07439999899361283,1.1267902851104736,0.12593448162078857
0.07480000203941017,1.1266889572143555,0.12729409337043762
0.07519999780924991,1.126586675643921,0.12865349650382996
0.07560000085504726,1.1264832019805908,0.13001273572444916
0.07599999662488699,1.1263786554336548,0.13137176632881165
0.07639999967068434,1.1262729167938232,0.1327306032180786
0.07680000271648169,1.1261662244796753,0.13408924639225006
0.07719999848632142,1.1260584592819214,0.135447695851326
0.07760000153211877,1.125949501991272,0.1368059515953064
0.0779999973019585,1.1258395910263062,0.13816401362419128
0.07840000034775585,1.1257284879684448,0.13952186703681946
0.0788000033935532,1.1256163120269775,0.14087951183319092
0.07919999916339293,1.1255030632019043,0.14223696291446686
0.07960000220919028,1.125388741493225,0.14359422028064728
0.07999999797903001,1.12527334690094,0.1449512541294098
0.08040000102482736,1.1251568794250488,0.14630809426307678
0.0807999967946671,1.1250392198562622,0.14766472578048706
0.08119999984046444,1.1249206066131592,0.14902113378047943
0.08160000288626179,1.1248008012771606,0.15037734806537628
0.08199999865610152,1.1246799230575562,0.15173335373401642
0.08240000170189887,1.1245580911636353,0.15308913588523865
0.0827999974717386,1.1244350671768188,0.15444470942020416
0.08320000051753595,1.1243109703063965,0.15580005943775177
0.0836000035633333,1.1241858005523682,0.15715520083904266
0.08399999933317304,1.1240594387054443,0.15851011872291565
0.08440000237897038,1.123932123184204,0.15986481308937073
0.08479999814881012,1.123803734779358,0.1612192988395691
0.08520000119460747,1.1236741542816162,0.16257356107234955
0.0855999969644472,1.123543620109558,0.1639275848865509
0.08600000001024455,1.1234118938446045,0.16528140008449554
0.0864000030560419,1.123279094696045,0.16663499176502228
0.08679999882588163,1.123145341873169,0.1679883450269699
0.08720000187167898,1.1230103969573975,0.16934147477149963
0.08759999764151871,1.12287437915802,0.17069436609745026
0.08800000068731606,1.1227372884750366,0.17204703390598297
0.0883999964571558,1.1225990056991577,0.17339947819709778
0.08879999950295314,1.1224597692489624,0.17475168406963348
0.08920000254875049,1.1223194599151611,0.1761036515235901
0.08959999831859022,1.1469218730926514,0.17746001482009888
0.09000000136438757,1.2267793416976929,0.17888997495174408
0.0903999971342273,1.3066356182098389,0.18041667342185974
0.09080000018002465,1.3312344551086426,0.18201695382595062
0.091200003225822,1.3310881853103638,0.1836216151714325
0.09159999899566174,1.3309407234191895,0.18522602319717407
0.09200000204145908,1.3307918310165405,0.18683017790317535
0.09239999781129882,1.330641746520996,0.18843407928943634
0.09280000085709617,1.3304903507232666,0.19003771245479584
0.0931999966269359,1.3303377628326416,0.19164107739925385
0.09359999967273325,1.330183744430542,0.19324418902397156
0.0940000027185306,1.3300285339355469,0.19484703242778778
0.09439999848837033,1.3298720121383667,0.19644960761070251
0.09480000153416768,1.3297141790390015,0.19805191457271576
0.09519999730400741,1.3295551538467407,0.19965393841266632
0.09560000034980476,1.3293946981430054,0.2012557089328766
0.09600000339560211,1.3292330503463745,0.20285721123218536
0.09639999916544184,1.3290702104568481,0.20445841550827026
0.09680000221123919,1.3289059400558472,0.20605936646461487
0.09719999798107892,1.3287404775619507,0.2076600342988968
0.09760000102687627,1.3285737037658691,0.20926041901111603
0.097999996796716,1.3284056186676025,0.21086052060127258
0.09839999984251335,1.3282363414764404,0.21246035397052765
0.0988000028883107,1.3280657529830933,0.21405988931655884
0.09919999865815043,1.327893853187561,0.21565914154052734
0.09960000170394778,1.3277206420898438,0.21725811064243317
0.09999999747378752,1.327546238899231,0.2188567966222763
0.10040000051958486,1.327370524406433,0.22045518457889557
0.10080000356538221,1.3271934986114502,0.22205328941345215
0.10119999933522195,1.3270152807235718,0.22365109622478485
0.1016000023810193,1.3268356323242188,0.22524860501289368
0.10199999815085903,1.3266547918319702,0.22684581577777863
0.10240000119665638,1.3264727592468262,0.2284427434206009
0.10279999696649611,1.3262892961502075,0.23003935813903809
0.10320000001229346,1.3261046409606934,0.2316356748342514
0.1036000030580908,1.3259186744689941,0.23323169350624084
0.10399999882793054,1.3257315158843994,0.2348274141550064
0.10440000187372789,1.32554292678833,0.2364228218793869
0.10479999764356762,1.3253532648086548,0.23801791667938232
0.10520000068936497,1.3251621723175049,0.23961271345615387
0.1055999964592047,1.32496976852417,0.24120719730854034
0.10599999950500205,1.3247761726379395,0.24280136823654175
0.1064000025507994,1.3245813846588135,0.24439524114131927
0.10679999832063913,1.324385166168213,0.24598878622055054
0.10720000136643648,1.3241877555847168,0.24758201837539673
0.10759999713627622,1.3239890336990356,0.24917492270469666
0.10800000018207356,1.323789119720459,0.2507675290107727
0.10840000322787091,1.3235877752304077,0.2523598074913025
0.10879999899771065,1.3233853578567505,0.253951758146286
0.109200002043508,1.3231815099716187,0.25554338097572327
0.10959999781334773,1.3359137773513794,0.25713595747947693
0.11000000085914508,1.4157073497772217,0.25879108905792236
0.11039999662898481,1.495499610900879,0.2605428695678711
0.11079999967478216,1.508227825164795,0.2623572051525116
0.1112000027205795,1.5080171823501587,0.2641724646091461
0.11159999849041924,1.5078051090240479,0.2659873962402344
0.11200000153621659,1.5075916051864624,0.267801970243454
0.11239999730605632,1.5073765516281128,0.26961618661880493
0.11280000035185367,1.5071601867675781,0.27143004536628723
0.11320000339765102,1.5069422721862793,0.27324357628822327
0.11359999916749075,1.5067230463027954,0.27505674958229065
0.1140000022132881,1.5065022706985474,0.2768695652484894
0.11439999798312783,1.5062800645828247,0.27868202328681946
0.11480000102892518,1.506056308746338,0.2804941236972809
0.11519999679876491,1.505831241607666,0.28230586647987366
0.11559999984456226,1.50560462474823,0.2841172516345978
0.11600000289035961,1.5053765773773193,0.28592827916145325
0.11639999866019934,1.5051472187042236,0.2877389192581177
0.11680000170599669,1.5049161911010742,0.28954923152923584
0.11719999747583643,1.5046838521957397,0.2913591265678406
0.11760000052163377,1.5044500827789307,0.29316869378089905
0.11800000356743112,1.5042147636413574,0.2949778735637665
0.11839999933727086,1.5039781332015991,0.29678666591644287
0.1188000023830682,1.5037399530410767,0.2985951006412506
0.11919999815290794,1.5035003423690796,0.3004031479358673
0.11960000119870529,1.503259301185608,0.30221080780029297
0.11999999696854502,1.5030168294906616,0.3040180802345276
0.12040000001434237,1.5027729272842407,0.30582499504089355
0.12080000306013972,1.5025274753570557,0.3076315224170685
0.12119999882997945,1.5022807121276855,0.30943763256073
0.1216000018757768,1.5020323991775513,0.3112433850765228
0.12199999764561653,1.5017826557159424,0.31304875016212463
0.12240000069141388,1.5015314817428589,0.3148537278175354
0.12280000373721123,1.5012788772583008,0.31665828824043274
0.12320000678300858,1.501024842262268,0.3184624910354614
0.1235999952768907,1.5007693767547607,0.3202662765979767
0.12399999832268804,1.5005124807357788,0.3220696449279785
0.12440000136848539,1.5002540349960327,0.3238726556301117
0.12480000441428274,1.4999942779541016,0.32567521929740906
0.12519999290816486,1.4997329711914062,0.3274773955345154
0.1255999959539622,1.4994702339172363,0.32927918434143066
0.12599999899975955,1.4992061853408813,0.3310805559158325
0.1264000020455569,1.4989405870437622,0.33288151025772095
0.12680000509135425,1.4986735582351685,0.33468207716941833
0.12719999358523637,1.4984050989151,0.3364822268486023
0.12759999663103372,1.4981352090835571,0.33828192949295044
0.12799999967683107,1.49786376953125,0.34008124470710754
0.12840000272262841,1.4975910186767578,0.3418801426887512
0.12880000576842576,1.497316837310791,0.34367862343788147
0.12919999426230788,1.49704110622406,0.3454766869544983
0.12959999730810523,1.5010557174682617,0.34727445244789124
0.13000000035390258,1.5807771682739258,0.34912535548210144
0.13040000339969993,1.6604970693588257,0.3510727882385254
0.13080000644549727,1.6645071506500244,0.3530733287334442
0.1311999949393794,1.6642239093780518,0.35507357120513916
0.13159999798517674,1.6639389991760254,0.3570733666419983
0.1320000010309741,1.6636525392532349,0.359072744846344
0.13240000407677144,1.6633645296096802,0.3610716462135315
0.1328000071225688,1.6630748510360718,0.36307013034820557
0.1331999956164509,1.6627836227416992,0.36506813764572144
0.13359999866224825,1.662490725517273,0.3670657277107239
0.1340000017080456,1.6621962785720825,0.3690628409385681
0.13440000475384295,1.661900281906128,0.37105950713157654
0.13479999324772507,1.6616026163101196,0.37305569648742676
0.13519999629352242,1.6613034009933472,0.37505143880844116
0.13559999933931977,1.661002516746521,0.37704673409461975
0.1360000023851171,1.6607000827789307,0.37904155254364014
0.13640000543091446,1.6603960990905762,0.3810359239578247
0.13679999392479658,1.660090446472168,0.3830298185348511
0.13719999697059393,1.6597832441329956,0.38502323627471924
0.13760000001639128,1.6594743728637695,0.3870161771774292
0.13800000306218863,1.6591639518737793,0.38900867104530334
0.13840000610798597,1.658851981163025,0.3910006880760193
0.1387999946018681,1.6585383415222168,0.392992228269577
0.13919999764766544,1.6582231521606445,0.3949832618236542
0.1396000006934628,1.657906413078308,0.3969738483428955
0.14000000373926014,1.657588005065918,0.39896395802497864
