time[s],iL[A],v out[V]
0.0,0.0,0.0
0.00040000000467443897,0.0,0.0
0.0008000000093488779,0.0,0.0
0.0012000000424450263,0.0,0.0
0.0016000000186977559,0.0,0.0
0.0019999999949504854,0.0,0.0
0.0024000000848900527,0.0,0.0
0.0027999999474559445,0.0,0.0
0.0032000000373955118,0.0,0.0
0.0035999998999614036,0.0,0.0
0.003999999989900971,0.0,0.0
0.004399999852466863,0.0,0.0
0.004800000169780105,0.0,0.0
0.005200000032345997,0.0,0.0
0.005599999894911889,0.0,0.0
0.006000000212225132,0.0,0.0
0.0064000000747910235,0.0,0.0
0.006799999937356915,0.0,0.0
0.007199999799922807,0.0,0.0
0.00760000011723605,0.0,0.0
0.007999999979801942,0.0,0.0
0.008400000297115184,0.0,0.0
0.008799999704933725,0.0,0.0
0.009200000022246968,0.0,0.0
0.00960000033956021,0.0,0.0
0.009999999747378752,0.01130002737045288,9.673509566709981e-07
0.010400000064691994,0.022600043565034866,2.7393332857172936e-05
0.010800000382005237,0.02260001003742218,5.478531602420844e-05
0.011199999789823778,0.022599956020712852,8.217591675929725e-05
0.01160000010713702,0.022599879652261734,0.00010956510959658772
0.012000000424450263,0.022599780932068825,0.0001369528763461858
0.012399999832268804,0.022599659860134125,0.00016433917335234582
0.012800000149582047,0.022599518299102783,0.00019172398606315255
0.013199999557400588,0.02259935438632965,0.0002191072708228603
0.01359999987471383,0.022599168121814728,0.0002464890421833843
0.014000000192027073,0.022598959505558014,0.0002738692273851484
0.014399999599845614,0.02259872853755951,0.0003012478118762374
0.014799999917158857,0.022598477080464363,0.00032862479565665126
0.0152000002344721,0.022598203271627426,0.00035600014962255955
0.015600000551785342,0.0225979071110487,0.0003833737864624709
0.015999999959603883,0.02259759046137333,0.0004107457643840462
0.016399999367422424,0.02259724959731102,0.0004381159960757941
0.01680000059423037,0.02259688824415207,0.0004654844815377146
0.01720000000204891,0.022596506401896477,0.0004928511916659772
0.01759999940986745,0.022596100345253944,0.0005202160682529211
0.018000000636675395,0.02259567379951477,0.0005475791404023767
0.018400000044493936,0.022595224902033806,0.000574940349906683
0.018799999452312477,0.02259475365281105,0.00060229969676584
0.01920000067912042,0.022594260051846504,0.000629657122772187
0.019600000086938962,0.022593745961785316,0.0006570125697180629
0.019999999494757503,0.022593209519982338,0.0006843660958111286
0.020400000721565448,0.02259265072643757,0.0007117176428437233
0.02080000012938399,0.022592071443796158,0.000739067152608186
0.02119999953720253,0.022591467946767807,0.0007664146251045167
0.021600000764010474,0.022590843960642815,0.0007937600021250546
0.022000000171829015,0.02259019948542118,0.0008211032836697996
0.022399999579647556,0.022589530795812607,0.0008484444697387516
0.0228000008064555,0.02258884161710739,0.0008757835021242499
0.02320000021427404,0.022588130086660385,0.0009031203808262944
0.023599999622092582,0.022587396204471588,0.0009304550476372242
0.024000000848900527,0.022586639970541,0.0009577874443493783
0.024400000256719068,0.02258586324751377,0.0009851176291704178
0.02479999966453761,0.02258506417274475,0.0010124455438926816
0.025200000891345553,0.02258424460887909,0.0010397711303085089
0.025600000299164094,0.022583400830626488,0.0010670943884178996
0.025999999706982635,0.022582536563277245,0.0010944153182208538
0.026399999114801176,0.02258164994418621,0.0011217338033020496
0.02680000034160912,0.022580740973353386,0.001149049843661487
0.02719999974942766,0.02257981151342392,0.001176363555714488
0.027599999157246202,0.022578859701752663,0.0012036747066304088
0.028000000384054147,0.022577885538339615,0.0012309834128245711
0.028399999791872688,0.022576889023184776,0.0012582896742969751
0.02879999919969123,0.022575872018933296,0.0012855932582169771
0.029200000426499173,0.022574832662940025,0.0013128943974152207
0.029599999834317714,0.022573770955204964,0.0013401928590610623
0.029999999242136255,0.03392314165830612,0.001368464669212699
0.0304000004689442,0.045272476971149445,0.0014222974423319101
0.030800001695752144,0.04527131840586662,0.0014771021669730544
0.031200001103570685,0.04527011513710022,0.0015319028170779347
0.031600000511389226,0.045268867164850235,0.0015866993926465511
0.03199999991920777,0.04526757448911667,0.00164149166084826
0.03239999932702631,0.04526624083518982,0.001696279738098383
0.03279999873484485,0.04526486247777939,0.0017510635079815984
0.0332000017806422,0.045263439416885376,0.0018058429704979062
0.03360000118846074,0.04526197165250778,0.0018606180092319846
0.03400000059627928,0.045260462909936905,0.0019153885077685118
0.03440000000409782,0.045258909463882446,0.0019701544661074877
0.03479999941191636,0.045257311314344406,0.002024916000664234
0.0351999988197349,0.045255668461322784,0.0020796728786081076
0.03559999822755344,0.04525398463010788,0.002134425099939108
0.03600000127335079,0.045252252370119095,0.0021891724318265915
0.03640000068116933,0.04525047913193703,0.002243915107101202
0.03680000008898787,0.045248664915561676,0.0022986531257629395
0.03719999949680641,0.045246802270412445,0.0023533860221505165
0.037599998904624954,0.04524489864706993,0.002408114029094577
0.037999998312443495,0.045242950320243835,0.0024628371465951204
0.03840000135824084,0.04524095728993416,0.0025175551418215036
0.038800000766059384,0.0452389195561409,0.0025722680147737265
0.039200000173877925,0.04523684084415436,0.002626975765451789
0.039599999581696466,0.045234717428684235,0.0026816781610250473
0.03999999898951501,0.04523254930973053,0.002736375667154789
0.04039999839733355,0.04523033648729324,0.002791067585349083
0.040800001443130895,0.045228082686662674,0.0028457543812692165
0.041200000850949436,0.04522578418254852,0.0029004355892539024
0.04160000025876798,0.04522344470024109,0.0029551112093031406
0.04199999966658652,0.045221056789159775,0.003009781474247575
0.04239999907440506,0.04521862789988518,0.0030644461512565613
0.0427999984822236,0.045216154307127,0.0031191052403301
0.04320000152802095,0.04521363601088524,0.003173758741468191
0.04360000093583949,0.045211076736450195,0.003228406421840191
0.04400000034365803,0.04520847275853157,0.0032830482814460993
0.04439999975147657,0.045205824077129364,0.0033376843202859163
0.04479999915929511,0.045203130692243576,0.0033923143055289984
0.04519999856711365,0.045200396329164505,0.0034469387028366327
0.045600001612911,0.04519761726260185,0.0035015568137168884
0.04600000102072954,0.04519479349255562,0.0035561691038310528
0.04640000042854808,0.0451919250190258,0.0036107751075178385
0.046799999836366624,0.045189015567302704,0.003665375057607889
0.047199999244185165,0.045186061412096024,0.0037199687212705612
0.047599998652003706,0.04518306255340576,0.0037745563313364983
0.048000001697801054,0.04518002271652222,0.003829137422144413
0.048400001105619594,0.04517693817615509,0.003883712226524949
0.048800000513438135,0.04517380893230438,0.003938280511647463
0.049199999921256676,0.04517063498497009,0.003992842510342598
0.04959999932907522,0.04516742005944252,0.004047397989779711
0.04999999873689376,0.056571654975414276,0.004102932754904032
0.050400001782691106,0.06797583401203156,0.004184143152087927
0.05080000119050965,0.06797245144844055,0.004266330972313881
0.05120000059832819,0.06796900928020477,0.004348510876297951
0.05160000000614673,0.06796550005674362,0.004430682864040136
0.05199999941396527,0.0679619163274765,0.004512846004217863
0.05239999882178381,0.0679582729935646,0.004595001228153706
0.05279999822960235,0.06795457005500793,0.004677148070186377
0.0532000012753997,0.0679507926106453,0.004759286064654589
0.05360000068321824,0.06794695556163788,0.004841415677219629
0.05400000009103678,0.0679430440068245,0.004923536442220211
0.05439999949885532,0.06793907284736633,0.005005648359656334
0.054799998906673864,0.0679350346326828,0.005087751895189285
0.055199998314492404,0.06793093681335449,0.0051698461174964905
0.05560000136028975,0.06792676448822021,0.005251931492239237
0.05600000076810829,0.06792253255844116,0.005334007553756237
0.056400000175926834,0.06791823357343674,0.005416074767708778
0.056799999583745375,0.06791386753320694,0.005498132668435574
0.057199998991563916,0.06790943443775177,0.005580181255936623
0.05759999839938246,0.06790493428707123,0.0056622205302119255
0.058000001445179805,0.06790037453174591,0.005744250491261482
0.058400000852998346,0.06789574772119522,0.0058262706734240055
0.05880000026081689,0.06789105385541916,0.005908281076699495
0.05919999966863543,0.06788629293441772,0.005990282166749239
0.05959999907645397,0.06788146495819092,0.006072273012250662
0.05999999848427251,0.06787657737731934,0.006154254078865051
0.06040000153006986,0.06787162274122238,0.006236225366592407
0.0608000009378884,0.06786660104990005,0.006318186409771442
0.06120000034570694,0.06786151230335236,0.006400137674063444
0.06160000339150429,0.06785635650157928,0.006482078693807125
0.06199999916134402,0.06785114109516144,0.006564009469002485
0.06240000220714137,0.06784585863351822,0.006645929999649525
0.0627999979769811,0.06784050911664963,0.006727839820086956
0.06320000102277845,0.06783509254455566,0.006809739395976067
0.06359999679261819,0.06782960891723633,0.006891628261655569
0.06399999983841553,0.06782406568527222,0.0069735064171254635
0.06440000288421288,0.06781845539808273,0.00705537386238575
0.06479999865405262,0.06781277805566788,0.007137230597436428
0.06520000169984996,0.06780703365802765,0.007219076156616211
0.0655999974696897,0.06780122965574265,0.007300911005586386
0.06600000051548705,0.06779535114765167,0.0073827351443469524
0.0664000035612844,0.06778941303491592,0.0074645476415753365
0.06679999933112413,0.0677834078669548,0.007546348962932825
0.06720000237692147,0.06777734309434891,0.007628139108419418
0.06759999814676121,0.06777120381593704,0.007709918078035116
0.06800000119255856,0.0677650049328804,0.007791685406118631
0.06839999696239829,0.06775873899459839,0.007873441092669964
0.06880000000819564,0.067752406001091,0.007955185137689114
0.06920000305399299,0.06774601340293884,0.008036918006837368
0.06959999882383272,0.06773954629898071,0.008118638768792152
0.07000000186963007,0.0792337954044342,0.008201349526643753
0.0703999976394698,0.09072797000408173,0.008309924975037575
0.07080000068526715,0.09072127193212509,0.008419488556683064
0.07119999645510688,0.09071449935436249,0.008529039099812508
0.07159999950090423,0.09070762991905212,0.008638575673103333
0.07200000254670158,0.0907006710767746,0.008748098276555538
0.07239999831654131,0.0906936302781105,0.0088576078414917
0.07280000136233866,0.09068650007247925,0.008967102505266666
0.0731999971321784,0.09067928791046143,0.009076584130525589
0.07360000017797574,0.09067197889089584,0.009186050854623318
0.07400000322377309,0.0906645879149437,0.009295503608882427
0.07439999899361283,0.09065710753202438,0.009404942393302917
0.07480000203941017,0.09064953774213791,0.009514367207884789
0.07519999780924991,0.09064188599586487,0.009623776189982891
0.07560000085504726,0.09063414484262466,0.009733171202242374
0.07599999662488699,0.0906263142824173,0.009842551313340664
0.07639999967068434,0.09061839431524277,0.009951917454600334
0.07680000271648169,0.09061038494110107,0.010061267763376236
0.07719999848632142,0.09060229361057281,0.010170603170990944
0.07760000153211877,0.09059411287307739,0.010279923677444458
0.0779999973019585,0.0905858501791954,0.010389228351414204
0.07840000034775585,0.09057749062776566,0.010498518124222755
0.0788000033935532,0.09056904911994934,0.010607792064547539
0.07919999916339293,0.09056051820516586,0.010717050172388554
0.07960000220919028,0.09055190533399582,0.010826293379068375
0.07999999797903001,0.09054319560527802,0.010935520753264427
0.08040000102482736,0.09053440392017365,0.011044732294976711
0.0807999967946671,0.09052552282810211,0.011153927072882652
0.08119999984046444,0.09051655977964401,0.011263106018304825
0.08160000288626179,0.09050749987363815,0.011372269131243229
0.08199999865610152,0.09049835801124573,0.01148141548037529
0.08240000170189887,0.09048913419246674,0.011590545065701008
0.0827999974717386,0.09047981351613998,0.011699658818542957
0.08320000051753595,0.09047041088342667,0.011808755807578564
0.0836000035633333,0.09046092629432678,0.011917836032807827
0.08399999933317304,0.09045134484767914,0.012026899494230747
0.08440000237897038,0.09044168144464493,0.012135946191847324
0.08479999814881012,0.09043192863464355,0.012244975194334984
0.08520000119460747,0.09042208641767502,0.0123539874330163
0.0855999969644472,0.09041216224431992,0.012462981976568699
0.08600000001024455,0.09040214866399765,0.012571959756314754
0.0864000030560419,0.09039204567670822,0.012680919840931892
0.08679999882588163,0.09038186073303223,0.012789862230420113
0.08720000187167898,0.09037157893180847,0.012898786924779415
0.08759999764151871,0.09036122262477875,0.0130076939240098
0.08800000068731606,0.09035076946020126,0.013116583228111267
0.0883999964571558,0.09034023433923721,0.013225453905761242
0.08879999950295314,0.090329609811306,0.013334306888282299
0.08920000254875049,0.09031889587640762,0.013443142175674438
0.08959999831859022,0.09030809998512268,0.013551958836615086
0.09000000136438757,0.10187374800443649,0.013661772012710571
0.0903999971342273,0.11343929916620255,0.013797599822282791
0.09080000018002465,0.11342820525169373,0.013934423215687275
0.091200003225822,0.11341699957847595,0.014071226119995117
0.09159999899566174,0.11340568959712982,0.014208008535206318
0.09200000204145908,0.11339426785707474,0.014344771392643452
0.09239999781129882,0.1133827418088913,0.01448151282966137
0.09280000085709617,0.1133710965514183,0.014618233777582645
0.0931999966269359,0.11335934698581696,0.01475493423640728
0.09359999967273325,0.11334749311208725,0.014891614206135273
0.0940000027185306,0.11333552747964859,0.015028271824121475
0.09439999848837033,0.11332345008850098,0.015164908953011036
0.09480000153416768,0.11331126093864441,0.01530152466148138
0.09519999730400741,0.11329896748065948,0.015438119880855083
0.09560000034980476,0.1132865622639656,0.015574691817164421
0.09600000339560211,0.11327404528856277,0.015711242333054543
0.09639999916544184,0.11326142400503159,0.015847772359848022
0.09680000221123919,0.11324869096279144,0.01598428003489971
0.09719999798107892,0.11323584616184235,0.01612076535820961
0.09760000102687627,0.11322289705276489,0.016257228329777718
0.097999996796716,0.11320983618497849,0.016393667086958885
0.09839999984251335,0.11319666355848312,0.01653008535504341
0.0988000028883107,0.1131833866238594,0.016666481271386147
0.09919999865815043,0.11316999793052673,0.016802852973341942
0.09960000170394778,0.1131565049290657,0.016939202323555946
0.09999999747378752,0.11314289271831512,0.01707552932202816
0.10040000051958486,0.11312917619943619,0.017211832106113434
0.10080000356538221,0.1131153553724289,0.017348112538456917
0.10119999933522195,0.11310142278671265,0.01748436875641346
0.1016000023810193,0.11308737844228745,0.017620602622628212
0.10199999815085903,0.11307322978973389,0.017756812274456024
0.10240000119665638,0.11305896937847137,0.017892997711896896
0.10279999696649611,0.11304459720849991,0.01802915893495083
0.10320000001229346,0.11303012073040009,0.01816529594361782
0.1036000030580908,0.11301553249359131,0.018301410600543022
0.10399999882793054,0.11300083994865417,0.018437499180436134
0.10440000187372789,0.11298603564500809,0.018573563545942307
0.10479999764356762,0.11297111958265305,0.01870960369706154
0.10520000068936497,0.11295609921216965,0.01884561777114868
0.1055999964592047,0.1129409670829773,0.018981609493494034
0.10599999950500205,0.11292573064565659,0.019117575138807297
0.1064000025507994,0.11291038244962692,0.01925351470708847
0.10679999832063913,0.1128949224948883,0.019389430060982704
0.10720000136643648,0.11287935823202133,0.01952531933784485
0.10759999713627622,0.1128636822104454,0.019661182537674904
0.10800000018207356,0.11284790188074112,0.01979702152311802
0.10840000322787091,0.11283200979232788,0.019932834431529045
0.10879999899771065,0.11281600594520569,0.020068621262907982
0.109200002043508,0.11279989778995514,0.02020438015460968
0.10959999781334773,0.11278367787599564,0.02034011483192444
0.11000000085914508,0.12443949282169342,0.02047685533761978
0.11039999662898481,0.13609518110752106,0.020639801397919655
0.11079999967478216,0.1360786110162735,0.020803749561309814
0.1112000027205795,0.1360619068145752,0.020967671647667885
0.11159999849041924,0.13604505360126495,0.021131563931703568
0.11200000153621659,0.13602809607982635,0.02129542827606201
0.11239999730605632,0.13601098954677582,0.021459262818098068
0.11280000035185367,0.13599374890327454,0.021623071283102036
0.11320000339765102,0.1359763890504837,0.021786848083138466
0.11359999916749075,0.13595889508724213,0.021950596943497658
0.1140000022132881,0.1359412670135498,0.02211431786417961
0.11439999798312783,0.13592350482940674,0.022278007119894028
0.11480000102892518,0.13590562343597412,0.022441668435931206
0.11519999679876491,0.13588760793209076,0.022605299949645996
0.11559999984456226,0.13586945831775665,0.0227689016610384
0.11600000289035961,0.1358511745929718,0.022932471707463264
0.11639999866019934,0.1358327567577362,0.02309601381421089
0.11680000170599669,0.13581421971321106,0.023259524255990982
0.11719999747583643,0.13579554855823517,0.023423004895448685
0.11760000052163377,0.13577674329280853,0.02358645386993885
0.11800000356743112,0.13575780391693115,0.02374987304210663
0.11839999933727086,0.13573874533176422,0.02391326054930687
0.1188000023830682,0.13571955263614655,0.024076618254184723
0.11919999815290794,0.13570022583007812,0.02423994243144989
0.11960000119870529,0.13568076491355896,0.02440323680639267
0.11999999696854502,0.13566118478775024,0.024566499516367912
0.12040000001434237,0.13564147055149078,0.024729730561375618
0.12080000306013972,0.13562162220478058,0.024892929941415787
0.12119999882997945,0.13560163974761963,0.02505609579384327
0.1216000018757768,0.13558152318000793,0.025219229981303215
0.12199999764561653,0.1355612874031067,0.025382332503795624
0.12240000069141388,0.1355409175157547,0.025545403361320496
0.12280000373721123,0.13552041351795197,0.02570844069123268
0.12320000678300858,0.1354997754096985,0.02587144449353218
0.1235999952768907,0.13547901809215546,0.026034414768218994
0.12399999832268804,0.13545812666416168,0.02619735337793827
0.12440000136848539,0.13543710112571716,0.02636025846004486
0.12480000441428274,0.1354159563779831,0.026523130014538765
0.12519999290816486,0.13539466261863708,0.026685968041419983
0.1255999959539622,0.13537324965000153,0.026848770678043365
0.12599999899975955,0.13535170257091522,0.02701154164969921
0.1264000020455569,0.13533003628253937,0.02717427723109722
0.12680000509135425,0.13530823588371277,0.027336979284882545
0.12719999358523637,0.13528630137443542,0.027499645948410034
0.12759999663103372,0.13526423275470734,0.027662279084324837
0.12799999967683107,0.1352420300245285,0.027824876829981804
0.12840000272262841,0.13521970808506012,0.027987441048026085
0.12880000576842576,0.135197252035141,0.02814996801316738
0.12919999426230788,0.1351746767759323,0.02831246145069599
0.12959999730810523,0.1351519525051117,0.028474919497966766
0.13000000035390258,0.14688695967197418,0.028638388961553574
0.13040000339969993,0.15862183272838593,0.028828231617808342
0.13080000644549727,0.15859869122505188,0.029019083827733994
0.1311999949393794,0.1585754007101059,0.02920989878475666
0.13159999798517674,0.15855194628238678,0.029400676488876343
0.1320000010309741,0.15852835774421692,0.02959141694009304
0.13240000407677144,0.15850460529327393,0.029782118275761604
0.1328000071225688,0.158480703830719,0.029972782358527184
0.1331999956164509,0.15845665335655212,0.03016340732574463
0.13359999866224825,0.15843243896961212,0.03035399317741394
0.1340000017080456,0.15840807557106018,0.030544541776180267
0.13440000475384295,0.1583835631608963,0.03073505125939846
0.13479999324772507,0.15835890173912048,0.03092552162706852
0.13519999629352242,0.15833409130573273,0.031115952879190445
0.13559999933931977,0.15830911695957184,0.031306345015764236
