time[s],iL[A],v out[V]
0.0,0.0,0.0
0.00040000000467443897,0.0,0.0
0.0008000000093488779,0.0,0.0
0.0012000000424450263,0.0,0.0
0.0016000000186977559,0.0,0.0
0.0019999999949504854,0.0,0.0
0.0024000000848900527,0.0,0.0
0.0027999999474559445,0.0,0.0
0.0032000000373955118,0.0,0.0
0.0035999998999614036,0.0,0.0
0.003999999989900971,0.0,0.0
0.004399999852466863,0.0,0.0
0.004800000169780105,0.0,0.0
0.005200000032345997,0.0,0.0
0.005599999894911889,0.0,0.0
0.006000000212225132,0.0,0.0
0.0064000000747910235,0.0,0.0
0.006799999937356915,0.0,0.0
0.007199999799922807,0.0,0.0
0.00760000011723605,0.0,0.0
0.007999999979801942,0.0,0.0
0.008400000297115184,0.0,0.0
0.008799999704933725,0.0,0.0
0.009200000022246968,0.0,0.0
0.00960000033956021,0.07555416226387024,4.324504334363155e-05
0.009999999747378752,0.15555408596992493,0.00018330555758439004
0.010400000064691994,0.23555384576320648,0.00042032645433209836
0.010800000382005237,0.3111075460910797,0.0007541530067101121
0.011199999789823778,0.31110680103302,0.0011312069837003946
0.01160000010713702,0.31110575795173645,0.001508241519331932
0.012000000424450263,0.3111043870449066,0.0018852563807740808
0.012399999832268804,0.3111027181148529,0.0022622509859502316
0.012800000149582047,0.3111007809638977,0.0026392252184450626
0.013199999557400588,0.31109851598739624,0.0030161787290126085
0.01359999987471383,0.3110959529876709,0.0033931108191609383
0.014000000192027073,0.3110930919647217,0.003770021488890052
0.014399999599845614,0.3110899031162262,0.004146910272538662
0.014799999917158857,0.3110864460468292,0.004523776471614838
0.0152000002344721,0.311082661151886,0.0049006203189492226
0.015600000551785342,0.31107860803604126,0.005277441348880529
0.015999999959603883,0.31107422709465027,0.0056542386300861835
0.016399999367422424,0.3110695481300354,0.006031012162566185
0.01680000059423037,0.31106457114219666,0.0064077614806592464
0.01720000000204891,0.31105929613113403,0.006784486584365368
0.01759999940986745,0.31105372309684753,0.007161186542361975
0.018000000636675395,0.31104785203933716,0.007537861820310354
0.018400000044493936,0.3110416531562805,0.007914510555565357
0.018799999452312477,0.3110351860523224,0.008291134610772133
0.01920000067912042,0.311028391122818,0.008667731657624245
0.019600000086938962,0.3110213279724121,0.009044301696121693
0.019999999494757503,0.31101393699645996,0.009420845657587051
0.020400000721565448,0.31100624799728394,0.009797361679375172
0.02080000012938399,0.31099826097488403,0.010173849761486053
0.02119999953720253,0.31098997592926025,0.010550309903919697
0.021600000764010474,0.3109813928604126,0.010926742106676102
0.022000000171829015,0.3109724819660187,0.011303144507110119
0.022399999579647556,0.31096330285072327,0.011679518036544323
0.0228000008064555,0.3109537959098816,0.012055862694978714
0.02320000021427404,0.3109440207481384,0.012432176619768143
0.023599999622092582,0.310933917760849,0.012808460742235184
0.024000000848900527,0.3109235167503357,0.013184714131057262
0.024400000256719068,0.3109128177165985,0.013560935854911804
0.02479999966453761,0.31090182065963745,0.013937126845121384
0.025200000891345553,0.3108905255794525,0.014313285239040852
0.025600000299164094,0.3108789026737213,0.014689412899315357
0.025999999706982635,0.3108670115470886,0.015065507031977177
0.026399999114801176,0.31085482239723206,0.015441568568348885
0.02680000034160912,0.3108423054218292,0.01581759750843048
0.02719999974942766,0.3108294904232025,0.016193591058254242
0.027599999157246202,0.3108164072036743,0.016569552943110466
0.028000000384054147,0.31080299615859985,0.016945479437708855
0.028399999791872688,0.3107892870903015,0.017321370542049408
0.02879999919969123,0.3107752799987793,0.017697228118777275
0.029200000426499173,0.3107609748840332,0.018073050305247307
0.029599999834317714,0.37249693274497986,0.018477723002433777
0.029999999242136255,0.4524819552898407,0.01897680200636387
0.0304000004689442,0.5324665307998657,0.019572805613279343
0.030800001695752144,0.5942012071609497,0.020263206213712692
0.031200001103570685,0.5941846966743469,0.020982440561056137
0.031600000511389226,0.5941675901412964,0.021701619029045105
0.03199999991920777,0.5941499471664429,0.022420743480324745
0.03239999932702631,0.5941317677497864,0.02313980832695961
0.03279999873484485,0.5941129326820374,0.023858817294239998
0.0332000017806422,0.5940935611724854,0.02457776851952076
0.03360000118846074,0.5940735936164856,0.025296662002801895
0.03400000059627928,0.5940530896186829,0.026015494018793106
0.03440000000409782,0.5940319895744324,0.02673426643013954
0.03479999941191636,0.5940102934837341,0.027452979236841202
0.0351999988197349,0.5939880609512329,0.028171630576252937
0.03559999822755344,0.5939652323722839,0.0288902185857296
0.03600000127335079,0.593941867351532,0.029608743265271187
0.03640000068116933,0.5939178466796875,0.03032720647752285
0.03680000008898787,0.59389328956604,0.03104560263454914
0.03719999949680641,0.5938681960105896,0.03176393732428551
0.037599998904624954,0.5938425064086914,0.03248220309615135
0.037999998312443495,0.5938162207603455,0.03320040553808212
0.03840000135824084,0.5937893986701965,0.03391853719949722
0.038800000766059384,0.5937619805335999,0.03463660553097725
0.039200000173877925,0.5937339663505554,0.035354603081941605
0.039599999581696466,0.5937053561210632,0.03607252985239029
0.03999999898951501,0.5936762690544128,0.0367903895676136
0.04039999839733355,0.5936465263366699,0.03750817850232124
0.040800001443130895,0.593616247177124,0.038225896656513214
0.041200000850949436,0.5935853719711304,0.038943540304899216
0.04160000025876798,0.5935539603233337,0.039661113172769547
0.04199999966658652,0.5935219526290894,0.04037861153483391
0.04239999907440506,0.5934893488883972,0.0410960391163826
0.0427999984822236,0.5934561491012573,0.04181338846683502
0.04320000152802095,0.5934224128723145,0.042530667036771774
0.04360000093583949,0.5933881402015686,0.04324786365032196
0.04400000034365803,0.593353271484375,0.043964989483356476
0.04439999975147657,0.5933178067207336,0.044682033360004425
0.04479999915929511,0.5932817459106445,0.045399002730846405
0.04519999856711365,0.5932451486587524,0.04611589014530182
0.045600001612911,0.5932079553604126,0.046832699328660965
0.04600000102072954,0.5931702256202698,0.04754943028092384
0.04640000042854808,0.5931318998336792,0.04826607555150986
0.046799999836366624,0.5930929780006409,0.0489826425909996
0.047199999244185165,0.5930535197257996,0.04969912767410278
0.047599998652003706,0.5930134654045105,0.0504155308008194
0.048000001697801054,0.5929728746414185,0.051131848245859146
0.048400001105619594,0.5929316282272339,0.05184808000922203
0.048800000513438135,0.5928899049758911,0.05256422981619835
0.049199999921256676,0.5928475260734558,0.0532802939414978
0.04959999932907522,0.6485369801521301,0.05401980131864548
0.04999999873689376,0.7284934520721436,0.054851725697517395
0.050400001782691106,0.8084492087364197,0.055780522525310516
0.05080000119050965,0.8641365170478821,0.056801728904247284
0.05120000059832819,0.8640906810760498,0.05784635990858078
0.05160000000614673,0.8640439510345459,0.05889088660478592
0.05199999941396527,0.8639964461326599,0.059935301542282104
0.05239999882178381,0.8639481067657471,0.060979608446359634
0.05279999822960235,0.8638988733291626,0.06202380731701851
0.0532000012753997,0.863848865032196,0.06306789815425873
0.05360000068321824,0.8637979626655579,0.0641118735074997
0.05400000009103678,0.8637462854385376,0.06515572965145111
0.05439999949885532,0.8636937141418457,0.06619948148727417
0.054799998906673864,0.8636403679847717,0.06724311411380768
0.055199998314492404,0.8635861277580261,0.06828663498163223
0.05560000136028975,0.8635311126708984,0.06933003664016724
0.05600000076810829,0.8634752035140991,0.07037331908941269
0.056400000175926834,0.863418459892273,0.07141648232936859
0.056799999583745375,0.8633609414100647,0.07245953381061554
0.057199998991563916,0.8633025288581848,0.07350245863199234
0.05759999839938246,0.8632433414459229,0.07454525679349899
0.058000001445179805,0.8631832599639893,0.0755879357457161
0.058400000852998346,0.8631224036216736,0.07663049548864365
0.05880000026081689,0.8630606532096863,0.07767292112112045
0.05919999966863543,0.8629981279373169,0.07871522754430771
0.05959999907645397,0.8629347085952759,0.07975740730762482
0.05999999848427251,0.8628705143928528,0.08079946041107178
0.06040000153006986,0.8628054857254028,0.081841379404068
0.0608000009378884,0.8627395629882812,0.08288317173719406
0.06120000034570694,0.8626728653907776,0.08392483741044998
0.06160000339150429,0.8626052737236023,0.08496636152267456
0.06199999916134402,0.8625369071960449,0.08600775897502899
0.06240000220714137,0.8624676465988159,0.08704902231693268
0.0627999979769811,0.8623976111412048,0.08809015154838562
0.06320000102277845,0.8623267412185669,0.08913113921880722
0.06359999679261819,0.8622550368309021,0.09017199277877808
0.06399999983841553,0.8621824383735657,0.09121271222829819
0.06440000288421288,0.8621090650558472,0.09225329011678696
0.06479999865405262,0.8620348572731018,0.09329372644424438
0.06520000169984996,0.8619598150253296,0.09433402121067047
0.0655999974696897,0.8618839383125305,0.09537417441606522
0.06600000051548705,0.8618072271347046,0.09641418606042862
0.0664000035612844,0.8617296814918518,0.09745405614376068
0.06679999933112413,0.8616513013839722,0.0984937772154808
0.06720000237692147,0.8615720868110657,0.09953335672616959
0.06759999814676121,0.8614920377731323,0.10057278722524643
0.06800000119255856,0.8614111542701721,0.10161206871271133
0.06839999696239829,0.8613294363021851,0.1026512011885643
0.06880000000819564,0.8612468838691711,0.10369018465280533
0.06920000305399299,0.8611635565757751,0.10472901910543442
0.06959999882383272,0.9170929193496704,0.10579147189855576
0.07000000186963007,0.9970077872276306,0.10694637149572372
0.0703999976394698,1.076921820640564,0.10819808393716812
0.07080000068526715,1.1328482627868652,0.10954224318265915
0.07119999645510688,1.1327600479125977,0.11090999096632004
0.07159999950090423,1.1326707601547241,0.1122775673866272
0.07200000254670158,1.1325803995132446,0.11364497244358063
0.07239999831654131,1.1324889659881592,0.11501219868659973
0.07280000136233866,1.1323963403701782,0.11637924611568451
0.0731999971321784,1.1323027610778809,0.11774611473083496
0.07360000017797574,1.132207989692688,0.11911280453205109
0.07400000322377309,1.1321121454238892,0.12047931551933289
0.07439999899361283,1.1320152282714844,0.12184564024209976
0.07480000203941017,1.1319172382354736,0.12321177870035172
0.07519999780924991,1.1318180561065674,0.12457773089408875
0.07560000085504726,1.1317179203033447,0.12594349682331085
0.07599999662488699,1.1316165924072266,0.12730906903743744
0.07639999967068434,1.1315141916275024,0.1286744624376297
0.07680000271648169,1.1314107179641724,0.13003966212272644
0.07719999848632142,1.1313061714172363,0.13140466809272766
0.07760000153211877,1.1312004327774048,0.13276948034763336
0.0779999973019585,1.1310937404632568,0.13413409888744354
0.07840000034775585,1.1309858560562134,0.1354985237121582
0.0788000033935532,1.130876898765564,0.13686273992061615
0.07919999916339293,1.1307668685913086,0.13822676241397858
0.07960000220919028,1.1306557655334473,0.13959059119224548
0.07999999797903001,1.1305434703826904,0.14095421135425568
0.08040000102482736,1.1304301023483276,0.14231763780117035
0.0807999967946671,1.1303157806396484,0.14368084073066711
0.08119999984046444,1.1302002668380737,0.14504386484622955
0.08160000288626179,1.130083680152893,0.14640666544437408
0.08199999865610152,1.1299660205841064,0.1477692574262619
0.08240000170189887,1.1298472881317139,0.149131640791893
0.0827999974717386,1.1297273635864258,0.1504938155412674
0.08320000051753595,1.1296064853668213,0.15185578167438507
0.0836000035633333,1.1294844150543213,0.15321753919124603
0.08399999933317304,1.1293612718582153,0.1545790731906891
0.08440000237897038,1.129237174987793,0.15594038367271423
0.08479999814881012,1.1291117668151855,0.15730148553848267
0.08520000119460747,1.1289854049682617,0.15866237878799438
0.0855999969644472,1.128857970237732,0.160023033618927
0.08600000001024455,1.1287293434143066,0.1613834798336029
0.0864000030560419,1.128599762916565,0.1627437025308609
0.08679999882588163,1.1284689903259277,0.164103701710701
0.08720000187167898,1.1283371448516846,0.16546347737312317
0.08759999764151871,1.1282042264938354,0.16682301461696625
0.08800000068731606,1.1280702352523804,0.1681823432445526
0.0883999964571558,1.1279351711273193,0.16954141855239868
0.08879999950295314,1.1277990341186523,0.17090028524398804
0.08920000254875049,1.1276617050170898,0.1722589135169983
0.08959999831859022,1.1832510232925415,0.17364083230495453
0.09000000136438757,1.2631114721298218,0.17511501908302307
0.0903999971342273,1.342970848083496,0.17668594419956207
0.09080000018002465,1.3985564708709717,0.178349107503891
0.091200003225822,1.398413062095642,0.1800355613231659
0.09159999899566174,1.3982683420181274,0.1817217469215393
0.09200000204145908,1.3981223106384277,0.18340767920017242
0.09239999781129882,1.397974967956543,0.18509334325790405
0.09280000085709617,1.3978261947631836,0.18677875399589539
0.0931999966269359,1.3976761102676392,0.18846389651298523
0.09359999967273325,1.3975245952606201,0.19014878571033478
0.0940000027185306,1.3973718881607056,0.19183340668678284
0.09439999848837033,1.3972177505493164,0.1935177445411682
0.09480000153416768,1.3970621824264526,0.1952018290758133
0.09519999730400741,1.3969054222106934,0.19688564538955688
0.09560000034980476,1.3967472314834595,0.1985691785812378
0.09600000339560211,1.3965877294540405,0.2002524435520172
0.09639999916544184,1.396426796913147,0.20193542540073395
0.09680000221123919,1.3962645530700684,0.2036181390285492
0.09719999798107892,1.3961009979248047,0.20530055463314056
0.09760000102687627,1.395936131477356,0.20698271691799164
0.097999996796716,1.3957698345184326,0.20866458117961884
0.09839999984251335,1.3956022262573242,0.21034616231918335
0.0988000028883107,1.3954333066940308,0.21202746033668518
0.09919999865815043,1.3952629566192627,0.21370847523212433
0.09960000170394778,1.3950914144515991,0.2153891921043396
0.09999999747378752,1.3949183225631714,0.2170696258544922
0.10040000051958486,1.3947440385818481,0.2187497615814209
0.10080000356538221,1.3945683240890503,0.22042961418628693
0.10119999933522195,1.3943912982940674,0.22210915386676788
0.1016000023810193,1.3942129611968994,0.22378841042518616
0.10199999815085903,1.3940331935882568,0.22546736896038055
0.10240000119665638,1.3938522338867188,0.22714602947235107
0.10279999696649611,1.393669843673706,0.22882437705993652
0.10320000001229346,1.3934860229492188,0.2305024266242981
0.1036000030580908,1.393301010131836,0.2321801781654358
0.10399999882793054,1.3931145668029785,0.23385761678218842
0.10440000187372789,1.392926812171936,0.23553474247455597
0.10479999764356762,1.3927377462387085,0.23721157014369965
0.10520000068936497,1.3925472497940063,0.23888806998729706
0.1055999964592047,1.3923555612564087,0.2405642718076706
0.10599999950500205,1.3921624422073364,0.24224016070365906
0.1064000025507994,1.3919678926467896,0.24391572177410126
0.10679999832063913,1.3917721509933472,0.2455909699201584
0.10720000136643648,1.3915749788284302,0.24726590514183044
0.10759999713627622,1.3913764953613281,0.24894051253795624
0.10800000018207356,1.391176700592041,0.25061479210853577
0.10840000322787091,1.3909754753112793,0.2522887587547302
0.10879999899771065,1.390773057937622,0.2539623975753784
0.109200002043508,1.3905692100524902,0.25563570857048035
0.10959999781334773,1.4460558891296387,0.2573321759700775
0.11000000085914508,1.5258493423461914,0.2591208219528198
0.11039999662898481,1.6056413650512695,0.26100608706474304
0.11079999967478216,1.6611236333847046,0.2629834711551666
0.1112000027205795,1.6609125137329102,0.26498404145240784
0.11159999849041924,1.660699725151062,0.2669842541217804
0.11200000153621659,1.6604852676391602,0.2689840793609619
0.11239999730605632,1.6602693796157837,0.27098357677459717
0.11280000035185367,1.660051703453064,0.27298271656036377
0.11320000339765102,1.6598325967788696,0.27498146891593933
0.11359999916749075,1.6596118211746216,0.27697986364364624
0.1140000022132881,1.6593893766403198,0.2789779305458069
0.11439999798312783,1.659165382385254,0.2809755802154541
0.11480000102892518,1.6589398384094238,0.28297290205955505
0.11519999679876491,1.65871262550354,0.2849698066711426
0.11559999984456226,1.658483862876892,0.28696638345718384
0.11600000289035961,1.65825355052948,0.28896257281303406
0.11639999866019934,1.6580215692520142,0.29095837473869324
0.11680000170599669,1.6577879190444946,0.2929537892341614
0.11719999747583643,1.6575528383255005,0.29494884610176086
0.11760000052163377,1.6573160886764526,0.2969434857368469
0.11800000356743112,1.657077670097351,0.29893776774406433
0.11839999933727086,1.6568377017974854,0.3009316623210907
0.1188000023830682,1.6565961837768555,0.302925169467926
0.11919999815290794,1.6563531160354614,0.3049182891845703
0.11960000119870529,1.6561083793640137,0.30691099166870117
0.11999999696854502,1.6558619737625122,0.3089033365249634
0.12040000001434237,1.6556140184402466,0.31089526414871216
0.12080000306013972,1.6553645133972168,0.3128868043422699
0.12119999882997945,1.6551134586334229,0.3148779273033142
0.1216000018757768,1.6548607349395752,0.3168686628341675
0.12199999764561653,1.6546064615249634,0.3188589811325073
0.12240000069141388,1.6543505191802979,0.32084891200065613
0.12280000373721123,1.6540931463241577,0.3228384256362915
0.12320000678300858,1.6538339853286743,0.32482752203941345
0.1235999952768907,1.6535733938217163,0.326816201210022
0.12399999832268804,1.6533111333847046,0.32880449295043945
0.12440000136848539,1.6530473232269287,0.3307923674583435
0.12480000441428274,1.6527818441390991,0.33277979493141174
0.12519999290816486,1.6525148153305054,0.33476683497428894
0.1255999959539622,1.6522462368011475,0.3367534279823303
0.12599999899975955,1.6519759893417358,0.33873963356018066
0.1264000020455569,1.65170419216156,0.3407253921031952
0.12680000509135425,1.6514308452606201,0.3427107036113739
0.12719999358523637,1.651155948638916,0.3446956276893616
0.12759999663103372,1.6508793830871582,0.34668007493019104
0.12799999967683107,1.6506012678146362,0.34866413474082947
0.12840000272262841,1.6503214836120605,0.3506477475166321
0.12880000576842576,1.6500401496887207,0.3526309132575989
0.12919999426230788,1.6497572660446167,0.35461363196372986
0.12959999730810523,1.7051019668579102,0.35661938786506653
0.13000000035390258,1.784815788269043,0.358717143535614
0.13040000339969993,1.864527940750122,0.36091139912605286
0.13080000644549727,1.9198675155639648,0.3631977140903473
0.1311999949393794,1.9195760488510132,0.36550697684288025
0.13159999798517674,1.9192826747894287,0.367815762758255
0.1320000010309741,1.918987512588501,0.37012410163879395
0.13240000407677144,1.91869056224823,0.3724319636821747
0.1328000071225688,1.9183917045593262,0.3747393786907196
0.1331999956164509,1.9180909395217896,0.37704628705978394
0.13359999866224825,1.9177883863449097,0.37935271859169006
0.1340000017080456,1.917483925819397,0.381658673286438
0.13440000475384295,1.917177677154541,0.3839641511440277
0.13479999324772507,1.9168696403503418,0.38626915216445923
0.13519999629352242,1.9165596961975098,0.38857364654541016
0.13559999933931977,1.9162479639053345,0.3908776640892029
0.1360000023851171,1.9159343242645264,0.3931812047958374
0.13640000543091446,1.9156187772750854,0.39548423886299133
0.13679999392479658,1.9153015613555908,0.3977867662906647
0.13719999697059393,1.9149823188781738,0.4000888168811798
0.13760000001639128,1.9146614074707031,0.40239036083221436
0.13800000306218863,1.9143385887145996,0.4046913981437683
0.13840000610798597,1.9140138626098633,0.4069919288158417
0.1387999946018681,1.9136873483657837,0.40929198265075684
0.13919999764766544,1.9133590459823608,0.411591500043869
0.1396000006934628,1.9130288362503052,0.4138905107975006
0.14000000373926014,1.9126967191696167,0.4161890149116516
