time[s],iL[A],v out[V]
0.0,0.0,0.0
0.00040000000467443897,0.0,0.0
0.0008000000093488779,0.0,0.0
0.0012000000424450263,0.0,0.0
0.0016000000186977559,0.0,0.0
0.0019999999949504854,0.002194309141486883,3.64772603234087e-08
0.0024000000848900527,0.08219429850578308,5.1180239097448066e-05
0.0027999999474559445,0.16219420731067657,0.0001992888137465343
0.0032000000373955118,0.24219395220279694,0.0004443573416210711
0.0035999998999614036,0.3221934735774994,0.0007863809005357325
0.003999999989900971,0.4021926522254944,0.0012253544991835952
0.004399999852466863,0.4821914732456207,0.001761272898875177
0.004800000169780105,0.5621898174285889,0.0023941309191286564
0.005200000032345997,0.6421875953674316,0.0031239234376698732
0.005599999894911889,0.7221847772598267,0.003950644750148058
0.006000000212225132,0.8021813035011292,0.0048742895014584064
0.0064000000747910235,0.8821769952774048,0.005894851870834827
0.006799999937356915,0.9621717929840088,0.0070123267360031605
0.007199999799922807,1.042165756225586,0.008226707577705383
0.00760000011723605,1.1221586465835571,0.009537989273667336
0.007999999979801942,1.2021504640579224,0.010946165770292282
0.008400000297115184,1.282141089439392,0.012451229616999626
0.008799999704933725,1.3621305227279663,0.01405317708849907
0.009200000022246968,1.442118525505066,0.015751998871564865
0.00960000033956021,1.5221052169799805,0.017547693103551865
0.009999999747378752,1.6020904779434204,0.019440248608589172
0.010400000064691994,1.6820741891860962,0.02142965979874134
0.010800000382005237,1.7620561122894287,0.02351592294871807
0.011199999789823778,1.842036485671997,0.025699028745293617
0.01160000010713702,1.9220150709152222,0.027978971600532532
0.012000000424450263,2.0019917488098145,0.030355744063854218
0.012399999832268804,2.0819664001464844,0.03282934054732323
0.012800000149582047,2.1619391441345215,0.035399749875068665
0.013199999557400588,2.2419097423553467,0.03806696832180023
0.01359999987471383,2.32187819480896,0.04083098843693733
0.014000000192027073,2.4018445014953613,0.04369180276989937
0.014399999599845614,2.4818081855773926,0.04664940387010574
0.014799999917158857,2.561769723892212,0.04970378056168556
0.0152000002344721,2.641728639602661,0.052854932844638824
0.015600000551785342,2.7216851711273193,0.05610284581780434
0.015999999959603883,2.8016388416290283,0.0594475120306015
0.016399999367422424,2.881589889526367,0.06288892775774002
0.01680000059423037,2.961538314819336,0.066427081823349
0.01720000000204891,3.0414836406707764,0.07006197422742844
0.01759999940986745,3.1214261054992676,0.07379358261823654
0.018000000636675395,3.2013657093048096,0.07762190699577332
0.018400000044493936,3.203496217727661,0.0815010741353035
0.018799999452312477,3.2034294605255127,0.08538001775741577
0.01920000067912042,3.203359603881836,0.08925868570804596
0.019600000086938962,3.203286647796631,0.09313707798719406
0.019999999494757503,3.2032105922698975,0.09701519459486008
0.020400000721565448,3.2031314373016357,0.10089302808046341
0.02080000012938399,3.2030491828918457,0.10477057844400406
0.02119999953720253,3.2029638290405273,0.10864783823490143
0.021600000764010474,3.2028753757476807,0.11252480000257492
0.022000000171829015,3.2027838230133057,0.11640147119760513
0.022399999579647556,3.212611675262451,0.12027858197689056
0.0228000008064555,3.292513847351074,0.12421515583992004
0.02320000021427404,3.37241268157959,0.12824837863445282
0.023599999622092582,3.4523086547851562,0.13237826526165009
0.024000000848900527,3.532201051712036,0.13660478591918945
0.024400000256719068,3.6120898723602295,0.14092792570590973
0.02479999966453761,3.6919753551483154,0.1453476995229721
0.025200000891345553,3.771857261657715,0.1498640775680542
0.025600000299164094,3.8517355918884277,0.154477059841156
0.025999999706982635,3.931610107421875,0.15918663144111633
0.026399999114801176,4.011480808258057,0.16399279236793518
0.02680000034160912,4.091347694396973,0.16889552772045135
0.02719999974942766,4.171210765838623,0.17389482259750366
0.027599999157246202,4.25106954574585,0.1789906919002533
0.028000000384054147,4.330924034118652,0.18418309092521667
0.028399999791872688,4.4107747077941895,0.189472034573555
0.02879999919969123,4.490621089935303,0.19485750794410706
0.029200000426499173,4.570463180541992,0.20033949613571167
0.029599999834317714,4.6503005027771,0.20591798424720764
0.029999999242136255,4.730133533477783,0.21159297227859497
0.0304000004689442,4.809961795806885,0.21736444532871246
0.030800001695752144,4.8897857666015625,0.22323240339756012
0.031200001103570685,4.969604969024658,0.22919683158397675
0.031600000511389226,5.049418926239014,0.23525770008563995
0.03199999991920777,5.129228115081787,0.24141502380371094
0.03239999932702631,5.2090325355529785,0.2476687878370285
0.03279999873484485,5.288832187652588,0.25401896238327026
0.0332000017806422,5.368626117706299,0.2604655623435974
0.03360000118846074,5.448415279388428,0.26700854301452637
0.03400000059627928,5.528199195861816,0.2736479341983795
0.03440000000409782,5.607977390289307,0.2803837060928345
0.03479999941191636,5.687750339508057,0.28721585869789124
0.0351999988197349,5.767517566680908,0.29414433240890503
0.03559999822755344,5.8472795486450195,0.30116918683052063
0.03600000127335079,5.927035808563232,0.30829036235809326
0.03640000068116933,6.006786346435547,0.3155078589916229
0.03680000008898787,6.086531162261963,0.3228216767311096
0.03719999949680641,6.166269779205322,0.33023178577423096
0.037599998904624954,6.246002674102783,0.33773815631866455
0.037999998312443495,6.255651950836182,0.34530365467071533
0.03840000135824084,6.255372524261475,0.3528691530227661
0.038800000766059384,6.255087375640869,0.360433965921402
0.039200000173877925,6.254796028137207,0.36799806356430054
0.039599999581696466,6.254498481750488,0.3755614161491394
0.03999999898951501,6.254195213317871,0.38312405347824097
0.04039999839733355,6.253885746002197,0.39068594574928284
0.040800001443130895,6.253570079803467,0.398247092962265
0.041200000850949436,6.253248691558838,0.4058074951171875
0.04160000025876798,6.252920627593994,0.4133671522140503
0.04199999966658652,6.25258731842041,0.4209260046482086
0.04239999907440506,6.252247333526611,0.42848411202430725
0.0427999984822236,6.251901626586914,0.4360414147377014
0.04320000152802095,6.25154972076416,0.4435979425907135
0.04360000093583949,6.25119161605835,0.4511536657810211
0.04400000034365803,6.250827789306641,0.45870858430862427
0.04439999975147657,6.277606010437012,0.46626830101013184
0.04479999915929511,6.357229709625244,0.47390297055244446
0.04519999856711365,6.436847686767578,0.4816338121891022
0.045600001612911,6.516458988189697,0.4894607663154602
0.04600000102072954,6.596064567565918,0.49738380312919617
0.04640000042854808,6.675663471221924,0.5054029822349548
0.046799999836366624,6.755255699157715,0.513518214225769
0.047199999244185165,6.834841728210449,0.5217295289039612
0.047599998652003706,6.914421081542969,0.5300369262695312
0.048000001697801054,6.993993759155273,0.5384404063224792
0.048400001105619594,7.073559284210205,0.5469398498535156
0.048800000513438135,7.15311861038208,0.5555353760719299
0.049199999921256676,7.232670307159424,0.5642268657684326
0.04959999932907522,7.312215805053711,0.5730143785476685
0.04999999873689376,7.391753673553467,0.5818979144096375
0.050400001782691106,7.47128438949585,0.59087735414505
0.05080000119050965,7.550808429718018,0.5999528169631958
0.05120000059832819,7.630324840545654,0.6091241836547852
0.05160000000614673,7.70983362197876,0.6183915138244629
0.05199999941396527,7.789335250854492,0.6277546882629395
0.05239999882178381,7.868829250335693,0.6372138261795044
0.05279999822960235,7.948315620422363,0.6467688679695129
0.0532000012753997,8.027793884277344,0.6564197540283203
0.05360000068321824,8.10726547241211,0.6661665439605713
0.05400000009103678,8.186728477478027,0.6760091185569763
0.05439999949885532,8.266183853149414,0.685947597026825
0.054799998906673864,8.345630645751953,0.6959818601608276
0.055199998314492404,8.425069808959961,0.7061119079589844
0.05560000136028975,8.504501342773438,0.7163378000259399
0.05600000076810829,8.531071662902832,0.7266382575035095
0.056400000175926834,8.530486106872559,0.7369431257247925
0.056799999583745375,8.529892921447754,0.7472467422485352
0.057199998991563916,8.529291152954102,0.7575491666793823
0.05759999839938246,8.528680801391602,0.767850399017334
0.058000001445179805,8.528061866760254,0.7781503200531006
0.058400000852998346,8.527435302734375,0.7884489893913269
0.05880000026081689,8.526801109313965,0.7987464070320129
0.05919999966863543,8.52615737915039,0.8090425729751587
0.05959999907645397,8.525506019592285,0.8193374276161194
0.05999999848427251,8.524847030639648,0.8296310305595398
0.06040000153006986,8.524179458618164,0.8399233222007751
0.0608000009378884,8.523503303527832,0.8502142429351807
0.06120000034570694,8.522818565368652,0.8605039119720459
0.06160000339150429,8.522126197814941,0.8707922101020813
0.06199999916134402,8.521425247192383,0.8810791373252869
0.06240000220714137,8.520716667175293,0.8913647532463074
0.0627999979769811,8.519999504089355,0.901648998260498
0.06320000102277845,8.51927375793457,0.9119318723678589
0.06359999679261819,8.518540382385254,0.9222133159637451
0.06399999983841553,8.51779842376709,0.9324934482574463
0.06440000288421288,8.517047882080078,0.9427721500396729
0.06479999865405262,8.516289710998535,0.9530494213104248
0.06520000169984996,8.515523910522461,0.9633252620697021
0.0655999974696897,8.514748573303223,0.9735996723175049
0.06600000051548705,8.513965606689453,0.983872652053833
0.0664000035612844,8.513174057006836,0.9941442012786865
0.06679999933112413,8.512374877929688,1.0044142007827759
0.06720000237692147,8.575709342956543,1.014714002609253
0.06759999814676121,8.654892921447754,1.0251073837280273
0.06800000119255856,8.734068870544434,1.0355961322784424
0.06839999696239829,8.813236236572266,1.0461803674697876
0.06880000000819564,8.89239501953125,1.056860089302063
0.06920000305399299,8.971545219421387,1.0676352977752686
0.06959999882383272,9.050686836242676,1.0785057544708252
0.07000000186963007,9.129819869995117,1.089471697807312
0.0703999976394698,9.208943367004395,1.1005330085754395
0.07080000068526715,9.288058280944824,1.1116896867752075
0.07119999645510688,9.367164611816406,1.1229417324066162
0.07159999950090423,9.44626235961914,1.1342891454696655
0.07200000254670158,9.525349617004395,1.145731806755066
0.07239999831654131,9.6044282913208,1.1572697162628174
0.07280000136233866,9.68349838256836,1.1689029932022095
0.0731999971321784,9.746700286865234,1.1806296110153198
0.07360000017797574,9.745750427246094,1.1923856735229492
0.07400000322377309,9.744791984558105,1.204140067100525
0.07439999899361283,9.743824005126953,1.2158926725387573
0.07480000203941017,9.742846488952637,1.227643609046936
0.07519999780924991,9.741860389709473,1.239392638206482
0.07560000085504726,9.740863800048828,1.2511399984359741
0.07599999662488699,9.739858627319336,1.262885570526123
0.07639999967068434,9.738842964172363,1.2746293544769287
0.07680000271648169,9.737818717956543,1.2863712310791016
0.07719999848632142,9.736784934997559,1.2981114387512207
0.07760000153211877,9.73574161529541,1.309849739074707
0.0779999973019585,9.734688758850098,1.3215861320495605
0.07840000034775585,9.733627319335938,1.3333208560943604
0.0788000033935532,9.732556343078613,1.3450535535812378
0.07919999916339293,9.731474876403809,1.356784462928772
0.07960000220919028,9.730384826660156,1.3685134649276733
0.07999999797903001,9.72928524017334,1.380240559577942
0.08040000102482736,9.72817611694336,1.3919657468795776
0.0807999967946671,9.727058410644531,1.4036890268325806
0.08119999984046444,9.725930213928223,1.4154103994369507
0.08160000288626179,9.724793434143066,1.4271297454833984
0.08199999865610152,9.723647117614746,1.438847303390503
0.08240000170189887,9.722491264343262,1.4505627155303955
0.0827999974717386,9.721325874328613,1.4622762203216553
0.08320000051753595,9.720151901245117,1.4739878177642822
0.0836000035633333,9.71896743774414,1.4856972694396973
0.08399999933317304,9.717774391174316,1.4974048137664795
0.08440000237897038,9.716571807861328,1.5091103315353394
0.08479999814881012,9.715359687805176,1.5208138227462769
0.08520000119460747,9.714138984680176,1.532515287399292
0.0855999969644472,9.712907791137695,1.5442146062850952
0.08600000001024455,9.711668014526367,1.5559120178222656
0.0864000030560419,9.710418701171875,1.5676071643829346
0.08679999882588163,9.709159851074219,1.5793004035949707
0.08720000187167898,9.707891464233398,1.5909913778305054
0.08759999764151871,9.70661449432373,1.6026803255081177
0.08800000068731606,9.705327033996582,1.6143672466278076
0.0883999964571558,9.704030990600586,1.626051902770996
0.08879999950295314,9.780027389526367,1.637779712677002
0.08920000254875049,9.858712196350098,1.6496022939682007
0.08959999831859022,9.93738842010498,1.6615196466445923
0.09000000136438757,10.016054153442383,1.6735317707061768
0.0903999971342273,10.094710350036621,1.685638666152954
0.09080000018002465,10.173357009887695,1.6978403329849243
0.091200003225822,10.251994132995605,1.7101367712020874
0.09159999899566174,10.327922821044922,1.7225277423858643
0.09200000204145908,10.326539993286133,1.7349618673324585
0.09239999781129882,10.325146675109863,1.7473936080932617
0.09280000085709617,10.32374382019043,1.7598230838775635
0.0931999966269359,10.322330474853516,1.7722501754760742
0.09359999967273325,10.320908546447754,1.7846750020980835
0.0940000027185306,10.319475173950195,1.7970974445343018
0.09439999848837033,10.318033218383789,1.8095176219940186
0.09480000153416768,10.316579818725586,1.8219354152679443
0.09519999730400741,10.315117835998535,1.834350824356079
0.09560000034980476,10.313645362854004,1.8467638492584229
0.09600000339560211,10.312162399291992,1.8591746091842651
0.09639999916544184,10.310670852661133,1.8715827465057373
0.09680000221123919,10.309167861938477,1.883988618850708
0.09719999798107892,10.307656288146973,1.8963919878005981
0.09760000102687627,10.306134223937988,1.9087929725646973
0.097999996796716,10.304601669311523,1.9211914539337158
0.09839999984251335,10.303060531616211,1.9335875511169434
0.0988000028883107,10.301507949829102,1.9459811449050903
0.09919999865815043,10.299946784973145,1.9583722352981567
0.09960000170394778,10.298375129699707,1.9707608222961426
0.09999999747378752,10.296792984008789,1.9831467866897583
0.10040000051958486,10.295201301574707,1.995530366897583
0.10080000356538221,10.293600082397461,2.007911443710327
0.10119999933522195,10.29198932647705,2.020289897918701
0.1016000023810193,10.29036808013916,2.032665729522705
0.10199999815085903,10.288736343383789,2.045038938522339
0.10240000119665638,10.28709602355957,2.0574097633361816
0.10279999696649611,10.285444259643555,2.0697779655456543
0.10320000001229346,10.283783912658691,2.082143545150757
0.1036000030580908,10.282113075256348,2.0945065021514893
0.10399999882793054,10.28043270111084,2.1068665981292725
0.10440000187372789,10.278742790222168,2.1192243099212646
0.10479999764356762,10.277042388916016,2.1315793991088867
0.10520000068936497,10.275331497192383,2.1439316272735596
0.1055999964592047,10.273612022399902,2.1562814712524414
0.10599999950500205,10.271882057189941,2.168628454208374
0.1064000025507994,10.2701416015625,2.1809725761413574
0.10679999832063913,10.268392562866211,2.1933140754699707
0.10720000136643648,10.266633033752441,2.205652952194214
0.10759999713627622,10.264863014221191,2.217988967895508
0.10800000018207356,10.263083457946777,2.2303223609924316
0.10840000322787091,10.2612943649292,2.2426528930664062
0.10879999899771065,10.259495735168457,2.2549808025360107
0.109200002043508,10.298046112060547,2.2673182487487793
0.10959999781334773,10.376227378845215,2.279737710952759
0.11000000085914508,10.454399108886719,2.2922515869140625
0.11039999662898481,10.532559394836426,2.3048596382141113
0.11079999967478216,10.610711097717285,2.317561626434326
0.1112000027205795,10.649210929870605,2.330345869064331
0.11159999849041924,10.64734172821045,2.343139410018921
0.11200000153621659,10.645462036132812,2.3559303283691406
0.11239999730605632,10.643572807312012,2.368718147277832
0.11280000035185367,10.641672134399414,2.3815033435821533
0.11320000339765102,10.639761924743652,2.394285202026367
0.11359999916749075,10.63784122467041,2.407064437866211
0.1140000022132881,10.635910987854004,2.4198405742645264
0.11439999798312783,10.633970260620117,2.4326138496398926
0.11480000102892518,10.63201904296875,2.4453840255737305
0.11519999679876491,10.630057334899902,2.458151340484619
0.11559999984456226,10.628085136413574,2.4709155559539795
0.11600000289035961,10.626103401184082,2.4836766719818115
0.11639999866019934,10.624112129211426,2.4964349269866943
0.11680000170599669,10.622109413146973,2.509190082550049
0.11719999747583643,10.620097160339355,2.521942138671875
0.11760000052163377,10.618074417114258,2.534691095352173
0.11800000356743112,10.61604118347168,2.5474371910095215
0.11839999933727086,10.613998413085938,2.5601799488067627
0.1188000023830682,10.611945152282715,2.5729198455810547
0.11919999815290794,10.609881401062012,2.5856564044952393
0.11960000119870529,10.607808113098145,2.5983898639678955
0.11999999696854502,10.605724334716797,2.6111204624176025
0.12040000001434237,10.603630065917969,2.623847723007202
0.12080000306013972,10.601526260375977,2.6365718841552734
0.12119999882997945,10.599411964416504,2.6492927074432373
0.1216000018757768,10.59728717803955,2.662010431289673
0.12199999764561653,10.595152854919434,2.67472505569458
0.12240000069141388,10.593008041381836,2.68743634223938
0.12280000373721123,10.590852737426758,2.7001442909240723
0.12320000678300858,10.588687896728516,2.7128491401672363
0.1235999952768907,10.586512565612793,2.725550889968872
0.12399999832268804,10.58432674407959,2.7382493019104004
0.12440000136848539,10.582131385803223,2.7509443759918213
0.12480000441428274,10.579925537109375,2.7636361122131348
0.12519999290816486,10.577709197998047,2.776324510574341
0.1255999959539622,10.575483322143555,2.7890098094940186
0.12599999899975955,10.573246955871582,2.801691770553589
0.1264000020455569,10.571000099182129,2.8143701553344727
0.12680000509135425,10.568743705749512,2.827045440673828
0.12719999358523637,10.566476821899414,2.839717388153076
0.12759999663103372,10.564200401306152,2.8523857593536377
0.12799999967683107,10.56191349029541,2.865050792694092
0.12840000272262841,10.559616088867188,2.8777124881744385
0.12880000576842576,10.5573091506958,2.8903708457946777
0.12919999426230788,10.554991722106934,2.9030258655548096
0.12959999730810523,10.630563735961914,2.9157233238220215
0.13000000035390258,10.70822525024414,2.928514242172241
0.13040000339969993,10.785877227783203,2.9413986206054688
0.13080000644549727,10.861418724060059,2.954376459121704
0.1311999949393794,10.859049797058105,2.9673967361450195
0.13159999798517674,10.856670379638672,2.9804136753082275
0.1320000010309741,10.854281425476074,2.993427038192749
0.13240000407677144,10.85188102722168,3.006436824798584
0.1328000071225688,10.849471092224121,3.0194430351257324
0.1331999956164509,10.847049713134766,3.0324456691741943
0.13359999866224825,10.844618797302246,3.045444965362549
0.1340000017080456,10.842177391052246,3.0584404468536377
0.13440000475384295,10.839725494384766,3.07143235206604
0.13479999324772507,10.837263107299805,3.084420680999756
0.13519999629352242,10.834790229797363,3.097405433654785
0.13559999933931977,10.832306861877441,3.110386610031128
0.1360000023851171,10.829813957214355,3.123363971710205
0.13640000543091446,10.827309608459473,3.1363377571105957
0.13679999392479658,10.824795722961426,3.1493077278137207
0.13719999697059393,10.822271347045898,3.1622743606567383
0.13760000001639128,10.81973648071289,3.175236940383911
0.13800000306218863,10.817191123962402,3.1881959438323975
0.13840000610798597,10.814635276794434,3.2011513710021973
0.1387999946018681,10.812068939208984,3.2141029834747314
0.13919999764766544,10.809492111206055,3.22705078125
