time[s],iL[A],v out[V]
0.0,0.0,0.0
0.00040000000467443897,0.0,0.0
0.0008000000093488779,0.0,0.0
0.0012000000424450263,0.0,0.0
0.0016000000186977559,0.0,0.0
0.0019999999949504854,0.0,0.0
0.0024000000848900527,0.0,0.0
0.0027999999474559445,0.0,0.0
0.0032000000373955118,0.0,0.0
0.0035999998999614036,0.0,0.0
0.003999999989900971,0.0,0.0
0.004399999852466863,0.0,0.0
0.004800000169780105,0.0,0.0
0.005200000032345997,0.0,0.0
0.005599999894911889,0.0,0.0
0.006000000212225132,0.0,0.0
0.0064000000747910235,0.0,0.0
0.006799999937356915,0.0,0.0
0.007199999799922807,0.0,0.0
0.00760000011723605,0.0,0.0
0.007999999979801942,0.0,0.0
0.008400000297115184,0.0,0.0
0.008799999704933725,0.0,0.0
0.009200000022246968,0.0,0.0
0.00960000033956021,0.0,0.0
0.009999999747378752,0.02903538942337036,6.3867341850709636e-06
0.010400000064691994,0.058070749044418335,7.038703188300133e-05
0.010800000382005237,0.05807066336274147,0.00014077065861783922
0.011199999789823778,0.05807052552700043,0.00021115072013344616
0.01160000010713702,0.05807032808661461,0.00028152717277407646
0.012000000424450263,0.05807007476687431,0.000351899943780154
0.012399999832268804,0.05806976556777954,0.0004222689603921026
0.012800000149582047,0.05806939676403999,0.0004926341935060918
0.013199999557400588,0.05806897580623627,0.0005629954976029694
0.01359999987471383,0.058068498969078064,0.0006333528435789049
0.014000000192027073,0.058067962527275085,0.0007037061732262373
0.014399999599845614,0.05806737020611763,0.0007740553701296449
0.014799999917158857,0.058066725730895996,0.0008444004342891276
0.0152000002344721,0.05806602165102959,0.0009147413074970245
0.015600000551785342,0.0580652616918087,0.000985077815130353
0.015999999959603883,0.05806444585323334,0.0010554100153967738
0.016399999367422424,0.0580635704100132,0.0011257377918809652
0.01680000059423037,0.05806264281272888,0.0011960610281676054
0.01720000000204891,0.05806165933609009,0.0012663797242566943
0.01759999940986745,0.05806061625480652,0.0013366937637329102
0.018000000636675395,0.05805952101945877,0.001407003030180931
0.018400000044493936,0.05805836617946625,0.001477307640016079
0.018799999452312477,0.05805715546011925,0.00154760736040771
0.01920000067912042,0.05805588886141777,0.0016179021913558245
0.019600000086938962,0.058054566383361816,0.0016881920164451003
0.019999999494757503,0.058053188025951385,0.0017584767192602158
0.020400000721565448,0.05805175378918648,0.0018287564162164927
0.02080000012938399,0.05805026367306709,0.0018990308744832873
0.02119999953720253,0.05804871395230293,0.0019693002104759216
0.021600000764010474,0.058047112077474594,0.00203956407494843
0.022000000171829015,0.05804545059800148,0.0021098225843161345
0.022399999579647556,0.05804373696446419,0.002180075738579035
0.0228000008064555,0.05804196372628212,0.0022503233049064875
0.02320000021427404,0.058040134608745575,0.0023205652832984924
0.023599999622092582,0.05803824961185455,0.0023908016737550497
0.024000000848900527,0.058036308735609055,0.0024610322434455156
0.024400000256719068,0.05803431198000908,0.00253125699236989
0.02479999966453761,0.058032259345054626,0.0026014759205281734
0.025200000891345553,0.0580301508307457,0.0026716890279203653
0.025600000299164094,0.05802798643708229,0.0027418960817158222
0.025999999706982635,0.05802576243877411,0.002812097081914544
0.026399999114801176,0.05802348628640175,0.0028822917956858873
0.02680000034160912,0.05802115052938461,0.0029524804558604956
0.02719999974942766,0.0580187626183033,0.003022662829607725
0.027599999157246202,0.05801631510257721,0.003092838916927576
0.028000000384054147,0.05801381170749664,0.0031630084849894047
0.028399999791872688,0.0580112561583519,0.0032331717666238546
0.02879999919969123,0.05800864100456238,0.0033033282961696386
0.029200000426499173,0.05800596997141838,0.0033734783064574003
0.029599999834317714,0.05800324305891991,0.0034436217974871397
0.029999999242136255,0.08721961081027985,0.0035202261060476303
0.0304000004689442,0.11643589287996292,0.0036547204945236444
0.030800001695752144,0.11643291264772415,0.0037956726737320423
0.031200001103570685,0.11642982065677643,0.0039366139099001884
0.031600000511389226,0.11642660945653915,0.004077544901520014
0.03199999991920777,0.11642329394817352,0.004218465182930231
0.03239999932702631,0.11641986668109894,0.004359374288469553
0.03279999873484485,0.1164163202047348,0.0045002722181379795
0.0332000017806422,0.11641266196966171,0.004641158971935511
0.03360000118846074,0.11640889197587967,0.004782034549862146
0.03400000059627928,0.11640501022338867,0.004922898486256599
0.03440000000409782,0.11640101671218872,0.005063751246780157
0.03479999941191636,0.11639691144227982,0.005204591900110245
0.0351999988197349,0.11639268696308136,0.00534542091190815
0.03559999822755344,0.11638835817575455,0.005486237816512585
0.03600000127335079,0.11638391017913818,0.005627042148262262
0.03640000068116933,0.11637935042381287,0.005767834838479757
0.03680000008898787,0.11637468636035919,0.005908614490181208
0.03719999949680641,0.11636990308761597,0.006049382034689188
0.037599998904624954,0.11636500805616379,0.006190137006342411
0.037999998312443495,0.11635999381542206,0.0063308789394795895
0.03840000135824084,0.11635487526655197,0.006471607834100723
0.038800000766059384,0.11634964495897293,0.0066123236902058125
0.039200000173877925,0.11634429544210434,0.006753026507794857
0.039599999581696466,0.1163388341665268,0.006893715355545282
0.03999999898951501,0.11633326858282089,0.007034391164779663
0.04039999839733355,0.11632758378982544,0.007175053469836712
0.040800001443130895,0.11632178723812103,0.0073157018050551414
0.041200000850949436,0.11631587892770767,0.007456336170434952
0.04160000025876798,0.11630985885858536,0.007596956565976143
0.04199999966658652,0.11630372703075409,0.0077375625260174274
0.04239999907440506,0.11629747599363327,0.007878154516220093
0.0427999984822236,0.1162911206483841,0.008018732070922852
0.04320000152802095,0.11628464609384537,0.008159294724464417
0.04360000093583949,0.11627806723117828,0.008299842476844788
0.04400000034365803,0.11627136915922165,0.00844037625938654
0.04439999975147657,0.11626455932855606,0.008580894209444523
0.04479999915929511,0.11625763773918152,0.008721397258341312
0.04519999856711365,0.11625060439109802,0.008861885406076908
0.045600001612911,0.11624345928430557,0.009002357721328735
0.04600000102072954,0.11623620241880417,0.009142814204096794
0.04640000042854808,0.11622883379459381,0.009283255785703659
0.046799999836366624,0.1162213459610939,0.009423681534826756
0.047199999244185165,0.11621375381946564,0.009564090520143509
0.047599998652003706,0.11620604991912842,0.009704483672976494
0.048000001697801054,0.11619822680950165,0.00984486099332571
0.048400001105619594,0.11619029194116592,0.009985222481191158
0.048800000513438135,0.11618225276470184,0.010125566273927689
0.049199999921256676,0.11617409437894821,0.01026589423418045
0.04959999932907522,0.11616582423448563,0.01040620543062687
0.04999999873689376,0.14554408192634583,0.010553041473031044
0.050400001782691106,0.17492219805717468,0.010758014395833015
0.05080000119050965,0.17491351068019867,0.010969509370625019
0.05120000059832819,0.17490464448928833,0.011180983856320381
0.05160000000614673,0.17489561438560486,0.011392436921596527
0.05199999941396527,0.17488642036914825,0.011603868566453457
0.05239999882178381,0.17487704753875732,0.011815277859568596
0.05279999822960235,0.17486751079559326,0.012026666663587093
0.0532000012753997,0.17485781013965607,0.0122380331158638
0.05360000068321824,0.17484793066978455,0.012449377216398716
0.05400000009103678,0.1748378872871399,0.012660699896514416
0.05439999949885532,0.1748276799917221,0.01287199929356575
0.054799998906673864,0.17481729388237,0.013083276338875294
0.055199998314492404,0.17480674386024475,0.013294530101120472
0.05560000136028975,0.17479602992534637,0.013505760580301285
0.05600000076810829,0.17478513717651367,0.013716968707740307
0.056400000175926834,0.17477408051490784,0.013928152620792389
0.056799999583745375,0.17476284503936768,0.014139312319457531
0.057199998991563916,0.17475146055221558,0.014350448735058308
0.05759999839938246,0.17473989725112915,0.014561560936272144
0.058000001445179805,0.1747281551361084,0.014772647991776466
0.058400000852998346,0.17471624910831451,0.014983711764216423
0.05880000026081689,0.1747041791677475,0.01519474945962429
0.05919999966863543,0.17469194531440735,0.015405762940645218
0.05959999907645397,0.17467953264713287,0.01561675127595663
0.05999999848427251,0.17466695606708527,0.015827713534235954
0.06040000153006986,0.17465421557426453,0.016038650646805763
0.0608000009378884,0.17464129626750946,0.016249561682343483
0.06120000034570694,0.17462821304798126,0.016460448503494263
0.06160000339150429,0.17461495101451874,0.016671307384967804
0.06199999916134402,0.17460153996944427,0.016882140189409256
0.06240000220714137,0.17458795011043549,0.01709294691681862
0.0627999979769811,0.17457418143749237,0.017303725704550743
0.06320000102277845,0.17456026375293732,0.017514478415250778
0.06359999679261819,0.17454616725444794,0.017725203186273575
0.06399999983841553,0.17453190684318542,0.017935901880264282
0.06440000288421288,0.1745174676179886,0.01814657263457775
0.06479999865405262,0.17450286448001862,0.01835721544921398
0.06520000169984996,0.1744880974292755,0.018567830324172974
0.0655999974696897,0.17447315156459808,0.018778415396809578
0.06600000051548705,0.17445805668830872,0.018988974392414093
0.0664000035612844,0.17444276809692383,0.01919950358569622
0.06679999933112413,0.174427330493927,0.01941000297665596
0.06720000237692147,0.17441171407699585,0.01962047442793846
0.06759999814676121,0.17439593374729156,0.019830917939543724
0.06800000119255856,0.17437998950481415,0.02004132978618145
0.06839999696239829,0.1743638664484024,0.020251713693141937
0.06880000000819564,0.17434757947921753,0.020462065935134888
0.06920000305399299,0.17433112859725952,0.0206723902374506
0.06959999882383272,0.17431451380252838,0.020882682874798775
0.07000000186963007,0.20386746525764465,0.021099569275975227
0.0703999976394698,0.2334202229976654,0.021374858915805817
0.07080000068526715,0.2334030121564865,0.021656738594174385
0.07119999645510688,0.2333855777978897,0.021938584744930267
0.07159999950090423,0.2333679050207138,0.022220395505428314
0.07200000254670158,0.2333500236272812,0.022502170875668526
0.07239999831654131,0.23333190381526947,0.022783910855650902
0.07280000136233866,0.23331356048583984,0.023065613582730293
0.0731999971321784,0.2332949936389923,0.023347282782197
0.07360000017797574,0.23327620327472687,0.02362891286611557
0.07400000322377309,0.23325718939304352,0.023910509422421455
0.07439999899361283,0.23323795199394226,0.024192066863179207
0.07480000203941017,0.2332184910774231,0.024473588913679123
0.07519999780924991,0.23319879174232483,0.024755071848630905
0.07560000085504726,0.23317888379096985,0.025036517530679703
0.07599999662488699,0.23315873742103577,0.025317925959825516
0.07639999967068434,0.23313836753368378,0.025599295273423195
0.07680000271648169,0.23311777412891388,0.02588062733411789
0.07719999848632142,0.23309695720672607,0.02616192027926445
0.07760000153211877,0.23307591676712036,0.026443174108862877
0.0779999973019585,0.23305465281009674,0.02672438882291317
0.07840000034775585,0.2330331653356552,0.02700556255877018
0.0788000033935532,0.23301143944263458,0.027286699041724205
0.07919999916339293,0.23298950493335724,0.027567792683839798
0.07960000220919028,0.2329673320055008,0.027848849073052406
0.07999999797903001,0.23294493556022644,0.028129862621426582
0.08040000102482736,0.23292231559753418,0.028410835191607475
0.0807999967946671,0.232899472117424,0.028691766783595085
0.08119999984046444,0.23287640511989594,0.028972657397389412
0.08160000288626179,0.23285311460494995,0.029253507032990456
0.08199999865610152,0.23282960057258606,0.029534313827753067
0.08240000170189887,0.23280586302280426,0.029815077781677246
0.0827999974717386,0.23278190195560455,0.030095800757408142
0.08320000051753595,0.23275771737098694,0.030376479029655457
0.0836000035633333,0.23273329436779022,0.030657116323709488
0.08399999933317304,0.2327086627483368,0.030937708914279938
0.08440000237897038,0.23268379271030426,0.031218258664011955
0.08479999814881012,0.23265871405601501,0.03149876371026039
0.08520000119460747,0.23263339698314667,0.031779225915670395
0.0855999969644472,0.2326078712940216,0.03205963969230652
0.08600000001024455,0.23258210718631744,0.03234001249074936
0.0864000030560419,0.23255611956119537,0.03262034058570862
0.08679999882588163,0.2325299084186554,0.032900623977184296
0.08720000187167898,0.2325034886598587,0.03318085893988609
0.08759999764151871,0.2324768304824829,0.03346104919910431
0.08800000068731606,0.2324499487876892,0.033741194754838943
0.0883999964571558,0.2324228435754776,0.0340212918817997
0.08879999950295314,0.23239551484584808,0.03430134430527687
0.08920000254875049,0.23236796259880066,0.034581348299980164
0.08959999831859022,0.23234018683433533,0.034861307591199875
0.09000000136438757,0.26208141446113586,0.035147931426763535
0.0903999971342273,0.2918224036693573,0.03549324721097946
0.09080000018002465,0.2917938828468323,0.03584522381424904
0.091200003225822,0.2917650640010834,0.03619714826345444
0.09159999899566174,0.2917359471321106,0.036549024283885956
0.09200000204145908,0.29170656204223633,0.036900844424963
0.09239999781129882,0.29167690873146057,0.03725261241197586
0.09280000085709617,0.29164695739746094,0.037604328244924545
0.0931999966269359,0.2916167378425598,0.03795598819851875
0.09359999967273325,0.2915862500667572,0.03830759599804878
0.0940000027185306,0.2915554642677307,0.03865915164351463
0.09439999848837033,0.29152438044548035,0.03901064768433571
0.09480000153416768,0.2914930284023285,0.039362091571092606
0.09519999730400741,0.29146140813827515,0.039713479578495026
0.09560000034980476,0.2914294898509979,0.04006481543183327
0.09600000339560211,0.2913973033428192,0.04041609168052673
0.09639999916544184,0.2913648188114166,0.04076731204986572
0.09680000221123919,0.29133206605911255,0.041118476539850235
0.09719999798107892,0.291299045085907,0.04146958515048027
0.09760000102687627,0.29126572608947754,0.04182063415646553
0.097999996796716,0.2912321388721466,0.042171627283096313
0.09839999984251335,0.2911982536315918,0.04252256453037262
0.0988000028883107,0.2911641001701355,0.04287343844771385
0.09919999865815043,0.2911296486854553,0.043224260210990906
0.09960000170394778,0.29109492897987366,0.043575018644332886
0.09999999747378752,0.2910599410533905,0.04392571747303009
0.10040000051958486,0.29102465510368347,0.04427635669708252
0.10080000356538221,0.29098910093307495,0.04462694004178047
0.10119999933522195,0.29095324873924255,0.04497746005654335
0.1016000023810193,0.29091712832450867,0.045327916741371155
0.10199999815085903,0.2908807396888733,0.04567831754684448
0.10240000119665638,0.29084405303001404,0.046028655022382736
0.10279999696649611,0.2908070981502533,0.046378929167985916
0.10320000001229346,0.2907698452472687,0.04672914370894432
0.1036000030580908,0.29073232412338257,0.04707929491996765
0.10399999882793054,0.2906945049762726,0.04742938280105591
0.10440000187372789,0.2906564474105835,0.04777941107749939
0.10479999764356762,0.29061806201934814,0.0481293722987175
0.10520000068936497,0.2905794382095337,0.048479270190000534
0.1055999964592047,0.29054051637649536,0.048829104751348495
0.10599999950500205,0.29050129652023315,0.04917887598276138
0.1064000025507994,0.29046180844306946,0.0495285838842392
0.10679999832063913,0.2904220521450043,0.04987822473049164
0.10720000136643648,0.2903819978237152,0.05022779852151871
0.10759999713627622,0.29034167528152466,0.0505773089826107
0.10800000018207356,0.2903010845184326,0.050926752388477325
0.10840000322787091,0.2902601957321167,0.051276132464408875
0.10879999899771065,0.2902190387248993,0.05162544175982475
0.109200002043508,0.2901776134967804,0.05197468400001526
0.10959999781334773,0.2901358902454376,0.05232386291027069
0.11000000085914508,0.3200743794441223,0.05267978087067604
0.11039999662898481,0.35001254081726074,0.05309469252824783
0.11079999967478216,0.34996989369392395,0.053516339510679245
0.1112000027205795,0.3499269187450409,0.05393791198730469
0.11159999849041924,0.3498835861682892,0.05435941368341446
0.11200000153621659,0.3498399257659912,0.05478084459900856
0.11239999730605632,0.349795937538147,0.05520220100879669
0.11280000035185367,0.34975162148475647,0.055623482912778854
0.11320000339765102,0.3497069478034973,0.05604469031095505
0.11359999916749075,0.3496619462966919,0.05646581947803497
0.1140000022132881,0.3496166169643402,0.05688687786459923
0.11439999798312783,0.3495709300041199,0.05730786174535751
0.11480000102892518,0.34952491521835327,0.05772876739501953
0.11519999679876491,0.3494785726070404,0.05814959481358528
0.11559999984456226,0.3494318723678589,0.05857034772634506
0.11600000289035961,0.3493848443031311,0.058991022408008575
0.11639999866019934,0.34933748841285706,0.05941162258386612
0.11680000170599669,0.34928977489471436,0.0598321408033371
0.11719999747583643,0.3492417633533478,0.06025258079171181
0.11760000052163377,0.34919339418411255,0.06067294254899025
0.11800000356743112,0.34914466738700867,0.061093226075172424
0.11839999933727086,0.3490956425666809,0.06151343137025833
0.1188000023830682,0.3490462601184845,0.06193355470895767
0.11919999815290794,0.3489965498447418,0.062353599816560745
0.11960000119870529,0.3489464819431305,0.06277356296777725
0.11999999696854502,0.3488961160182953,0.0631934404373169
0.12040000001434237,0.34884539246559143,0.06361324340105057
0.12080000306013972,0.3487943410873413,0.06403295695781708
0.12119999882997945,0.34874293208122253,0.06445259600877762
0.1216000018757768,0.3486912250518799,0.064872145652771
0.12199999764561653,0.3486391305923462,0.06529161334037781
0.12240000069141388,0.3485867381095886,0.06571099907159805
0.12280000373721123,0.3485340178012848,0.06613030284643173
0.12320000678300858,0.3484809398651123,0.06654951721429825
0.1235999952768907,0.34842753410339355,0.0669686496257782
0.12399999832268804,0.34837380051612854,0.06738769263029099
0.12440000136848539,0.3483197093009949,0.0678066536784172
0.12480000441428274,0.34826529026031494,0.06822553277015686
0.12519999290816486,0.34821054339408875,0.06864432245492935
0.1255999959539622,0.3481554687023163,0.06906302273273468
0.12599999899975955,0.34810003638267517,0.06948163360357285
0.1264000020455569,0.3480443060398102,0.06990016251802444
0.12680000509135425,0.34798821806907654,0.07031860202550888
0.12719999358523637,0.34793177247047424,0.07073695212602615
0.12759999663103372,0.34787502884864807,0.07115521281957626
0.12799999967683107,0.34781792759895325,0.07157338410615921
0.12840000272262841,0.34776049852371216,0.071991465985775
0.12880000576842576,0.3477027416229248,0.07240945845842361
0.12919999426230788,0.3476446568965912,0.07282736152410507
0.12959999730810523,0.3475862145423889,0.07324517518281937
0.13000000035390258,0.37772640585899353,0.07366979867219925
0.13040000339969993,0.4078662097454071,0.07415372878313065
0.13080000644549727,0.4078066647052765,0.07464446872472763
0.1311999949393794,0.4077467620372772,0.07513511180877686
0.13159999798517674,0.4076864719390869,0.07562565803527832
0.1320000010309741,0.4076257646083832,0.07611610740423203
0.13240000407677144,0.4075646698474884,0.07660645991563797
0.1328000071225688,0.4075031876564026,0.07709671556949615
0.1331999956164509,0.40744131803512573,0.07758687436580658
0.13359999866224825,0.40737906098365784,0.07807692885398865
0.1340000017080456,0.4073163866996765,0.07856688648462296
0.13440000475384295,0.40725335478782654,0.0790567472577095
0.13479999324772507,0.40718990564346313,0.0795465037226677
0.13519999629352242,0.4071260690689087,0.08003615587949753
0.13559999933931977,0.4070618450641632,0.0805257111787796
0.1360000023851171,0.4069972336292267,0.08101516216993332
0.13640000543091446,0.4069322347640991,0.08150451630353928
0.13679999392479658,0.40686681866645813,0.08199376612901688
