time[s],iL[A],v out[V]
0.0,0.0,0.0
0.00040000000467443897,0.0,0.0
0.0008000000093488779,0.0,0.0
0.0012000000424450263,0.0,0.0
0.0016000000186977559,0.0,0.0
0.0019999999949504854,0.0,0.0
0.0024000000848900527,0.0,0.0
0.0027999999474559445,0.0,0.0
0.0032000000373955118,0.0,0.0
0.0035999998999614036,0.0,0.0
0.003999999989900971,0.0,0.0
0.004399999852466863,0.0,0.0
0.004800000169780105,0.0,0.0
0.005200000032345997,0.0,0.0
0.005599999894911889,0.0,0.0
0.006000000212225132,0.0,0.0
0.0064000000747910235,0.0,0.0
0.006799999937356915,0.0,0.0
0.007199999799922807,0.0,0.0
0.00760000011723605,0.0,0.0
0.007999999979801942,0.0,0.0
0.008400000297115184,0.010195009410381317,7.874091352277901e-07
0.008799999704933725,0.09019499272108078,6.162871432024986e-05
0.009200000022246968,0.17019487917423248,0.0002194343542214483
0.00960000033956021,0.25019460916519165,0.0004741994780488312
0.009999999747378752,0.3301940858364105,0.0008259190944954753
0.010400000064691994,0.4101932644844055,0.0012745882850140333
0.010800000382005237,0.4901920258998871,0.0018202017527073622
0.011199999789823778,0.5701903104782104,0.0024627542588859797
0.01160000010713702,0.6501880884170532,0.0032022406812757254
0.012000000424450263,0.6603801846504211,0.004001741297543049
0.012399999832268804,0.6603766679763794,0.004801986739039421
0.012800000149582047,0.6603724956512451,0.005602188408374786
0.013199999557400588,0.6603677272796631,0.006402346305549145
0.01359999987471383,0.6603622436523438,0.007202459033578634
0.014000000192027073,0.6603561639785767,0.008002526126801968
0.014399999599845614,0.6603494882583618,0.008802546188235283
0.014799999917158857,0.6603420972824097,0.009602518752217293
0.0152000002344721,0.6603341102600098,0.010402443818747997
0.015600000551785342,0.6603254675865173,0.011202320456504822
0.015999999959603883,0.6603161692619324,0.012002146802842617
0.016399999367422424,0.6603062748908997,0.012801922857761383
0.01680000059423037,0.6602957248687744,0.013601647689938545
0.01720000000204891,0.6602845191955566,0.014401320368051529
0.01759999940986745,0.6602726578712463,0.01520093996077776
0.018000000636675395,0.6602602005004883,0.01600050739943981
0.018400000044493936,0.6602470278739929,0.01680001989006996
0.018799999452312477,0.6602333188056946,0.017599476501345634
0.01920000067912042,0.6602188944816589,0.01839887723326683
0.019600000086938962,0.6602038741111755,0.01919822208583355
0.019999999494757503,0.6601881980895996,0.019997509196400642
0.020400000721565448,0.6601718664169312,0.02079673856496811
0.02080000012938399,0.6601549386978149,0.0215959083288908
0.02119999953720253,0.6601373553276062,0.022395020350813866
0.021600000764010474,0.6601191163063049,0.023194070905447006
0.022000000171829015,0.6601002216339111,0.023993058130145073
0.022399999579647556,0.6600807309150696,0.024791985750198364
0.0228000008064555,0.6600605249404907,0.02559085004031658
0.02320000021427404,0.6600397825241089,0.026389651000499725
0.023599999622092582,0.6600183248519897,0.027188386768102646
0.024000000848900527,0.6599962711334229,0.027987059205770493
0.024400000256719068,0.6599735617637634,0.028785664588212967
0.02479999966453761,0.6599501967430115,0.02958420291543007
0.025200000891345553,0.6599262356758118,0.0303826741874218
0.025600000299164094,0.6599015593528748,0.031181078404188156
0.025999999706982635,0.6598763465881348,0.03197941184043884
0.026399999114801176,0.6598504185676575,0.03277767822146416
0.02680000034160912,0.6598238945007324,0.0335758700966835
0.02719999974942766,0.6597967147827148,0.034373994916677475
0.027599999157246202,0.6597688794136047,0.03517204523086548
0.028000000384054147,0.6597404479980469,0.03597002103924751
0.028399999791872688,0.6597113013267517,0.036767926067113876
0.02879999919969123,0.7279239296913147,0.037601035088300705
0.029200000426499173,0.8078934550285339,0.03852998837828636
0.029599999834317714,0.8878622055053711,0.039555829018354416
0.029999999242136255,0.9678301215171814,0.04067854583263397
0.0304000004689442,1.0477970838546753,0.04189813509583473
0.030800001695752144,1.127763032913208,0.043214596807956696
0.031200001103570685,1.2077279090881348,0.04462791606783867
0.031600000511389226,1.2759339809417725,0.046137042343616486
0.03199999991920777,1.275896430015564,0.047681331634521484
0.03239999932702631,1.27585768699646,0.04922550171613693
0.03279999873484485,1.275817632675171,0.05076954886317253
0.0332000017806422,1.2757765054702759,0.05231346935033798
0.03360000118846074,1.2757339477539062,0.053857266902923584
0.03400000059627928,1.2756903171539307,0.05540093407034874
0.03440000000409782,1.27564537525177,0.05694447457790375
0.03479999941191636,1.2755991220474243,0.05848788470029831
0.0351999988197349,1.2755517959594727,0.060031164437532425
0.03559999822755344,1.275503158569336,0.061574310064315796
0.03600000127335079,1.2754532098770142,0.06311732530593872
0.03640000068116933,1.2754021883010864,0.0646601989865303
0.03680000008898787,1.275349736213684,0.06620293855667114
0.03719999949680641,1.2752962112426758,0.06774553656578064
0.037599998904624954,1.2752413749694824,0.0692879930138588
0.037999998312443495,1.2751853466033936,0.07083030790090561
0.03840000135824084,1.2751280069351196,0.07237248122692108
0.038800000766059384,1.2750695943832397,0.07391451299190521
0.039200000173877925,1.2750097513198853,0.0754563957452774
0.039599999581696466,1.2749488353729248,0.07699812948703766
0.03999999898951501,1.2748866081237793,0.07853971421718597
0.04039999839733355,1.2748231887817383,0.08008114993572235
0.040800001443130895,1.2747584581375122,0.08162242919206619
0.041200000850949436,1.2746925354003906,0.0831635594367981
0.04160000025876798,1.2746254205703735,0.08470452576875687
0.04199999966658652,1.2745569944381714,0.0862453430891037
0.04239999907440506,1.2744873762130737,0.0877859964966774
0.0427999984822236,1.2744165658950806,0.08932649344205856
0.04320000152802095,1.2743444442749023,0.09086683392524719
0.04360000093583949,1.2742712497711182,0.09240700304508209
0.04400000034365803,1.2741966247558594,0.09394701570272446
0.04439999975147657,1.2741209268569946,0.09548685699701309
0.04479999915929511,1.2740439176559448,0.097026526927948
0.04519999856711365,1.27396559715271,0.09856604039669037
0.045600001612911,1.2738862037658691,0.10010537505149841
0.04600000102072954,1.2738054990768433,0.10164453834295273
0.04640000042854808,1.2737234830856323,0.10318353027105331
0.046799999836366624,1.2736403942108154,0.10472234338521957
0.047199999244185165,1.2735559940338135,0.1062609851360321
0.047599998652003706,1.273470401763916,0.10779944807291031
0.048000001697801054,1.2733834981918335,0.10933773219585419
0.048400001105619594,1.2732954025268555,0.11087583750486374
0.048800000513438135,1.3325209617614746,0.11244041472673416
0.049199999921256676,1.4124304056167603,0.11409852653741837
0.04959999932907522,1.4923384189605713,0.11585342139005661
0.04999999873689376,1.5722450017929077,0.1177050843834877
0.050400001782691106,1.65215003490448,0.11965350806713104
0.05080000119050965,1.732053518295288,0.12169869244098663
0.05120000059832819,1.8119553327560425,0.12384062260389328
0.05160000000614673,1.8711702823638916,0.12607605755329132
0.05199999941396527,1.8710684776306152,0.12833790481090546
0.05239999882178381,1.8709648847579956,0.13059952855110168
0.05279999822960235,1.8708595037460327,0.1328609138727188
0.0532000012753997,1.8707523345947266,0.13512206077575684
0.05360000068321824,1.8706433773040771,0.13738296926021576
0.05400000009103678,1.870532512664795,0.13964363932609558
0.05439999949885532,1.870419979095459,0.1419040560722351
0.054799998906673864,1.8703055381774902,0.14416423439979553
0.055199998314492404,1.8701893091201782,0.14642414450645447
0.05560000136028975,1.8700711727142334,0.1486838161945343
0.05600000076810829,1.8699513673782349,0.15094323456287384
0.056400000175926834,1.869829773902893,0.15320239961147308
0.056799999583745375,1.8697062730789185,0.15546129643917084
0.057199998991563916,1.8695809841156006,0.1577199399471283
0.05759999839938246,1.8694539070129395,0.15997833013534546
0.058000001445179805,1.869325041770935,0.16223643720149994
0.058400000852998346,1.8691942691802979,0.16449429094791412
0.05880000026081689,1.869061827659607,0.16675186157226562
0.05919999966863543,1.8689274787902832,0.16900917887687683
0.05959999907645397,1.8687914609909058,0.17126621305942535
0.05999999848427251,1.8686535358428955,0.1735229641199112
0.06040000153006986,1.868513822555542,0.17577944695949554
0.0608000009378884,1.8683723211288452,0.1780356466770172
0.06120000034570694,1.8682289123535156,0.1802915632724762
0.06160000339150429,1.8680838346481323,0.1825472116470337
0.06199999916134402,1.8679368495941162,0.1848025619983673
0.06240000220714137,1.8677881956100464,0.18705761432647705
0.0627999979769811,1.8676376342773438,0.1893123835325241
0.06320000102277845,1.8674852848052979,0.19156686961650848
0.06359999679261819,1.8673310279846191,0.1938210427761078
0.06399999983841553,1.8671751022338867,0.1960749328136444
0.06440000288421288,1.867017388343811,0.19832850992679596
0.06479999865405262,1.8668577671051025,0.20058180391788483
0.06520000169984996,1.8666964769363403,0.20283478498458862
0.0655999974696897,1.8665332794189453,0.20508745312690735
0.06600000051548705,1.866368293762207,0.2073398232460022
0.0664000035612844,1.8662015199661255,0.20959188044071198
0.06679999933112413,1.8660329580307007,0.21184362471103668
0.06720000237692147,1.8658626079559326,0.21409505605697632
0.06759999814676121,1.8656903505325317,0.2163461595773697
0.06800000119255856,1.8655164241790771,0.21859696507453918
0.06839999696239829,1.8653405904769897,0.22084742784500122
0.06880000000819564,1.9158908128738403,0.22311706840991974
0.06920000305399299,1.995711326599121,0.22547687590122223
0.06959999882383272,2.0755300521850586,0.22793330252170563
0.07000000186963007,2.155346632003784,0.23048634827136993
0.0703999976394698,2.235161304473877,0.23313602805137634
0.07080000068526715,2.3149735927581787,0.23588231205940247
0.07119999645510688,2.3947837352752686,0.2387252151966095
0.07159999950090423,2.445319414138794,0.24165821075439453
0.07200000254670158,2.445124864578247,0.24461032450199127
0.07239999831654131,2.444927930831909,0.24756206572055817
0.07280000136233866,2.4447288513183594,0.2505134046077728
0.0731999971321784,2.4445271492004395,0.25346437096595764
0.07360000017797574,2.4443233013153076,0.2564149498939514
0.07400000322377309,2.4441168308258057,0.25936514139175415
0.07439999899361283,2.443908214569092,0.26231494545936584
0.07480000203941017,2.443697214126587,0.2652643322944641
0.07519999780924991,2.443483829498291,0.26821333169937134
0.07560000085504726,2.443268060684204,0.27116191387176514
0.07599999662488699,2.443049907684326,0.2741101086139679
0.07639999967068434,2.4428293704986572,0.2770578861236572
0.07680000271648169,2.4426066875457764,0.28000524640083313
0.07719999848632142,2.4423813819885254,0.282952219247818
0.07760000153211877,2.4421539306640625,0.28589874505996704
0.0779999973019585,2.4419240951538086,0.28884485363960266
0.07840000034775585,2.4416918754577637,0.29179054498672485
0.0788000033935532,2.4414572715759277,0.2947358191013336
0.07919999916339293,2.441220283508301,0.29768064618110657
0.07960000220919028,2.440980911254883,0.3006250560283661
0.07999999797903001,2.440739154815674,0.3035690188407898
0.08040000102482736,2.440495014190674,0.3065125644207001
0.0807999967946671,2.440248727798462,0.30945563316345215
0.08119999984046444,2.440000057220459,0.3123982846736908
0.08160000288626179,2.439749002456665,0.315340518951416
0.08199999865610152,2.43949556350708,0.31828227639198303
0.08240000170189887,2.439239740371704,0.32122355699539185
0.0827999974717386,2.438981533050537,0.32416442036628723
0.08320000051753595,2.438720941543579,0.3271048069000244
0.0836000035633333,2.438458204269409,0.3300447463989258
0.08399999933317304,2.438192844390869,0.33298423886299133
0.08440000237897038,2.437925338745117,0.3359232246875763
0.08479999814881012,2.437655448913574,0.33886176347732544
0.08520000119460747,2.4373831748962402,0.3417998254299164
0.0855999969644472,2.4371085166931152,0.3447374403476715
0.08600000001024455,2.436831474304199,0.34767454862594604
0.0864000030560419,2.4365522861480713,0.3506111800670624
0.08679999882588163,2.4362707138061523,0.3535473346710205
0.08720000187167898,2.4359865188598633,0.35648301243782043
0.08759999764151871,2.4357001781463623,0.35941818356513977
0.08800000068731606,2.4354114532470703,0.3623528778553009
0.0883999964571558,2.4351205825805664,0.36528709530830383
0.08879999950295314,2.4761149883270264,0.36823371052742004
0.08920000254875049,2.555819272994995,0.3712654411792755
0.08959999831859022,2.6355209350585938,0.37439361214637756
0.09000000136438757,2.7152202129364014,0.37761828303337097
0.0903999971342273,2.794916868209839,0.3809393644332886
0.09080000018002465,2.874610662460327,0.38435688614845276
0.091200003225822,2.9543018341064453,0.3878708481788635
0.09159999899566174,2.9952781200408936,0.3914698660373688
0.09200000204145908,2.9949634075164795,0.3950812518596649
0.09239999781129882,2.994645833969116,0.3986920714378357
0.09280000085709617,2.9943253993988037,0.4023023247718811
0.0931999966269359,2.994002103805542,0.40591201186180115
0.09359999967273325,2.993675947189331,0.4095211625099182
0.0940000027185306,2.993346929550171,0.4131297171115875
0.09439999848837033,2.9930150508880615,0.4167376756668091
0.09480000153416768,2.992680072784424,0.42034509778022766
0.09519999730400741,2.992342472076416,0.4239518940448761
0.09560000034980476,2.99200177192688,0.42755815386772156
0.09600000339560211,2.9916584491729736,0.4311637878417969
0.09639999916544184,2.991312026977539,0.43476882576942444
0.09680000221123919,2.9909627437591553,0.43837329745292664
0.09719999798107892,2.9906105995178223,0.4419771432876587
0.09760000102687627,2.99025559425354,0.445580393075943
0.097999996796716,2.9898977279663086,0.44918304681777954
0.09839999984251335,2.989537000656128,0.45278507471084595
0.0988000028883107,2.989173173904419,0.4563865065574646
0.09919999865815043,2.98880672454834,0.4599872827529907
0.09960000170394778,2.9884371757507324,0.4635874927043915
0.09999999747378752,2.988065004348755,0.4671870470046997
0.10040000051958486,2.987689733505249,0.4707859754562378
0.10080000356538221,2.987311840057373,0.47438427805900574
0.10119999933522195,2.9869308471679688,0.47798195481300354
0.1016000023810193,2.9865469932556152,0.4815789759159088
0.10199999815085903,2.9861602783203125,0.48517537117004395
0.10240000119665638,2.9857707023620605,0.48877111077308655
0.10279999696649611,2.9853782653808594,0.4923661947250366
0.10320000001229346,2.984982967376709,0.49596062302589417
0.1036000030580908,2.9845848083496094,0.49955442547798157
0.10399999882793054,2.9841835498809814,0.503147542476654
0.10440000187372789,2.9837796688079834,0.5067400336265564
0.10479999764356762,2.983372926712036,0.5103318095207214
0.10520000068936497,2.9829630851745605,0.513922929763794
0.1055999964592047,2.982550621032715,0.5175133943557739
0.10599999950500205,2.982135057449341,0.5211032032966614
0.1064000025507994,2.9817168712615967,0.5246922969818115
0.10679999832063913,2.981295585632324,0.5282807350158691
0.10720000136643648,2.9808714389801025,0.5318684577941895
0.10759999713627622,2.9804446697235107,0.5354554653167725
0.10800000018207356,2.9800148010253906,0.5390418171882629
0.10840000322787091,2.9795820713043213,0.5426275134086609
0.10879999899771065,3.0119988918304443,0.546220600605011
0.109200002043508,3.0915603637695312,0.5498932003974915
0.10959999781334773,3.171118974685669,0.5536620020866394
0.11000000085914508,3.2506744861602783,0.5575270652770996
0.11039999662898481,3.3302268981933594,0.5614883303642273
0.11079999967478216,3.409776210784912,0.5655458569526672
0.1112000027205795,3.4893219470977783,0.5696996450424194
0.11159999849041924,3.521716833114624,0.5739327669143677
0.11200000153621659,3.5212559700012207,0.5781732797622681
0.11239999730605632,3.52079176902771,0.5824130773544312
0.11280000035185367,3.520324230194092,0.5866520404815674
0.11320000339765102,3.519853115081787,0.5908902883529663
0.11359999916749075,3.519378662109375,0.5951277613639832
0.1140000022132881,3.5189008712768555,0.5993643999099731
0.11439999798312783,3.5184197425842285,0.6036003232002258
0.11480000102892518,3.517935037612915,0.6078354120254517
0.11519999679876491,3.5174472332000732,0.6120696663856506
0.11559999984456226,3.516955852508545,0.6163031458854675
0.11600000289035961,3.516461133956909,0.6205358505249023
0.11639999866019934,3.515963077545166,0.6247677803039551
0.11680000170599669,3.5154614448547363,0.6289988160133362
0.11719999747583643,3.514956474304199,0.6332290768623352
0.11760000052163377,3.514448404312134,0.6374585032463074
0.11800000356743112,3.513936758041382,0.6416871547698975
0.11839999933727086,3.5134215354919434,0.6459149122238159
0.1188000023830682,3.5129032135009766,0.6501418948173523
0.11919999815290794,3.5123813152313232,0.6543680429458618
0.11960000119870529,3.5118560791015625,0.6585932970046997
0.11999999696854502,3.5113277435302734,0.6628177762031555
0.12040000001434237,3.510795831680298,0.6670413613319397
0.12080000306013972,3.510260581970215,0.671264111995697
0.12119999882997945,3.5097217559814453,0.6754860281944275
0.1216000018757768,3.5091795921325684,0.6797070503234863
0.12199999764561653,3.508634328842163,0.6839271783828735
0.12240000069141388,3.5080854892730713,0.6881464719772339
0.12280000373721123,3.507533311843872,0.6923649311065674
0.12320000678300858,3.5069775581359863,0.6965824365615845
0.1235999952768907,3.5064187049865723,0.7007991075515747
0.12399999832268804,3.5058562755584717,0.7050148844718933
0.12440000136848539,3.5052907466888428,0.7092298269271851
0.12480000441428274,3.5047216415405273,0.7134438157081604
0.12519999290816486,3.5041491985321045,0.7176569104194641
0.1255999959539622,3.503573417663574,0.7218691110610962
0.12599999899975955,3.5029940605163574,0.7260804176330566
0.1264000020455569,3.5024116039276123,0.7302908301353455
0.12680000509135425,3.5018258094787598,0.7345002889633179
0.12719999358523637,3.5012364387512207,0.7387088537216187
0.12759999663103372,3.500643730163574,0.7429165244102478
0.12799999967683107,3.5000476837158203,0.7471232414245605
0.12840000272262841,3.499448299407959,0.7513290047645569
0.12880000576842576,3.5278258323669434,0.7555402517318726
0.12919999426230788,3.607219696044922,0.7598277926445007
0.12959999730810523,3.686610221862793,0.7642113566398621
0.13000000035390258,3.7659969329833984,0.7686908841133118
0.13040000339969993,3.8453803062438965,0.7732664942741394
0.13080000644549727,3.924759864807129,0.7779380679130554
0.1311999949393794,4.004135608673096,0.7827056050300598
0.13159999798517674,4.032487869262695,0.7875494360923767
0.1320000010309741,4.031855583190918,0.7923986315727234
0.13240000407677144,4.031219959259033,0.7972468137741089
0.1328000071225688,4.030580043792725,0.8020939826965332
0.1331999956164509,4.029936790466309,0.8069401383399963
0.13359999866224825,4.029289245605469,0.8117852807044983
0.1340000017080456,4.028637886047363,0.8166293501853943
0.13440000475384295,4.027982234954834,0.8214724659919739
0.13479999324772507,4.027323246002197,0.8263145089149475
0.13519999629352242,4.026660442352295,0.83115553855896
0.13559999933931977,4.025993347167969,0.8359954953193665
0.1360000023851171,4.025322914123535,0.8408344388008118
0.13640000543091446,4.024648189544678,0.8456723093986511
0.13679999392479658,4.023969650268555,0.8505091667175293
0.13719999697059393,4.023287296295166,0.8553449511528015
0.13760000001639128,4.022601127624512,0.8601796627044678
0.13800000306218863,4.021911144256592,0.8650133013725281
0.13840000610798597,4.021217346191406,0.8698458671569824
0.1387999946018681,4.020519256591797,0.8746773600578308
0.13919999764766544,4.01981782913208,0.8795077204704285
0.1396000006934628,4.0191121101379395,0.8843370676040649
0.14000000373926014,4.018402576446533,0.8891652822494507
0.14040000678505749,4.017689228057861,0.8939924240112305
0.1407999952789396,4.016972064971924,0.8988184332847595
