time[s],iL[A],v out[V]
0.0,0.0,0.0
0.00040000000467443897,0.0,0.0
0.0008000000093488779,0.0,0.0
0.0012000000424450263,0.0,0.0
0.0016000000186977559,0.0,0.0
0.0019999999949504854,0.0,0.0
0.0024000000848900527,0.0,0.0
0.0027999999474559445,0.0,0.0
0.0032000000373955118,0.0,0.0
0.0035999998999614036,0.0,0.0
0.003999999989900971,0.0,0.0
0.004399999852466863,0.0,0.0
0.004800000169780105,0.0,0.0
0.005200000032345997,0.0,0.0
0.005599999894911889,0.0,0.0
0.006000000212225132,0.0,0.0
0.0064000000747910235,0.0,0.0
0.006799999937356915,0.0,0.0
0.007199999799922807,0.0,0.0
0.00760000011723605,0.0,0.0
0.007999999979801942,0.0,0.0
0.008400000297115184,0.0,0.0
0.008799999704933725,0.0,0.0
0.009200000022246968,0.0,0.0
0.00960000033956021,0.07989081740379333,4.8351826990256086e-05
0.009999999747378752,0.15989072620868683,0.00019366851483937353
0.010400000064691994,0.23989048600196838,0.0004359453159850091
0.010800000382005237,0.3197808265686035,0.0007751771481707692
0.011199999789823778,0.31978005170822144,0.0011627428466454148
0.01160000010713702,0.3197789788246155,0.001550288638100028
0.012000000424450263,0.31977757811546326,0.0019378141732886434
0.012399999832268804,0.31977587938308716,0.0023253189865499735
0.012800000149582047,0.3197738528251648,0.002712802728638053
0.013199999557400588,0.31977152824401855,0.00310026528313756
0.01359999987471383,0.31976890563964844,0.0034877057187259197
0.014000000192027073,0.31976595520973206,0.003875124268233776
0.014399999599845614,0.3197627067565918,0.004262520000338554
0.014799999917158857,0.3197591304779053,0.004649892915040255
0.0152000002344721,0.3197552561759949,0.005037242546677589
0.015600000551785342,0.3197510838508606,0.005424568895250559
0.015999999959603883,0.31974658370018005,0.005811870563775301
0.016399999367422424,0.31974178552627563,0.006199148017913103
0.01680000059423037,0.31973665952682495,0.006586400792002678
0.01720000000204891,0.3197312355041504,0.006973628420382738
0.01759999940986745,0.31972551345825195,0.007360830437391996
0.018000000636675395,0.31971946358680725,0.007748006843030453
0.018400000044493936,0.31971311569213867,0.008135156705975533
0.018799999452312477,0.31970643997192383,0.008522279560565948
0.01920000067912042,0.3196994662284851,0.008909376338124275
0.019600000086938962,0.3196921944618225,0.009296445176005363
0.019999999494757503,0.31968459486961365,0.009683486074209213
0.020400000721565448,0.3196766972541809,0.010070499032735825
0.02080000012938399,0.3196684718132019,0.010457483120262623
0.02119999953720253,0.319659948348999,0.010844438336789608
0.021600000764010474,0.31965112686157227,0.01123136468231678
0.022000000171829015,0.31964197754859924,0.011618261225521564
0.022399999579647556,0.31963253021240234,0.012005127966403961
0.0228000008064555,0.31962278485298157,0.012391963973641396
0.02320000021427404,0.3196127116680145,0.012778769247233868
0.023599999622092582,0.3196023404598236,0.013165542855858803
0.024000000848900527,0.3195916414260864,0.013552285730838776
0.024400000256719068,0.31958064436912537,0.013938996940851212
0.02479999966453761,0.31956934928894043,0.014325674623250961
0.025200000891345553,0.31955772638320923,0.014712320640683174
0.025600000299164094,0.31954580545425415,0.015098934061825275
0.025999999706982635,0.3195335865020752,0.015485513024032116
0.026399999114801176,0.31952103972435,0.015872059389948845
0.02680000034160912,0.3195081651210785,0.016258569434285164
0.02719999974942766,0.3194950222969055,0.016645047813653946
0.027599999157246202,0.3194815516471863,0.017031488940119743
0.028000000384054147,0.3194677531719208,0.017417896538972855
0.028399999791872688,0.3194536864757538,0.01780426688492298
0.02879999919969123,0.3194392919540405,0.018190603703260422
0.029200000426499173,0.319424569606781,0.01857690140604973
0.029599999834317714,0.39749571681022644,0.019009355455636978
0.029999999242136255,0.47748032212257385,0.01953870989382267
0.0304000004689442,0.5574644207954407,0.020164987072348595
0.030800001695752144,0.6355342268943787,0.020888155326247215
0.031200001103570685,0.6355171799659729,0.021657457575201988
0.031600000511389226,0.6354995369911194,0.022426702082157135
0.03199999991920777,0.6354812979698181,0.023195886984467506
0.03239999932702631,0.6354624629020691,0.023965012282133102
0.03279999873484485,0.6354429721832275,0.024734077975153923
0.0332000017806422,0.6354228854179382,0.02550308220088482
0.03360000118846074,0.6354021430015564,0.02627202309668064
0.03400000059627928,0.6353808045387268,0.02704090252518654
0.03440000000409782,0.6353588700294495,0.027809718623757362
0.03479999941191636,0.6353363394737244,0.028578469529747963
0.0351999988197349,0.6353131532669067,0.02934715710580349
0.03559999822755344,0.6352893710136414,0.030115777626633644
0.03600000127335079,0.6352649927139282,0.030884331092238426
0.03640000068116933,0.6352399587631226,0.031652819365262985
0.03680000008898787,0.6352143287658691,0.03242123872041702
0.03719999949680641,0.635188102722168,0.03318958729505539
0.037599998904624954,0.6351612210273743,0.033957868814468384
0.037999998312443495,0.6351337432861328,0.03472607955336571
0.03840000135824084,0.6351056694984436,0.03549421951174736
0.038800000766059384,0.6350769400596619,0.03626228868961334
0.039200000173877925,0.6350476741790771,0.037030283361673355
0.039599999581696466,0.6350176930427551,0.0377982072532177
0.03999999898951501,0.6349871754646301,0.03856605291366577
0.04039999839733355,0.6349560022354126,0.039333827793598175
0.040800001443130895,0.6349242329597473,0.04010152444243431
0.041200000850949436,0.6348918676376343,0.04086914658546448
0.04160000025876798,0.6348588466644287,0.041636694222688675
0.04199999966658652,0.6348252296447754,0.042404163628816605
0.04239999907440506,0.6347910165786743,0.04317155107855797
0.0427999984822236,0.6347561478614807,0.04393886402249336
0.04320000152802095,0.6347206830978394,0.04470609501004219
0.04360000093583949,0.6346846222877502,0.04547324404120445
0.04400000034365803,0.6346479654312134,0.04624031484127045
0.04439999975147657,0.634610652923584,0.047007299959659576
0.04479999915929511,0.6345727443695068,0.04777420684695244
0.04519999856711365,0.6345341801643372,0.04854102432727814
0.045600001612911,0.6344950795173645,0.04930776357650757
0.04600000102072954,0.6344553232192993,0.050074413418769836
0.04640000042854808,0.6344149708747864,0.05084098130464554
0.046799999836366624,0.6343739628791809,0.05160745978355408
0.047199999244185165,0.6343323588371277,0.05237385258078575
0.047599998652003706,0.6342901587486267,0.05314015597105026
0.048000001697801054,0.634247362613678,0.05390637367963791
0.048400001105619594,0.6342039108276367,0.054672498255968094
0.048800000513438135,0.6341598629951477,0.055438533425331116
0.049199999921256676,0.6341152191162109,0.056204479187726974
0.04959999932907522,0.709142804145813,0.057013027369976044
0.04999999873689376,0.7890968322753906,0.05791826546192169
0.050400001782691106,0.8690500855445862,0.058920372277498245
0.05080000119050965,0.9440754055976868,0.060019154101610184
0.05120000059832819,0.9440269470214844,0.06116052344441414
0.05160000000614673,0.9439775347709656,0.06230177357792854
0.05199999941396527,0.9439272284507751,0.0634429082274437
0.05239999882178381,0.9438760280609131,0.0645839273929596
0.05279999822960235,0.9438239336013794,0.06572483479976654
0.0532000012753997,0.9437708854675293,0.06686561554670334
0.05360000068321824,0.9437169432640076,0.06800627708435059
0.05400000009103678,0.9436620473861694,0.06914681941270828
0.05439999949885532,0.9436063170433044,0.07028723508119583
0.054799998906673864,0.943549633026123,0.07142753154039383
0.055199998314492404,0.9434919953346252,0.07256770133972168
0.05560000136028975,0.9434335231781006,0.07370775192975998
0.05600000076810829,0.9433740973472595,0.07484766840934753
0.056400000175926834,0.9433137774467468,0.07598745822906494
0.056799999583745375,0.9432525038719177,0.0771271213889122
0.057199998991563916,0.943190336227417,0.07826665043830872
0.05759999839938246,0.9431272745132446,0.07940605282783508
0.058000001445179805,0.9430633187294006,0.0805453211069107
0.058400000852998346,0.9429984092712402,0.08168445527553558
0.05880000026081689,0.9429326057434082,0.08282345533370972
0.05919999966863543,0.9428659081459045,0.0839623212814331
0.05959999907645397,0.9427982568740845,0.08510105311870575
0.05999999848427251,0.9427297115325928,0.08623964339494705
0.06040000153006986,0.9426602721214294,0.08737809211015701
0.0608000009378884,0.9425898790359497,0.08851640671491623
0.06120000034570694,0.9425186514854431,0.0896545797586441
0.06160000339150429,0.9424464702606201,0.09079260379076004
0.06199999916134402,0.9423733949661255,0.09193049371242523
0.06240000220714137,0.9422993659973145,0.09306823462247849
0.0627999979769811,0.9422244429588318,0.0942058265209198
0.06320000102277845,0.9421486258506775,0.09534327685832977
0.06359999679261819,0.9420719146728516,0.09648057818412781
0.06399999983841553,0.9419942498207092,0.0976177304983139
0.06440000288421288,0.94191575050354,0.09875473380088806
0.06479999865405262,0.9418362379074097,0.09989158809185028
0.06520000169984996,0.9417558908462524,0.10102828592061996
0.0655999974696897,0.9416745901107788,0.10216483473777771
0.06600000051548705,0.9415924549102783,0.10330122709274292
0.0664000035612844,0.9415093660354614,0.10443747043609619
0.06679999933112413,0.9414253234863281,0.10557354986667633
0.06720000237692147,0.941340446472168,0.10670947283506393
0.06759999814676121,0.9412546157836914,0.107845239341259
0.06800000119255856,0.9411678910255432,0.10898084193468094
0.06839999696239829,0.9410802125930786,0.11011628806591034
0.06880000000819564,0.9409916996955872,0.11125157028436661
0.06920000305399299,0.9409022331237793,0.11238668859004974
0.06959999882383272,1.0110747814178467,0.1135590448975563
0.07000000186963007,1.0909833908081055,0.1148274838924408
0.0703999976394698,1.1708910465240479,0.11619272083044052
0.07080000068526715,1.2410603761672974,0.11765402555465698
0.07119999645510688,1.2409656047821045,0.11915253847837448
0.07159999950090423,1.2408697605133057,0.12065087258815765
0.07200000254670158,1.2407726049423218,0.1221490129828453
0.07239999831654131,1.2406742572784424,0.12364695966243744
0.07280000136233866,1.2405747175216675,0.12514472007751465
0.0731999971321784,1.240473985671997,0.12664227187633514
0.07360000017797574,1.2403721809387207,0.1281396448612213
0.07400000322377309,1.2402690649032593,0.12963680922985077
0.07439999899361283,1.2401647567749023,0.1311337798833847
0.07480000203941017,1.24005925655365,0.13263055682182312
0.07519999780924991,1.2399524450302124,0.13412712514400482
0.07560000085504726,1.239844560623169,0.135623499751091
0.07599999662488699,1.23973548412323,0.13711966574192047
0.07639999967068434,1.2396252155303955,0.13861562311649323
0.07680000271648169,1.2395137548446655,0.14011137187480927
0.07719999848632142,1.2394009828567505,0.1416069120168686
0.07760000153211877,1.2392871379852295,0.1431022435426712
0.0779999973019585,1.239172101020813,0.1445973664522171
0.07840000034775585,1.2390557527542114,0.1460922807455063
0.0788000033935532,1.238938331604004,0.14758697152137756
0.07919999916339293,1.2388195991516113,0.14908145368099213
0.07960000220919028,1.2386997938156128,0.15057571232318878
0.07999999797903001,1.2385786771774292,0.15206976234912872
0.08040000102482736,1.23845636844635,0.15356358885765076
0.0807999967946671,1.238332986831665,0.15505719184875488
0.08119999984046444,1.238208293914795,0.1565505713224411
0.08160000288626179,1.2380825281143188,0.1580437272787094
0.08199999865610152,1.2379554510116577,0.15953665971755981
0.08240000170189887,1.237827181816101,0.16102935373783112
0.0827999974717386,1.2376978397369385,0.1625218391418457
0.08320000051753595,1.2375671863555908,0.16401407122612
0.0836000035633333,1.2374353408813477,0.16550609469413757
0.08399999933317304,1.2373024225234985,0.16699786484241486
0.08440000237897038,1.2371681928634644,0.16848941147327423
0.08479999814881012,1.2370327711105347,0.1699807345867157
0.08520000119460747,1.236896276473999,0.17147180438041687
0.0855999969644472,1.2367584705352783,0.17296263575553894
0.08600000001024455,1.236619472503662,0.1744532287120819
0.0864000030560419,1.2364792823791504,0.17594358325004578
0.08679999882588163,1.2363380193710327,0.17743369936943054
0.08720000187167898,1.23619544506073,0.178923562169075
0.08759999764151871,1.2360516786575317,0.18041318655014038
0.08800000068731606,1.235906720161438,0.18190255761146545
0.0883999964571558,1.2357606887817383,0.18339167535305023
0.08879999950295314,1.2356133460998535,0.1848805546760559
0.08920000254875049,1.2354648113250732,0.1863691806793213
0.08959999831859022,1.3004350662231445,0.1878896802663803
0.09000000136438757,1.3802841901779175,0.1895052045583725
0.0903999971342273,1.4601318836212158,0.19121743738651276
0.09080000018002465,1.525098204612732,0.19302469491958618
0.091200003225822,1.5249429941177368,0.19486379623413086
0.09159999899566174,1.524786353111267,0.19670262932777405
0.09200000204145908,1.5246282815933228,0.19854117929935455
0.09239999781129882,1.5244686603546143,0.20037944614887238
0.09280000085709617,1.5243076086044312,0.20221742987632751
0.0931999966269359,1.5241451263427734,0.20405513048171997
0.09359999967273325,1.5239812135696411,0.20589253306388855
0.0940000027185306,1.5238157510757446,0.20772966742515564
0.09439999848837033,1.5236488580703735,0.20956648886203766
0.09480000153416768,1.5234804153442383,0.211403027176857
0.09519999730400741,1.5233105421066284,0.21323928236961365
0.09560000034980476,1.523139238357544,0.21507522463798523
0.09600000339560211,1.5229665040969849,0.21691088378429413
0.09639999916544184,1.5227922201156616,0.21874623000621796
0.09680000221123919,1.5226165056228638,0.2205812931060791
0.09719999798107892,1.5224392414093018,0.22241604328155518
0.09760000102687627,1.5222605466842651,0.22425048053264618
0.097999996796716,1.522080421447754,0.2260846197605133
0.09839999984251335,1.521898865699768,0.22791844606399536
0.0988000028883107,1.521715760231018,0.22975197434425354
0.09919999865815043,1.5215312242507935,0.23158517479896545
0.09960000170394778,1.5213452577590942,0.2334180772304535
0.09999999747378752,1.5211577415466309,0.23525065183639526
0.10040000051958486,1.5209687948226929,0.23708291351795197
0.10080000356538221,1.5207784175872803,0.2389148622751236
0.10119999933522195,1.5205864906311035,0.24074648320674896
0.1016000023810193,1.5203932523727417,0.24257777631282806
0.10199999815085903,1.5201984643936157,0.2444087564945221
0.10240000119665638,1.5200021266937256,0.24623940885066986
0.10279999696649611,1.5198044776916504,0.24806973338127136
0.10320000001229346,1.519605278968811,0.2498997300863266
0.1036000030580908,1.519404649734497,0.25172939896583557
0.10399999882793054,1.519202470779419,0.2535587251186371
0.10440000187372789,1.5189988613128662,0.25538772344589233
0.10479999764356762,1.5187938213348389,0.2572163939476013
0.10520000068936497,1.518587350845337,0.25904470682144165
0.1055999964592047,1.5183794498443604,0.2608726918697357
0.10599999950500205,1.5181699991226196,0.26270031929016113
0.1064000025507994,1.5179591178894043,0.2645276188850403
0.10679999832063913,1.5177466869354248,0.2663545608520508
0.10720000136643648,1.5175329446792603,0.268181174993515
0.10759999713627622,1.5173176527023315,0.2700074315071106
0.10800000018207356,1.5171009302139282,0.2718333303928375
0.10840000322787091,1.5168826580047607,0.2736589014530182
0.10879999899771065,1.5166630744934082,0.2754840850830078
0.109200002043508,1.5164419412612915,0.27730894088745117
0.10959999781334773,1.5747911930084229,0.27915942668914795
0.11000000085914508,1.654567003250122,0.2811030149459839
0.11039999662898481,1.7343413829803467,0.28314322233200073
0.11079999967478216,1.7926857471466064,0.2852765619754791
0.1112000027205795,1.7924567461013794,0.28743547201156616
0.11159999849041924,1.7922258377075195,0.28959402441978455
0.11200000153621659,1.7919933795928955,0.2917521893978119
0.11239999730605632,1.7917591333389282,0.2939099669456482
0.11280000035185367,1.7915230989456177,0.29606735706329346
0.11320000339765102,1.7912853956222534,0.2982243299484253
0.11359999916749075,1.791045904159546,0.3003809452056885
0.1140000022132881,1.7908047437667847,0.30253714323043823
0.11439999798312783,1.7905619144439697,0.30469295382499695
0.11480000102892518,1.7903172969818115,0.30684834718704224
0.11519999679876491,1.79007089138031,0.3090033531188965
0.11559999984456226,1.7898228168487549,0.3111579418182373
0.11600000289035961,1.789573073387146,0.3133121430873871
0.11639999866019934,1.7893215417861938,0.31546592712402344
0.11680000170599669,1.789068341255188,0.31761929392814636
0.11719999747583643,1.7888133525848389,0.31977227330207825
0.11760000052163377,1.788556694984436,0.3219248056411743
0.11800000356743112,1.78829824924469,0.32407695055007935
0.11839999933727086,1.7880381345748901,0.32622864842414856
0.1188000023830682,1.7877763509750366,0.32837992906570435
0.11919999815290794,1.7875127792358398,0.3305308222770691
0.11960000119870529,1.7872474193572998,0.33268123865127563
0.11999999696854502,1.7869805097579956,0.33483126759529114
0.12040000001434237,1.7867118120193481,0.3369808495044708
0.12080000306013972,1.7864413261413574,0.3391300141811371
0.12119999882997945,1.786169171333313,0.34127873182296753
0.1216000018757768,1.7858953475952148,0.34342703223228455
0.12199999764561653,1.7856197357177734,0.34557488560676575
0.12240000069141388,1.7853423357009888,0.34772229194641113
0.12280000373721123,1.78506338596344,0.3498692512512207
0.12320000678300858,1.7847825288772583,0.35201579332351685
0.1235999952768907,1.7845001220703125,0.3541618585586548
0.12399999832268804,1.7842159271240234,0.3563075065612793
0.12440000136848539,1.7839300632476807,0.3584526777267456
0.12480000441428274,1.7836424112319946,0.3605974316596985
0.12519999290816486,1.7833530902862549,0.36274170875549316
0.1255999959539622,1.7830619812011719,0.364885538816452
0.12599999899975955,1.7827692031860352,0.3670288920402527
0.1264000020455569,1.7824747562408447,0.36917179822921753
0.12680000509135425,1.782178521156311,0.37131425738334656
0.12719999358523637,1.7818806171417236,0.3734562397003174
0.12759999663103372,1.7815810441970825,0.37559774518013
0.12799999967683107,1.7812796831130981,0.3777388036251068
0.12840000272262841,1.78097665309906,0.379879355430603
0.12880000576842576,1.7806719541549683,0.3820194602012634
0.12919999426230788,1.7803654670715332,0.3841590881347656
0.12959999730810523,1.8327585458755493,0.3863193094730377
0.13000000035390258,1.9124486446380615,0.3885703384876251
0.13040000339969993,1.992136836051941,0.3909178674221039
0.13080000644549727,2.0445244312286377,0.39335620403289795
0.1311999949393794,2.0442087650299072,0.3958151042461395
0.13159999798517674,2.043891191482544,0.3982734680175781
0.1320000010309741,2.0435714721679688,0.4007313549518585
0.13240000407677144,2.04325008392334,0.4031887352466583
0.1328000071225688,2.042926549911499,0.40564560890197754
0.1331999956164509,2.0426008701324463,0.4081019461154938
0.13359999866224825,2.04227352142334,0.4105577766895294
0.1340000017080456,2.0419440269470215,0.4130131006240845
0.13440000475384295,2.0416126251220703,0.41546788811683655
0.13479999324772507,2.0412793159484863,0.41792216897010803
0.13519999629352242,2.0409440994262695,0.42037591338157654
0.13559999933931977,2.040606737136841,0.42282915115356445
0.1360000023851171,2.0402674674987793,0.4252818524837494
0.13640000543091446,2.039926290512085,0.42773401737213135
0.13679999392479658,2.039583206176758,0.4301856458187103
0.13719999697059393,2.0392379760742188,0.43263673782348633
0.13760000001639128,2.038890838623047,0.43508729338645935
0.13800000306218863,2.038541793823242,0.4375373125076294
0.13840000610798597,2.0381908416748047,0.43998679518699646
0.1387999946018681,2.0378377437591553,0.44243571162223816
0.13919999764766544,2.037482976913452,0.4448840916156769
0.1396000006934628,2.037126064300537,0.4473319351673126
0.14000000373926014,2.0367672443389893,0.449779212474823
