time[s],iL[A],v out[V]
0.0,0.0,0.0
0.00040000000467443897,0.0,0.0
0.0008000000093488779,0.0,0.0
0.0012000000424450263,0.0,0.0
0.0016000000186977559,0.0,0.0
0.0019999999949504854,0.0,0.0
0.0024000000848900527,0.0,0.0
0.0027999999474559445,0.0,0.0
0.0032000000373955118,0.0,0.0
0.0035999998999614036,0.0,0.0
0.003999999989900971,0.0,0.0
0.004399999852466863,0.04983912408351898,1.8817527234205045e-05
0.004800000169780105,0.12983907759189606,0.00012771025649271905
0.005200000032345997,0.2098388969898224,0.0003335649089422077
0.005599999894911889,0.2898385226726532,0.0006363766151480377
0.006000000212225132,0.36983785033226013,0.0010361403692513704
0.0064000000747910235,0.4498368203639984,0.0015328510198742151
0.006799999937356915,0.5298353433609009,0.0021265035029500723
0.007199999799922807,0.6098334193229675,0.002817092463374138
0.00760000011723605,0.6898308396339417,0.003604612546041608
0.007999999979801942,0.7698276042938232,0.0044890581630170345
0.008400000297115184,0.8498236536979675,0.005470423959195614
0.008799999704933725,0.9298188090324402,0.006548704579472542
0.009200000022246968,1.0098130702972412,0.007723893504589796
0.00960000033956021,1.0898064374923706,0.008995985612273216
0.009999999747378752,1.169798731803894,0.010364973917603493
0.010400000064691994,1.249789834022522,0.01183085422962904
0.010800000382005237,1.3297797441482544,0.013393618166446686
0.011199999789823778,1.4097683429718018,0.015053261071443558
0.01160000010713702,1.489755630493164,0.016809776425361633
0.012000000424450263,1.5697414875030518,0.018663158640265465
0.012399999832268804,1.6497257947921753,0.020613398402929306
0.012800000149582047,1.7297084331512451,0.02266049198806286
0.013199999557400588,1.8096895217895508,0.024804431945085526
0.01359999987471383,1.8896687030792236,0.02704521082341671
0.014000000192027073,1.9696462154388428,0.029382821172475815
0.014399999599845614,2.04962158203125,0.03181725740432739
0.014799999917158857,2.1295952796936035,0.034348513931035995
0.0152000002344721,2.209566831588745,0.03697657957673073
0.015600000551785342,2.2895359992980957,0.03970145061612129
0.015999999959603883,2.3393423557281494,0.042516227811574936
0.016399999367422424,2.3393070697784424,0.045349642634391785
0.01680000059423037,2.3392696380615234,0.04818287491798401
0.01720000000204891,2.3392300605773926,0.05101592466235161
0.01759999940986745,2.3391880989074707,0.053848788142204285
0.018000000636675395,2.339143991470337,0.05668146163225174
0.018400000044493936,2.339097499847412,0.05951394513249397
0.018799999452312477,2.3390486240386963,0.06234623119235039
0.01920000067912042,2.3389976024627686,0.06517831981182098
0.019600000086938962,2.338944435119629,0.06801020354032516
0.019999999494757503,2.3388888835906982,0.07084189355373383
0.020400000721565448,2.3388311862945557,0.07367337495088577
0.02080000012938399,2.338771104812622,0.07650464028120041
0.02119999953720253,2.3387086391448975,0.07933569699525833
0.021600000764010474,2.338644027709961,0.08216654509305954
0.022000000171829015,2.3385772705078125,0.08499716967344284
0.022399999579647556,2.338508129119873,0.08782757818698883
0.0228000008064555,2.3384366035461426,0.09065776318311691
0.02320000021427404,2.3383629322052,0.09348772466182709
0.023599999622092582,2.338287115097046,0.09631745517253876
0.024000000848900527,2.3382089138031006,0.09914696216583252
0.024400000256719068,2.3381285667419434,0.10197623074054718
0.02479999966453761,2.3396475315093994,0.10480527579784393
0.025200000891345553,2.419562578201294,0.10768450051546097
0.025600000299164094,2.4994752407073975,0.11066044121980667
0.025999999706982635,2.57938551902771,0.11373309791088104
0.026399999114801176,2.6592931747436523,0.11690246313810349
0.02680000034160912,2.7391984462738037,0.1201685294508934
0.02719999974942766,2.819100856781006,0.1235312893986702
0.027599999157246202,2.899000883102417,0.12699073553085327
0.028000000384054147,2.9788978099823,0.13054685294628143
0.028399999791872688,3.0587918758392334,0.13419964909553528
0.02879999919969123,3.1386830806732178,0.13794909417629242
0.029200000426499173,3.218571186065674,0.14179518818855286
0.029599999834317714,3.2984561920166016,0.1457379311323166
0.029999999242136255,3.378337860107422,0.14977730810642242
0.0304000004689442,3.458216428756714,0.15391331911087036
0.030800001695752144,3.5380916595458984,0.158145934343338
0.031200001103570685,3.6179633140563965,0.16247516870498657
0.031600000511389226,3.697831630706787,0.16690100729465485
0.03199999991920777,3.777696371078491,0.17142342031002045
0.03239999932702631,3.8575572967529297,0.17604242265224457
0.03279999873484485,3.9374146461486816,0.18075799942016602
0.0332000017806422,4.017268180847168,0.1855701506137848
0.03360000118846074,4.097117900848389,0.1904788464307785
0.03400000059627928,4.1769633293151855,0.19548407196998596
0.03440000000409782,4.256804943084717,0.20058585703372955
0.03479999941191636,4.336642265319824,0.2057841569185257
0.0351999988197349,4.416475772857666,0.2110789716243744
0.03559999822755344,4.417906284332275,0.21642372012138367
0.03600000127335079,4.417731285095215,0.22176803648471832
0.03640000068116933,4.417551517486572,0.22711187601089478
0.03680000008898787,4.417367935180664,0.23245522379875183
0.03719999949680641,4.417179584503174,0.23779809474945068
0.037599998904624954,4.416987419128418,0.24314047396183014
0.037999998312443495,4.41679048538208,0.2484823614358902
0.03840000135824084,4.416589736938477,0.25382375717163086
0.038800000766059384,4.416384696960449,0.25916463136672974
0.039200000173877925,4.41617488861084,0.264504998922348
0.039599999581696466,4.415961265563965,0.2698448598384857
0.03999999898951501,4.415743350982666,0.2751842141151428
0.04039999839733355,4.415521144866943,0.28052303194999695
0.040800001443130895,4.415294647216797,0.2858613133430481
0.041200000850949436,4.415063858032227,0.29119905829429626
0.04160000025876798,4.414828777313232,0.29653623700141907
0.04199999966658652,4.4145894050598145,0.3018729090690613
0.04239999907440506,4.414345741271973,0.3072090148925781
0.0427999984822236,4.414097785949707,0.3125445544719696
0.04320000152802095,4.413845539093018,0.3178795576095581
0.04360000093583949,4.413589000701904,0.32321396470069885
0.04400000034365803,4.413328170776367,0.32854780554771423
0.04439999975147657,4.4130635261535645,0.33388108015060425
0.04479999915929511,4.41279411315918,0.3392137587070465
0.04519999856711365,4.412520885467529,0.3445458710193634
0.045600001612911,4.412242889404297,0.34987738728523254
0.04600000102072954,4.411961078643799,0.35520827770233154
0.04640000042854808,4.446954727172852,0.3605480194091797
0.046799999836366624,4.5266642570495605,0.3659689724445343
0.047199999244185165,4.6063690185546875,0.37148624658584595
0.047599998652003706,4.686069488525391,0.3770999014377594
0.048000001697801054,4.76576566696167,0.3828098475933075
0.048400001105619594,4.845457077026367,0.388616144657135
0.048800000513438135,4.925143718719482,0.39451873302459717
0.049199999921256676,5.004826068878174,0.40051761269569397
0.04959999932907522,5.084503173828125,0.4066128134727478
0.04999999873689376,5.164175510406494,0.4128042459487915
0.050400001782691106,5.243842601776123,0.41909196972846985
0.05080000119050965,5.32350492477417,0.42547595500946045
0.05120000059832819,5.403161525726318,0.4319562017917633
0.05160000000614673,5.482813358306885,0.43853265047073364
0.05199999941396527,5.562459945678711,0.44520533084869385
0.05239999882178381,5.642101287841797,0.45197421312332153
0.05279999822960235,5.721736907958984,0.4588393270969391
0.0532000012753997,5.801366806030273,0.46580061316490173
0.05360000068321824,5.880991458892822,0.4728580713272095
0.05400000009103678,5.915890693664551,0.47999653220176697
0.05439999949885532,5.91550350189209,0.4871436357498169
0.054799998906673864,5.915111064910889,0.49428990483283997
0.055199998314492404,5.914712905883789,0.501435399055481
0.05560000136028975,5.914309024810791,0.5085799694061279
0.05600000076810829,5.913898944854736,0.5157237648963928
0.056400000175926834,5.913483619689941,0.5228667259216309
0.056799999583745375,5.913062572479248,0.5300087928771973
0.057199998991563916,5.912635803222656,0.5371500253677368
0.05759999839938246,5.912202835083008,0.5442903637886047
0.058000001445179805,5.911764621734619,0.551429808139801
0.058400000852998346,5.911320686340332,0.5585684180259705
0.05880000026081689,5.9108710289001465,0.5657061338424683
0.05919999966863543,5.9104156494140625,0.5728429555892944
0.05959999907645397,5.90995454788208,0.579978883266449
0.05999999848427251,5.909487724304199,0.5871138572692871
0.06040000153006986,5.90901517868042,0.5942479372024536
0.0608000009378884,5.908536911010742,0.6013811230659485
0.06120000034570694,5.908052921295166,0.608513355255127
0.06160000339150429,5.907563209533691,0.615644633769989
0.06199999916134402,5.907067775726318,0.6227750182151794
0.06240000220714137,5.906567096710205,0.6299044489860535
0.0627999979769811,5.906060218811035,0.6370328664779663
0.06320000102277845,5.905547618865967,0.6441603899002075
0.06359999679261819,5.905029296875,0.6512869000434875
0.06399999983841553,5.904505729675293,0.6584124565124512
0.06440000288421288,5.903975963592529,0.6655369997024536
0.06479999865405262,5.903440475463867,0.6726605892181396
0.06520000169984996,5.902899742126465,0.6797831654548645
0.0655999974696897,5.902352809906006,0.6869047284126282
0.06600000051548705,5.901800632476807,0.6940252780914307
0.0664000035612844,5.901242733001709,0.701144814491272
0.06679999933112413,5.900678634643555,0.7082633376121521
0.06720000237692147,5.935479640960693,0.7153902649879456
0.06759999814676121,6.014904499053955,0.7225980758666992
0.06800000119255856,6.094323635101318,0.7299017906188965
0.06839999696239829,6.173736572265625,0.7373014092445374
0.06880000000819564,6.253143787384033,0.7447969317436218
0.06920000305399299,6.332544803619385,0.7523882985115051
0.06959999882383272,6.411940097808838,0.760075569152832
0.07000000186963007,6.491328716278076,0.7678586840629578
0.0703999976394698,6.570711612701416,0.7757377028465271
0.07080000068526715,6.650087833404541,0.7837125062942505
0.07119999645510688,6.729457378387451,0.7917830944061279
0.07159999950090423,6.808820724487305,0.7999495267868042
0.07200000254670158,6.888177394866943,0.8082117438316345
0.07239999831654131,6.967527389526367,0.8165697455406189
0.07280000136233866,7.046871185302734,0.8250235319137573
0.0731999971321784,7.081577777862549,0.8335580229759216
0.07360000017797574,7.080907821655273,0.8421006798744202
0.07400000322377309,7.080230712890625,0.8506421446800232
0.07439999899361283,7.0795464515686035,0.8591824173927307
0.07480000203941017,7.078855991363525,0.8677213788032532
0.07519999780924991,7.078158378601074,0.8762591481208801
0.07560000085504726,7.077454090118408,0.884795606136322
0.07599999662488699,7.076742649078369,0.8933308124542236
0.07639999967068434,7.076024532318115,0.9018647074699402
0.07680000271648169,7.0752997398376465,0.9103973507881165
0.07719999848632142,7.074567794799805,0.9189286828041077
0.07760000153211877,7.073829174041748,0.9274587035179138
0.0779999973019585,7.073083877563477,0.9359874129295349
0.07840000034775585,7.07233190536499,0.944514811038971
0.0788000033935532,7.071572780609131,0.9530408382415771
0.07919999916339293,7.070806980133057,0.9615655541419983
0.07960000220919028,7.070034027099609,0.9700889587402344
0.07999999797903001,7.0692548751831055,0.9786109924316406
0.08040000102482736,7.0684685707092285,0.987131655216217
0.0807999967946671,7.067675590515137,0.9956509470939636
0.08119999984046444,7.066875457763672,1.0041688680648804
0.08160000288626179,7.066068649291992,1.0126854181289673
0.08199999865610152,7.065255165100098,1.0212005376815796
0.08240000170189887,7.064435005187988,1.0297142267227173
0.0827999974717386,7.063607692718506,1.03822660446167
0.08320000051753595,7.062773704528809,1.0467374324798584
0.0836000035633333,7.0619330406188965,1.0552469491958618
0.08399999933317304,7.061085224151611,1.0637550354003906
0.08440000237897038,7.060230731964111,1.0722615718841553
0.08479999814881012,7.0593695640563965,1.0807666778564453
0.08520000119460747,7.058501720428467,1.0892703533172607
0.0855999969644472,7.057626724243164,1.0977725982666016
0.08600000001024455,7.0567450523376465,1.1062732934951782
0.0864000030560419,7.055856704711914,1.1147725582122803
0.08679999882588163,7.054961681365967,1.1232703924179077
0.08720000187167898,7.0540595054626465,1.1317665576934814
0.08759999764151871,7.053150653839111,1.1402612924575806
0.08800000068731606,7.054181098937988,1.148754596710205
0.0883999964571558,7.13325834274292,1.157297134399414
0.08879999950295314,7.212329387664795,1.1659351587295532
0.08920000254875049,7.291392803192139,1.174668550491333
0.08959999831859022,7.370449542999268,1.1834973096847534
0.09000000136438757,7.449499607086182,1.192421555519104
0.0903999971342273,7.5285420417785645,1.2014410495758057
0.09080000018002465,7.607576847076416,1.2105560302734375
0.091200003225822,7.686604976654053,1.2197662591934204
0.09159999899566174,7.765625476837158,1.2290719747543335
0.09200000204145908,7.844638347625732,1.238472819328308
0.09239999781129882,7.845589637756348,1.2479230165481567
0.09280000085709617,7.844587326049805,1.257371425628662
0.0931999966269359,7.843577861785889,1.2668181657791138
0.09359999967273325,7.842560768127441,1.2762633562088013
0.0940000027185306,7.841535568237305,1.2857067584991455
0.09439999848837033,7.840503215789795,1.2951483726501465
0.09480000153416768,7.839463710784912,1.3045884370803833
0.09519999730400741,7.83841609954834,1.3140267133712769
0.09560000034980476,7.8373613357543945,1.3234632015228271
0.09600000339560211,7.83629846572876,1.3328980207443237
0.09639999916544184,7.835228443145752,1.342331051826477
0.09680000221123919,7.834150791168213,1.351762294769287
0.09719999798107892,7.833065509796143,1.3611918687820435
0.09760000102687627,7.831973075866699,1.370619535446167
0.097999996796716,7.830872535705566,1.3800455331802368
0.09839999984251335,7.8297648429870605,1.3894697427749634
0.0988000028883107,7.828649520874023,1.3988920450210571
0.09919999865815043,7.827526569366455,1.4083125591278076
0.09960000170394778,7.8263959884643555,1.4177312850952148
0.09999999747378752,7.825258255004883,1.4271482229232788
0.10040000051958486,7.824112892150879,1.43656325340271
0.10080000356538221,7.822959899902344,1.4459764957427979
0.10119999933522195,7.821799278259277,1.455387830734253
0.1016000023810193,7.82063102722168,1.4647972583770752
0.10199999815085903,7.819455623626709,1.4742048978805542
0.10240000119665638,7.818272590637207,1.4836105108261108
0.10279999696649611,7.817081928253174,1.4930143356323242
0.10320000001229346,7.815883636474609,1.5024162530899048
0.1036000030580908,7.814677715301514,1.5118162631988525
0.10399999882793054,7.813464641571045,1.5212143659591675
0.10440000187372789,7.812243938446045,1.5306105613708496
0.10479999764356762,7.811015605926514,1.5400047302246094
0.10520000068936497,7.809780120849609,1.5493969917297363
0.1055999964592047,7.808536529541016,1.558787226676941
0.10599999950500205,7.807285785675049,1.5681755542755127
0.1064000025507994,7.806027412414551,1.5775619745254517
0.10679999832063913,7.80476188659668,1.5869463682174683
0.10720000136643648,7.803488254547119,1.5963287353515625
0.10759999713627622,7.8022074699401855,1.6057090759277344
0.10800000018207356,7.800919532775879,1.6150873899459839
0.10840000322787091,7.799623489379883,1.6244637966156006
0.10879999899771065,7.812277317047119,1.6338396072387695
0.109200002043508,7.890966415405273,1.6432771682739258
0.10959999781334773,7.9696478843688965,1.6528098583221436
0.11000000085914508,8.048321723937988,1.6624373197555542
0.11039999662898481,8.12698745727539,1.6721596717834473
0.11079999967478216,8.205646514892578,1.6819769144058228
0.1112000027205795,8.284296989440918,1.6918890476226807
0.11159999849041924,8.296895980834961,1.7018629312515259
0.11200000153621659,8.295530319213867,1.7118362188339233
0.11239999730605632,8.294157028198242,1.7218073606491089
0.11280000035185367,8.292776107788086,1.7317763566970825
0.11320000339765102,8.291386604309082,1.7417430877685547
0.11359999916749075,8.28998851776123,1.7517077922821045
0.1140000022132881,8.288583755493164,1.7616702318191528
0.11439999798312783,8.28717041015625,1.7716304063796997
0.11480000102892518,8.285749435424805,1.7815885543823242
0.11519999679876491,8.284319877624512,1.7915443181991577
0.11559999984456226,8.282882690429688,1.8014979362487793
0.11600000289035961,8.281436920166016,1.811449408531189
0.11639999866019934,8.279984474182129,1.8213984966278076
0.11680000170599669,8.278523445129395,1.8313454389572144
0.11719999747583643,8.277053833007812,1.8412901163101196
0.11760000052163377,8.275577545166016,1.8512325286865234
0.11800000356743112,8.274091720581055,1.8611725568771362
0.11839999933727086,8.272599220275879,1.871110439300537
0.1188000023830682,8.271098136901855,1.881045937538147
0.11919999815290794,8.2695894241333,1.8909791707992554
0.11960000119870529,8.268073081970215,1.9009100198745728
0.11999999696854502,8.266548156738281,1.9108386039733887
0.12040000001434237,8.265015602111816,1.9207648038864136
0.12080000306013972,8.263474464416504,1.930688738822937
0.12119999882997945,8.261926651000977,1.9406102895736694
0.1216000018757768,8.260370254516602,1.9505294561386108
0.12199999764561653,8.258805274963379,1.9604462385177612
0.12240000069141388,8.257233619689941,1.9703607559204102
0.12280000373721123,8.255653381347656,1.9802727699279785
0.12320000678300858,8.254064559936523,1.9901823997497559
0.1235999952768907,8.252469062805176,2.000089645385742
0.12399999832268804,8.25086498260498,2.0099945068359375
0.12440000136848539,8.249252319335938,2.0198967456817627
0.12480000441428274,8.24763298034668,2.029796838760376
0.12519999290816486,8.246005058288574,2.039694309234619
0.1255999959539622,8.244369506835938,2.049589157104492
0.12599999899975955,8.242725372314453,2.0594818592071533
0.1264000020455569,8.241074562072754,2.0693719387054443
0.12680000509135425,8.239415168762207,2.0792596340179443
0.12719999358523637,8.237747192382812,2.089144706726074
0.12759999663103372,8.236072540283203,2.099027156829834
0.12799999967683107,8.234389305114746,2.1089072227478027
0.12840000272262841,8.232697486877441,2.1187849044799805
0.12880000576842576,8.230998992919922,2.128659963607788
0.12919999426230788,8.24682903289795,2.1385347843170166
0.12959999730810523,8.325114250183105,2.1484744548797607
0.13000000035390258,8.403390884399414,2.158508539199829
0.13040000339969993,8.481660842895508,2.1686370372772217
0.13080000644549727,8.559921264648438,2.1788597106933594
0.1311999949393794,8.575711250305176,2.189147472381592
0.13159999798517674,8.573955535888672,2.199434757232666
0.1320000010309741,8.572192192077637,2.20971941947937
0.13240000407677144,8.570420265197754,2.220001459121704
0.1328000071225688,8.568639755249023,2.230280876159668
0.1331999956164509,8.566851615905762,2.2405576705932617
0.13359999866224825,8.565054893493652,2.2508318424224854
0.1340000017080456,8.563250541687012,2.2611031532287598
0.13440000475384295,8.561437606811523,2.271372079849243
0.13479999324772507,8.559616088867188,2.2816379070281982
0.13519999629352242,8.55778694152832,2.2919013500213623
0.13559999933931977,8.555949211120605,2.302161931991577
0.1360000023851171,8.554102897644043,2.3124196529388428
0.13640000543091446,8.55224895477295,2.3226749897003174
0.13679999392479658,8.550387382507324,2.3329272270202637
0.13719999697059393,8.548516273498535,2.34317684173584
0.13760000001639128,8.546637535095215,2.353423595428467
0.13800000306218863,8.544751167297363,2.3636677265167236
0.13840000610798597,8.542856216430664,2.3739089965820312
0.1387999946018681,8.540952682495117,2.3841476440429688
0.13919999764766544,8.539041519165039,2.394383192062378
0.1396000006934628,8.537121772766113,2.404616117477417
0.14000000373926014,8.535194396972656,2.414846181869507
0.14040000678505749,8.533258438110352,2.4250733852386475
0.1407999952789396,8.5313138961792,2.435297727584839
