time[s],iL[A],v out[V]
0.0,0.0,0.0
0.00040000000467443897,0.0,0.0
0.0008000000093488779,0.0,0.0
0.0012000000424450263,0.0,0.0
0.0016000000186977559,0.0,0.0
0.0019999999949504854,0.0,0.0
0.0024000000848900527,0.0,0.0
0.0027999999474559445,0.0,0.0
0.0032000000373955118,0.0,0.0
0.0035999998999614036,0.0,0.0
0.003999999989900971,0.0,0.0
0.004399999852466863,0.0,0.0
0.004800000169780105,0.0,0.0
0.005200000032345997,0.0,0.0
0.005599999894911889,0.0,0.0
0.006000000212225132,0.0,0.0
0.0064000000747910235,0.0,0.0
0.006799999937356915,0.0,0.0
0.007199999799922807,0.0,0.0
0.00760000011723605,0.0,0.0
0.007999999979801942,0.0,0.0
0.008400000297115184,0.0,0.0
0.008799999704933725,0.0,0.0
0.009200000022246968,0.0,0.0
0.00960000033956021,0.0,0.0
0.009999999747378752,0.008689820766448975,5.720671083508932e-07
0.010400000064691994,0.017379632219672203,2.1065716282464564e-05
0.010800000382005237,0.017379608005285263,4.21303921029903e-05
0.011199999789823778,0.01737956516444683,6.319400563370436e-05
0.01160000010713702,0.017379507422447205,8.425653504673392e-05
0.012000000424450263,0.017379431053996086,0.00010531796579016373
0.012399999832268804,0.017379337921738625,0.00012637827603612095
0.012800000149582047,0.01737922802567482,0.00014743742940481752
0.013199999557400588,0.017379101365804672,0.00016849543317221105
0.01359999987471383,0.01737895980477333,0.00018955224368255585
0.014000000192027073,0.017378799617290497,0.00021060786093585193
0.014399999599845614,0.01737862266600132,0.0002316622412763536
0.014799999917158857,0.0173784289509058,0.0002527153701521456
0.0152000002344721,0.017378218472003937,0.000273767247563228
0.015600000551785342,0.01737799122929573,0.0002948178444057703
0.015999999959603883,0.017377745360136032,0.0003158671024721116
0.016399999367422424,0.01737748458981514,0.00033691507996991277
0.01680000059423037,0.017377207055687904,0.00035796166048385203
0.01720000000204891,0.017376912757754326,0.0003790069022215903
0.01759999940986745,0.017376599833369255,0.00040005077607929707
0.018000000636675395,0.01737627200782299,0.000421093194745481
0.018400000044493936,0.017375927418470383,0.00044213421642780304
0.018799999452312477,0.017375564202666283,0.00046317378291860223
0.01920000067912042,0.01737518608570099,0.0004842118651140481
0.019600000086938962,0.017374789342284203,0.0005052484921179712
0.019999999494757503,0.017374377697706223,0.00052628357661888
0.020400000721565448,0.01737394742667675,0.0005473171477206051
0.02080000012938399,0.017373502254486084,0.0005683491472154856
0.02119999953720253,0.017373038455843925,0.0005893796333111823
0.021600000764010474,0.017372559756040573,0.0006104084313847125
0.022000000171829015,0.01737206242978573,0.0006314357160590589
0.022399999579647556,0.01737154833972454,0.0006524613127112389
0.0228000008064555,0.01737101748585701,0.0006734852795489132
0.02320000021427404,0.017370471730828285,0.0006945075583644211
0.023599999622092582,0.017369907349348068,0.0007155281491577625
0.024000000848900527,0.017369326204061508,0.0007365470519289374
0.024400000256719068,0.017368728294968605,0.000757564150262624
0.02479999966453761,0.01736811362206936,0.0007785795605741441
0.025200000891345553,0.01736748218536377,0.0007995931664481759
0.025600000299164094,0.017366833984851837,0.0008206050260923803
0.025999999706982635,0.01736616902053356,0.0008416150230914354
0.026399999114801176,0.017365489155054092,0.0008626232156530023
0.02680000034160912,0.01736478880047798,0.0008836295455694199
0.02719999974942766,0.017364073544740677,0.0009046339546330273
0.027599999157246202,0.01736334152519703,0.0009256365010514855
0.028000000384054147,0.01736259274184704,0.0009466371848247945
0.028399999791872688,0.017361827194690704,0.0009676358313299716
0.02879999919969123,0.017361044883728027,0.0009886325569823384
0.029200000426499173,0.017360245808959007,0.0010096273617818952
0.029599999834317714,0.017359429970383644,0.0010306201875209808
0.029999999242136255,0.026047762483358383,0.0010521828662604094
0.0304000004689442,0.03473607078194618,0.0010936637409031391
0.030800001695752144,0.03473517671227455,0.0011357134208083153
0.031200001103570685,0.03473425284028053,0.001177760073915124
0.031600000511389226,0.03473329171538353,0.0012198034673929214
0.03199999991920777,0.03473230078816414,0.0012618437176570296
0.03239999932702631,0.03473127260804176,0.0013038805918768048
0.03279999873484485,0.034730214625597,0.0013459143228828907
0.0332000017806422,0.03472911939024925,0.0013879445614293218
0.03360000118846074,0.03472799435257912,0.0014299714239314198
0.03400000059627928,0.034726832062006,0.001471994910389185
0.03440000000409782,0.03472563624382019,0.001514015020802617
0.03479999941191636,0.034724410623311996,0.0015560315223410726
0.0351999988197349,0.03472314774990082,0.0015980445314198732
0.03559999822755344,0.03472185134887695,0.0016400538152083755
0.03600000127335079,0.0347205251455307,0.0016820596065372229
0.03640000068116933,0.034719161689281464,0.0017240616725757718
0.03680000008898787,0.03471776470541954,0.0017660601297393441
0.03719999949680641,0.03471633791923523,0.0018080547451972961
0.037599998904624954,0.034714873880147934,0.0018500455189496279
0.037999998312443495,0.03471337631344795,0.0018920325674116611
0.03840000135824084,0.034711845219135284,0.0019340157741680741
0.038800000766059384,0.03471028059720993,0.001975995022803545
0.039200000173877925,0.03470868244767189,0.002017970196902752
0.039599999581696466,0.03470705449581146,0.0020599414128810167
0.03999999898951501,0.03470538929104805,0.0021019086707383394
0.04039999839733355,0.03470369055867195,0.00214387197047472
0.040800001443130895,0.034701958298683167,0.002185830846428871
0.041200000850949436,0.034700192511081696,0.00222778576426208
0.04160000025876798,0.03469839319586754,0.0022697364911437035
0.04199999966658652,0.034696560353040695,0.002311683027073741
0.04239999907440506,0.034694697707891464,0.0023536253720521927
0.0427999984822236,0.03469279780983925,0.0023955630604177713
0.04320000152802095,0.03469086438417435,0.002437496790662408
0.04360000093583949,0.03468889743089676,0.0024794258642941713
0.04400000034365803,0.034686896950006485,0.0025213505141437054
0.04439999975147657,0.034684862941503525,0.00256327074021101
0.04479999915929511,0.03468279540538788,0.002605186542496085
0.04519999856711365,0.034680694341659546,0.0026470976881682873
0.045600001612911,0.03467855975031853,0.0026890041772276163
0.04600000102072954,0.03467639163136482,0.0027309060096740723
0.04640000042854808,0.03467418998479843,0.002772803418338299
0.046799999836366624,0.034671954810619354,0.0028146959375590086
0.047199999244185165,0.03466968610882759,0.0028565835673362017
0.047599998652003706,0.03466738387942314,0.0028984665405005217
0.048000001697801054,0.034665048122406006,0.002940344624221325
0.048400001105619594,0.034662678837776184,0.0029822178184986115
0.048800000513438135,0.034660276025533676,0.0030240861233323812
0.049199999921256676,0.03465783968567848,0.0030659495387226343
0.04959999932907522,0.0346553735435009,0.003107807831838727
0.04999999873689376,0.04335520789027214,0.003150234930217266
0.050400001782691106,0.0520549975335598,0.0032126056030392647
0.05080000119050965,0.05205240473151207,0.0032755436841398478
0.05120000059832819,0.05204975977540016,0.003338475478813052
0.05160000000614673,0.052047062665224075,0.003401400987058878
0.05199999941396527,0.05204431712627411,0.0034643204417079687
0.05239999882178381,0.052041519433259964,0.0035272331442683935
0.05279999822960235,0.05203867331147194,0.0035901395604014397
0.0532000012753997,0.052035775035619736,0.0036530394572764635
0.05360000068321824,0.05203282833099365,0.0037159326020628214
0.05400000009103678,0.05202982947230339,0.003778819227591157
0.05439999949885532,0.05202678218483925,0.0038416991010308266
0.054799998906673864,0.05202368274331093,0.00390457222238183
0.055199998314492404,0.05202053487300873,0.003967438358813524
0.05560000136028975,0.05201733484864235,0.004030297975987196
0.05600000076810829,0.05201408639550209,0.004093150142580271
0.056400000175926834,0.05201078578829765,0.004155995789915323
0.056799999583745375,0.052007436752319336,0.004218833986669779
0.057199998991563916,0.05200403556227684,0.004281665198504925
0.05759999839938246,0.052000585943460464,0.004344488959759474
0.058000001445179805,0.05199708417057991,0.004407305736094713
0.058400000852998346,0.051993533968925476,0.004470115527510643
0.05880000026081689,0.05198993161320686,0.004532917402684689
0.05919999966863543,0.05198628082871437,0.004595711827278137
0.05959999907645397,0.0519825778901577,0.004658499266952276
0.05999999848427251,0.05197882652282715,0.004721278790384531
0.06040000153006986,0.05197502300143242,0.004784050863236189
0.0608000009378884,0.05197117105126381,0.0048468150198459625
0.06120000034570694,0.05196727067232132,0.004909571260213852
0.06160000339150429,0.05196331813931465,0.004972320050001144
0.06199999916134402,0.051959313452243805,0.005035060923546553
0.06240000220714137,0.05195526033639908,0.005097793880850077
0.0627999979769811,0.05195115879178047,0.0051605189219117165
0.06320000102277845,0.05194700509309769,0.005223235581070185
0.06359999679261819,0.05194279924035072,0.005285944323986769
0.06399999983841553,0.05193854495882988,0.005348644685000181
0.06440000288421288,0.051934242248535156,0.0054113371297717094
0.06479999865405262,0.051929887384176254,0.005474021192640066
0.06520000169984996,0.05192548409104347,0.005536696873605251
0.0655999974696897,0.05192102864384651,0.005599364172667265
0.06600000051548705,0.05191652476787567,0.005662023089826107
0.0664000035612844,0.05191196873784065,0.005724673625081778
0.06679999933112413,0.051907364279031754,0.005787315312772989
0.06720000237692147,0.051902711391448975,0.005849948152899742
0.06759999814676121,0.05189800634980202,0.0059125726111233234
0.06800000119255856,0.05189324915409088,0.005975188221782446
0.06839999696239829,0.051888443529605865,0.0060377949848771095
0.06880000000819564,0.05188358947634697,0.006100392900407314
0.06920000305399299,0.051878683269023895,0.00616298196837306
0.06959999882383272,0.05187372863292694,0.00622556172311306
0.07000000186963007,0.06060384213924408,0.006288710981607437
0.0703999976394698,0.06933390349149704,0.006371870171278715
0.07080000068526715,0.06932877004146576,0.006455597002059221
0.07119999645510688,0.0693235695362091,0.006539313588291407
0.07159999950090423,0.06931830942630768,0.006623019929975271
0.07200000254670158,0.06931297481060028,0.006706716027110815
0.07239999831654131,0.06930757313966751,0.0067904009483754635
0.07280000136233866,0.06930211186408997,0.006874075625091791
0.0731999971321784,0.06929657608270645,0.006957739591598511
0.07360000017797574,0.06929098069667816,0.007041392847895622
0.07400000322377309,0.0692853108048439,0.007125034928321838
0.07439999899361283,0.06927957385778427,0.007208666298538446
0.07480000203941017,0.06927377730607986,0.007292286492884159
0.07519999780924991,0.06926790624856949,0.007375895511358976
0.07560000085504726,0.06926197558641434,0.007459493353962898
0.07599999662488699,0.06925597786903381,0.007543080020695925
0.07639999967068434,0.06924990564584732,0.007626655045896769
0.07680000271648169,0.06924377381801605,0.007710218895226717
0.07719999848632142,0.06923756748437881,0.007793771103024483
0.07760000153211877,0.0692313015460968,0.007877311669290066
0.0779999973019585,0.06922496855258942,0.007960841059684753
0.07840000034775585,0.06921856105327606,0.008044357411563396
0.0788000033935532,0.06921209394931793,0.008127863518893719
0.07919999916339293,0.06920555979013443,0.008211356587707996
0.07960000220919028,0.06919895857572556,0.008294837549328804
0.07999999797903001,0.06919229030609131,0.008378307335078716
0.08040000102482736,0.06918555498123169,0.008461764082312584
0.0807999967946671,0.0691787526011467,0.008545209653675556
0.08119999984046444,0.06917188316583633,0.008628642186522484
0.08160000288626179,0.0691649466753006,0.008712061680853367
0.08199999865610152,0.06915794312953949,0.008795469999313354
0.08240000170189887,0.06915087252855301,0.008878864347934723
0.0827999974717386,0.06914373487234116,0.008962247520685196
0.08320000051753595,0.06913653016090393,0.00904561672359705
0.0836000035633333,0.06912926584482193,0.009128973819315434
0.08399999933317304,0.06912192702293396,0.009212317876517773
0.08440000237897038,0.06911452114582062,0.009295648895204067
0.08479999814881012,0.0691070556640625,0.009378966875374317
0.08520000119460747,0.06909951567649841,0.009462271817028522
0.0855999969644472,0.06909191608428955,0.009545562788844109
0.08600000001024455,0.06908424198627472,0.009628841653466225
0.0864000030560419,0.06907650828361511,0.009712106548249722
0.08679999882588163,0.06906870752573013,0.0097953574731946
0.08720000187167898,0.06906083226203918,0.009878595359623432
0.08759999764151871,0.06905289739370346,0.00996182020753622
0.08800000068731606,0.06904489547014236,0.010045030154287815
0.0883999964571558,0.0690368264913559,0.010128227062523365
0.08879999950295314,0.06902869045734406,0.010211410000920296
0.08920000254875049,0.06902048736810684,0.010294579900801182
0.08959999831859022,0.06901221722364426,0.010377734899520874
0.09000000136438757,0.07775939255952835,0.010461456142365932
0.0903999971342273,0.08650648593902588,0.010565226897597313
0.09080000018002465,0.08649799227714539,0.01066956389695406
0.091200003225822,0.08648941665887833,0.010773885063827038
0.09159999899566174,0.0864807516336441,0.010878190398216248
0.09200000204145908,0.08647200465202332,0.010982479900121689
0.09239999781129882,0.08646318316459656,0.011086754500865936
0.09280000085709617,0.08645427227020264,0.01119101233780384
0.0931999966269359,0.08644527196884155,0.011295255273580551
0.09359999967273325,0.0864361971616745,0.011399481445550919
0.0940000027185306,0.08642703294754028,0.011503691785037518
0.09439999848837033,0.0864177942276001,0.011607886292040348
0.09480000153416768,0.08640846610069275,0.011712064035236835
0.09519999730400741,0.08639904856681824,0.01181622501462698
0.09560000034980476,0.08638955652713776,0.011920370161533356
0.09600000339560211,0.08637998253107071,0.012024498544633389
0.09639999916544184,0.0863703191280365,0.012128610163927078
0.09680000221123919,0.08636057376861572,0.012232705019414425
0.09719999798107892,0.08635074645280838,0.012336783111095428
0.09760000102687627,0.08634083718061447,0.012440844438970089
0.097999996796716,0.0863308385014534,0.012544888071715832
0.09839999984251335,0.08632076531648636,0.012648914009332657
0.0988000028883107,0.08631060272455215,0.012752923183143139
0.09919999865815043,0.08630035817623138,0.012856915593147278
0.09960000170394778,0.08629003167152405,0.012960890308022499
0.09999999747378752,0.08627962321043015,0.013064846396446228
0.10040000051958486,0.08626913279294968,0.013168785721063614
0.10080000356538221,0.08625855296850204,0.013272706419229507
0.10119999933522195,0.08624789118766785,0.013376610353589058
0.1016000023810193,0.08623714745044708,0.013480495661497116
0.10199999815085903,0.08622632175683975,0.013584362342953682
0.10240000119665638,0.08621541410684586,0.01368821132928133
0.10279999696649611,0.0862044245004654,0.01379204262048006
0.10320000001229346,0.08619334548711777,0.013895854353904724
0.1036000030580908,0.08618219196796417,0.01399964839220047
0.10399999882793054,0.08617094904184341,0.014103423804044724
0.10440000187372789,0.08615962415933609,0.01420717965811491
0.10479999764356762,0.0861482173204422,0.014310917817056179
0.10520000068936497,0.08613672852516174,0.014414636418223381
0.1055999964592047,0.08612515032291412,0.01451833639293909
0.10599999950500205,0.08611349761486053,0.014622016809880733
0.1064000025507994,0.08610175549983978,0.01472567766904831
0.10679999832063913,0.08608993887901306,0.014829319901764393
0.10720000136643648,0.08607803285121918,0.01493294257670641
0.10759999713627622,0.08606604486703873,0.015036546625196934
0.10800000018207356,0.08605397492647171,0.015140130184590816
0.10840000322787091,0.08604182302951813,0.015243694186210632
0.10879999899771065,0.08602958172559738,0.015347237698733807
0.109200002043508,0.08601726591587067,0.015450761653482914
0.10959999781334773,0.08600486069917679,0.015554266050457954
0.11000000085914508,0.09478633105754852,0.015658335760235786
0.11039999662898481,0.1035677045583725,0.015782533213496208
0.11079999967478216,0.10355502367019653,0.015907293185591698
0.1112000027205795,0.1035422533750534,0.016032032668590546
0.11159999849041924,0.10352937132120132,0.016156749799847603
0.11200000153621659,0.10351639986038208,0.01628144644200802
0.11239999730605632,0.10350332409143448,0.016406120732426643
0.11280000035185367,0.10349015146493912,0.016530772671103477
0.11320000339765102,0.1034768745303154,0.01665540225803852
0.11359999916749075,0.10346350073814392,0.016780009493231773
0.1140000022132881,0.10345003008842468,0.016904596239328384
0.11439999798312783,0.10343645513057709,0.017029158771038055
0.11480000102892518,0.10342278331518173,0.017153698951005936
0.11519999679876491,0.10340900719165802,0.017278216779232025
0.11559999984456226,0.10339513421058655,0.017402712255716324
0.11600000289035961,0.10338116437196732,0.017527183517813683
0.11639999866019934,0.10336709022521973,0.0176516342908144
0.11680000170599669,0.10335291922092438,0.017776058986783028
0.11719999747583643,0.10333865135908127,0.017900463193655014
0.11760000052163377,0.1033242791891098,0.01802484132349491
0.11800000356743112,0.10330981016159058,0.018149197101593018
0.11839999933727086,0.10329524427652359,0.018273530527949333
0.1188000023830682,0.10328057408332825,0.01839783787727356
0.11919999815290794,0.10326580703258514,0.018522122874855995
0.11960000119870529,0.10325093567371368,0.01864638365805149
0.11999999696854502,0.10323596745729446,0.018770620226860046
0.12040000001434237,0.10322090238332748,0.018894832581281662
0.12080000306013972,0.10320573300123215,0.019019020721316338
0.12119999882997945,0.10319047421216965,0.019143184646964073
0.1216000018757768,0.1031751036643982,0.01926732249557972
0.12199999764561653,0.10315964370965958,0.019391436129808426
0.12240000069141388,0.1031440794467926,0.019515525549650192
0.12280000373721123,0.10312841832637787,0.01963959075510502
0.12320000678300858,0.10311266034841537,0.019763629883527756
0.1235999952768907,0.10309679806232452,0.019887644797563553
0.12399999832268804,0.10308083891868591,0.02001163363456726
0.12440000136848539,0.10306477546691895,0.02013559639453888
0.12480000441428274,0.10304862260818481,0.020259534940123558
0.12519999290816486,0.10303236544132233,0.020383447408676147
0.1255999959539622,0.10301600396633148,0.020507333800196648
0.12599999899975955,0.10299955308437347,0.02063119411468506
0.1264000020455569,0.10298299789428711,0.02075502835214138
0.12680000509135425,0.10296634584665298,0.020878836512565613
0.12719999358523637,0.1029495894908905,0.021002618595957756
0.12759999663103372,0.10293273627758026,0.02112637460231781
0.12799999967683107,0.10291578620672226,0.021250104531645775
0.12840000272262841,0.1028987392783165,0.02137380838394165
0.12880000576842576,0.10288158804178238,0.021497484296560287
0.12919999426230788,0.1028643399477005,0.021621132269501686
0.12959999730810523,0.10284699499607086,0.021744754165410995
0.13000000035390258,0.11165741831064224,0.021868940442800522
0.13040000339969993,0.12046772986650467,0.022013317793607712
0.13080000644549727,0.12045005708932877,0.02215825766324997
0.1311999949393794,0.12043227255344391,0.02230316959321499
0.13159999798517674,0.1204143762588501,0.02244805358350277
0.1320000010309741,0.12039636075496674,0.022592905908823013
0.13240000407677144,0.12037822604179382,0.022737732157111168
0.1328000071225688,0.12035997956991196,0.022882528603076935
0.1331999956164509,0.12034161388874054,0.023027295246720314
0.13359999866224825,0.12032313644886017,0.023172032088041306
0.1340000017080456,0.12030453979969025,0.02331674098968506
0.13440000475384295,0.12028582394123077,0.023461418226361275
0.13479999324772507,0.12026700377464294,0.023606067523360252
0.13519999629352242,0.12024805694818497,0.023750685155391693
