time[s],iL[A],v out[V]
0.0,0.0,0.0
0.00040000000467443897,0.0,0.0
0.0008000000093488779,0.0,0.0
0.0012000000424450263,0.0,0.0
0.0016000000186977559,0.0,0.0
0.0019999999949504854,0.0,0.0
0.0024000000848900527,0.0,0.0
0.0027999999474559445,0.0,0.0
0.0032000000373955118,0.0,0.0
0.0035999998999614036,0.0,0.0
0.003999999989900971,0.0,0.0
0.004399999852466863,0.0,0.0
0.004800000169780105,0.0,0.0
0.005200000032345997,0.0,0.0
0.005599999894911889,0.0,0.0
0.006000000212225132,0.0,0.0
0.0064000000747910235,0.0,0.0
0.006799999937356915,0.0,0.0
0.007199999799922807,0.0,0.0
0.00760000011723605,0.0,0.0
0.007999999979801942,0.0,0.0
0.008400000297115184,0.0,0.0
0.008799999704933725,0.0,0.0
0.009200000022246968,0.0,0.0
0.00960000033956021,0.0,0.0
0.009999999747378752,0.012270152568817139,1.1405777513573412e-06
0.010400000064691994,0.024540293961763382,2.9745093343080953e-05
0.010800000382005237,0.024540256708860397,5.948872058070265e-05
0.011199999789823778,0.024540197104215622,8.923084533307701e-05
0.01160000010713702,0.024540115147829056,0.00011897144577233121
0.012000000424450263,0.0245400071144104,0.00014871048915665597
0.012399999832268804,0.024539876729249954,0.00017844793910626322
0.012800000149582047,0.024539722129702568,0.00020818378834519535
0.013199999557400588,0.024539543315768242,0.00023791797866579145
0.01359999987471383,0.024539342150092125,0.0002676504955161363
0.014000000192027073,0.02453911490738392,0.00029738133889622986
0.014399999599845614,0.024538865312933922,0.00032711043604649603
0.014799999917158857,0.024538591504096985,0.00035683775786310434
0.0152000002344721,0.024538295343518257,0.0003865633043460548
0.015600000551785342,0.02453797310590744,0.0004162870463915169
0.015999999959603883,0.024537628516554832,0.0004460089257918298
0.016399999367422424,0.024537259712815285,0.0004757289425469935
0.01680000059423037,0.024536866694688797,0.000505447038449347
0.01720000000204891,0.02453645132482052,0.0005351632134988904
0.01759999940986745,0.0245360117405653,0.0005648774676956236
0.018000000636675395,0.02453554794192314,0.0005945896846242249
0.018400000044493936,0.024535059928894043,0.0006242999224923551
0.018799999452312477,0.024534547701478004,0.0006540080648846924
0.01920000067912042,0.024534013122320175,0.0006837141700088978
0.019600000086938962,0.024533454328775406,0.0007134181796573102
0.019999999494757503,0.024532871320843697,0.0007431200356222689
0.020400000721565448,0.024532264098525047,0.0007728197379037738
0.02080000012938399,0.024531634524464607,0.0008025172282941639
0.02119999953720253,0.024530980736017227,0.0008322125067934394
0.021600000764010474,0.024530302733182907,0.0008619055734016001
0.022000000171829015,0.024529602378606796,0.0008915963699109852
0.022399999579647556,0.024528875946998596,0.0009212848381139338
0.0228000008064555,0.024528127163648605,0.0009509709198027849
0.02320000021427404,0.024527356028556824,0.0009806547313928604
0.023599999622092582,0.024526558816432953,0.0010103360982611775
0.024000000848900527,0.02452573925256729,0.0010400150204077363
0.024400000256719068,0.02452489547431469,0.0010696916142478585
0.02479999966453761,0.024524027481675148,0.0010993656469509006
0.025200000891345553,0.024523135274648666,0.0011290371185168624
0.025600000299164094,0.024522220715880394,0.0011587061453610659
0.025999999706982635,0.02452128194272518,0.0011883726110681891
0.026399999114801176,0.02452031895518303,0.0012180363992229104
0.02680000034160912,0.024519333615899086,0.0012476976262405515
0.02719999974942766,0.024518322199583054,0.0012773562921211123
0.027599999157246202,0.02451728843152523,0.0013070121640339494
0.028000000384054147,0.024516232311725616,0.0013366653583943844
0.028399999791872688,0.024515150114893913,0.0013663157587870955
0.02879999919969123,0.02451404556632042,0.0013959634816274047
0.029200000426499173,0.024512916803359985,0.00142560841049999
0.029599999834317714,0.02451176382601261,0.0014552505454048514
0.029999999242136255,0.03679528459906578,0.0014860330848023295
0.0304000004689442,0.049078769981861115,0.0015443065203726292
0.030800001695752144,0.049077510833740234,0.0016037188470363617
0.031200001103570685,0.049076203256845474,0.0016631267499178648
0.031600000511389226,0.049074847251176834,0.0017225301126018167
0.03199999991920777,0.04907344654202461,0.001781929051503539
0.03239999932702631,0.04907199740409851,0.0018413232173770666
0.03279999873484485,0.04907049983739853,0.0019007128430530429
0.0332000017806422,0.049068957567214966,0.001960097812116146
0.03360000118846074,0.049067363142967224,0.0020194777753204107
0.03400000059627928,0.0490657240152359,0.0020788530819118023
0.03440000000409782,0.049064040184020996,0.002138223499059677
0.03479999941191636,0.04906230419874191,0.0021975887939333916
0.0351999988197349,0.04906052350997925,0.0022569491993635893
0.03559999822755344,0.0490586943924427,0.0023163044825196266
0.03600000127335079,0.04905681684613228,0.0023756546434015036
0.03640000068116933,0.049054890871047974,0.00243499968200922
0.03680000008898787,0.04905292019248009,0.0024943395983427763
0.03719999949680641,0.04905090108513832,0.0025536741595715284
0.037599998904624954,0.049048833549022675,0.002613003132864833
0.037999998312443495,0.04904672130942345,0.002672326983883977
0.03840000135824084,0.04904455691576004,0.0027316452469676733
0.038800000766059384,0.04904235154390335,0.002790957922115922
0.039200000173877925,0.04904009401798248,0.002850265009328723
0.039599999581696466,0.049037788063287735,0.0029095665086060762
0.03999999898951501,0.049035437405109406,0.002968862419947982
0.04039999839733355,0.049033038318157196,0.003028152510523796
0.040800001443130895,0.04903059080243111,0.003087436780333519
0.041200000850949436,0.049028098583221436,0.0031467152293771505
0.04160000025876798,0.049025557935237885,0.003205987624824047
0.04199999966658652,0.049022968858480453,0.0032652539666742086
0.04239999907440506,0.04902033135294914,0.003324514487758279
0.0427999984822236,0.04901764914393425,0.0033837687224149704
0.04320000152802095,0.04901491850614548,0.003443016903474927
0.04360000093583949,0.049012139439582825,0.0035022590309381485
0.04400000034365803,0.04900931566953659,0.0035614946391433477
0.04439999975147657,0.049006443470716476,0.0036207239609211683
0.04479999915929511,0.04900352284312248,0.0036799469962716103
0.04519999856711365,0.04900055378675461,0.00373916351236403
0.045600001612911,0.04899754002690315,0.003798373742029071
0.04600000102072954,0.04899447783827782,0.003857577219605446
0.04640000042854808,0.0489913672208786,0.003916773945093155
0.046799999836366624,0.048988211899995804,0.003975964151322842
0.047199999244185165,0.04898500442504883,0.004035147838294506
0.047599998652003706,0.04898175597190857,0.004094324540346861
0.048000001697801054,0.04897845536470413,0.004153494257479906
0.048400001105619594,0.04897511005401611,0.004212657455354929
0.048800000513438135,0.048971716314554214,0.004271813668310642
0.049199999921256676,0.048968274146318436,0.004330962430685759
0.04959999932907522,0.04896478354930878,0.004390104208141565
0.04999999873689376,0.061232950538396835,0.004450380336493254
0.050400001782691106,0.07350105792284012,0.004538115579634905
0.05080000119050965,0.07349739223718643,0.0046269833110272884
0.05120000059832819,0.07349365949630737,0.0047158426605165005
0.05160000000614673,0.07348984479904175,0.004804692696779966
0.05199999941396527,0.07348597049713135,0.004893533885478973
0.05239999882178381,0.07348202168941498,0.004982365760952234
0.05279999822960235,0.07347799837589264,0.005071188788861036
0.0532000012753997,0.07347390055656433,0.005160002503544092
0.05360000068321824,0.07346974313259125,0.005248806905001402
0.05400000009103678,0.0734655037522316,0.0053376019932329655
0.05439999949885532,0.07346119731664658,0.005426387768238783
0.054799998906673864,0.07345682382583618,0.005515163764357567
0.055199998314492404,0.07345237582921982,0.005603929981589317
0.05560000136028975,0.07344786077737808,0.005692686419934034
0.05600000076810829,0.07344327121973038,0.005781433079391718
0.056400000175926834,0.0734386071562767,0.005870169959962368
0.056799999583745375,0.07343387603759766,0.005958897061645985
0.057199998991563916,0.07342907041311264,0.0060476139187812805
0.05759999839938246,0.07342419773340225,0.006136320531368256
0.058000001445179805,0.07341925799846649,0.00622501689940691
0.058400000852998346,0.07341423630714417,0.0063137030228972435
0.05880000026081689,0.07340915501117706,0.006402378436177969
0.05919999966863543,0.07340399920940399,0.006491043604910374
0.05959999907645397,0.07339876890182495,0.00657969806343317
0.05999999848427251,0.07339347153902054,0.006668341811746359
0.06040000153006986,0.07338809967041016,0.006756974849849939
0.0608000009378884,0.0733826607465744,0.006845597177743912
0.06120000034570694,0.07337714731693268,0.006934208329766989
0.06160000339150429,0.07337156683206558,0.007022808771580458
0.06199999916134402,0.07336591184139252,0.007111398037523031
0.06240000220714137,0.07336018979549408,0.007199975661933422
0.0627999979769811,0.07335439324378967,0.007288542576134205
0.06320000102277845,0.0733485221862793,0.007377097848802805
0.06359999679261819,0.07334259152412415,0.00746564194560051
0.06399999983841553,0.07333657890558243,0.007554173935204744
0.06440000288421288,0.07333049923181534,0.007642694748938084
0.06479999865405262,0.07332435250282288,0.00773120392113924
0.06520000169984996,0.07331813126802444,0.007819700986146927
0.0655999974696897,0.07331184297800064,0.007908186875283718
0.06600000051548705,0.07330548018217087,0.007996659725904465
0.0664000035612844,0.07329904288053513,0.008085121400654316
0.06679999933112413,0.07329254597425461,0.008173570968210697
0.06720000237692147,0.07328596711158752,0.008262007497251034
0.06759999814676121,0.07327932119369507,0.0083504319190979
0.06800000119255856,0.07327260822057724,0.008438844233751297
0.06839999696239829,0.07326582074165344,0.008527244441211224
0.06880000000819564,0.07325896620750427,0.008615631610155106
0.06920000305399299,0.07325203716754913,0.008704006671905518
0.06959999882383272,0.07324504107236862,0.008792368695139885
0.07000000186963007,0.08557815849781036,0.008881871588528156
0.0703999976394698,0.09791119396686554,0.00899896863847971
0.07080000068526715,0.09790394455194473,0.009117205627262592
0.07119999645510688,0.09789660573005676,0.009235427714884281
0.07159999950090423,0.09788917005062103,0.009353634901344776
0.07200000254670158,0.09788163751363754,0.009471827186644077
0.07239999831654131,0.09787401556968689,0.00959000550210476
0.07280000136233866,0.09786629676818848,0.009708167985081673
0.0731999971321784,0.0978584811091423,0.009826315566897392
0.07360000017797574,0.09785057604312897,0.009944447316229343
0.07400000322377309,0.09784257411956787,0.0100625641644001
0.07439999899361283,0.09783447533845901,0.010180666111409664
0.07480000203941017,0.0978262796998024,0.01029875222593546
0.07519999780924991,0.09781799465417862,0.010416821576654911
0.07560000085504726,0.09780961275100708,0.010534876026213169
0.07599999662488699,0.09780114144086838,0.010652914643287659
0.07639999967068434,0.09779257327318192,0.010770936496555805
0.07680000271648169,0.09778390824794769,0.010888942517340183
0.07719999848632142,0.09777514636516571,0.011006932705640793
0.07760000153211877,0.09776629507541656,0.01112490613013506
0.0779999973019585,0.09775734692811966,0.011242862790822983
0.07840000034775585,0.09774830937385559,0.011360803619027138
0.0788000033935532,0.09773916751146317,0.011478726752102375
0.07919999916339293,0.09772994369268417,0.011596634052693844
0.07960000220919028,0.09772061556577682,0.011714523658156395
0.07999999797903001,0.09771119803190231,0.011832396499812603
0.08040000102482736,0.09770168364048004,0.011950251646339893
0.0807999967946671,0.0976920798420906,0.01206809002906084
0.08119999984046444,0.09768237918615341,0.01218591071665287
0.08160000288626179,0.09767258167266846,0.012303714640438557
0.08199999865610152,0.09766268730163574,0.01242149993777275
0.08240000170189887,0.09765270352363586,0.012539267539978027
0.0827999974717386,0.09764263033866882,0.012657017447054386
0.08320000051753595,0.09763245284557343,0.012774749659001827
0.0836000035633333,0.09762218594551086,0.012892463244497776
0.08399999933317304,0.09761182963848114,0.013010159134864807
0.08440000237897038,0.09760136902332306,0.013127836398780346
0.08479999814881012,0.09759081900119781,0.013245495967566967
0.08520000119460747,0.09758017957210541,0.013363135978579521
0.0855999969644472,0.09756944328546524,0.013480758294463158
0.08600000001024455,0.09755861014127731,0.013598361052572727
0.0864000030560419,0.09754768013954163,0.013715945184230804
0.08679999882588163,0.09753666073083878,0.013833509758114815
0.08720000187167898,0.09752555191516876,0.013951055705547333
0.08759999764151871,0.09751433879137039,0.014068583026528358
0.08800000068731606,0.09750304371118546,0.014186089858412743
0.0883999964571558,0.09749164432287216,0.014303578063845634
0.08879999950295314,0.0974801555275917,0.01442104671150446
0.08920000254875049,0.09746856987476349,0.014538494870066643
0.08959999831859022,0.09745689481496811,0.014655924402177334
0.09000000136438757,0.10985272377729416,0.014774499461054802
0.0903999971342273,0.12224844843149185,0.014920799992978573
0.09080000018002465,0.1222364529967308,0.01506824605166912
0.091200003225822,0.1222243383526802,0.015215669758617878
0.09159999899566174,0.12221210449934006,0.015363072045147419
0.09200000204145908,0.12219975888729095,0.01551045197993517
0.09239999781129882,0.1221872866153717,0.015657810494303703
0.09280000085709617,0.1221747025847435,0.015805145725607872
0.0931999966269359,0.12216199934482574,0.01595245860517025
0.09359999967273325,0.12214917689561844,0.016099749132990837
0.0940000027185306,0.12213624268770218,0.016247015446424484
0.09439999848837033,0.12212318181991577,0.01639426127076149
0.09480000153416768,0.12211000919342041,0.016541482880711555
0.09519999730400741,0.1220967173576355,0.01668868027627468
0.09560000034980476,0.12208330631256104,0.016835855320096016
0.09600000339560211,0.12206978350877762,0.01698300801217556
0.09639999916544184,0.12205613404512405,0.017130136489868164
0.09680000221123919,0.12204237282276154,0.017277240753173828
0.09719999798107892,0.12202849239110947,0.017424320802092552
0.09760000102687627,0.12201449275016785,0.017571376636624336
0.097999996796716,0.12200037389993668,0.01771841011941433
0.09839999984251335,0.12198614329099655,0.017865417525172234
0.0988000028883107,0.12197179347276688,0.018012400716543198
0.09919999865815043,0.12195732444524765,0.01815935969352722
0.09960000170394778,0.12194273620843887,0.018306294456124306
0.09999999747378752,0.12192803621292114,0.0184532031416893
0.10040000051958486,0.12191321700811386,0.018600087612867355
0.10080000356538221,0.12189827859401703,0.01874694600701332
0.10119999933522195,0.12188322097063065,0.018893780186772346
0.1016000023810193,0.12186804413795471,0.019040588289499283
0.10199999815085903,0.12185275554656982,0.01918737217783928
0.10240000119665638,0.12183734774589539,0.019334128126502037
0.10279999696649611,0.1218218207359314,0.019480859860777855
0.10320000001229346,0.12180617451667786,0.019627565518021584
0.1036000030580908,0.12179041653871536,0.019774245098233223
0.10399999882793054,0.12177453935146332,0.019920896738767624
0.10440000187372789,0.12175854295492172,0.020067524164915085
0.10479999764356762,0.12174242734909058,0.020214123651385307
0.10520000068936497,0.12172619998455048,0.02036069706082344
0.1055999964592047,0.12170985341072083,0.020507242530584335
0.10599999950500205,0.12169338762760162,0.02065376192331314
0.1064000025507994,0.12167681008577347,0.020800255239009857
0.10679999832063913,0.12166010588407516,0.020946718752384186
0.10720000136643648,0.12164328992366791,0.021093156188726425
0.10759999713627622,0.1216263622045517,0.021239567548036575
0.10800000018207356,0.12160930782556534,0.021385949105024338
0.10840000322787091,0.12159214168787003,0.021532302722334862
0.10879999899771065,0.12157485634088516,0.021678630262613297
0.109200002043508,0.12155745923519135,0.021824928000569344
0.10959999781334773,0.12153993546962738,0.021971197798848152
0.11000000085914508,0.13396573066711426,0.022118613123893738
0.11039999662898481,0.1463913768529892,0.0222938172519207
0.11079999967478216,0.14637348055839539,0.02247016690671444
0.1112000027205795,0.14635543525218964,0.022646483033895493
0.11159999849041924,0.14633724093437195,0.022822771221399307
0.11200000153621659,0.14631891250610352,0.022999027743935585
0.11239999730605632,0.14630044996738434,0.023175252601504326
0.11280000035185367,0.14628183841705322,0.02335144765675068
0.11320000339765102,0.14626307785511017,0.023527611047029495
0.11359999916749075,0.14624418318271637,0.023703742772340775
0.1140000022132881,0.14622515439987183,0.023879844695329666
0.11439999798312783,0.14620597660541534,0.02405591309070587
0.11480000102892518,0.14618666470050812,0.02423194982111454
0.11519999679876491,0.14616721868515015,0.02440795488655567
0.11559999984456226,0.14614760875701904,0.024583928287029266
0.11600000289035961,0.1461278796195984,0.024759868159890175
0.11639999866019934,0.1461080014705658,0.024935776367783546
0.11680000170599669,0.14608797430992126,0.025111651048064232
0.11719999747583643,0.14606782793998718,0.02528749406337738
0.11760000052163377,0.14604751765727997,0.025463303551077843
0.11800000356743112,0.146027073264122,0.02563907951116562
0.11839999933727086,0.1460064947605133,0.02581482194364071
0.1188000023830682,0.14598578214645386,0.025990530848503113
0.11919999815290794,0.14596490561962128,0.02616620622575283
0.11960000119870529,0.14594390988349915,0.026341848075389862
0.11999999696854502,0.14592276513576508,0.026517456397414207
0.12040000001434237,0.14590148627758026,0.026693029329180717
0.12080000306013972,0.1458800584077835,0.02686856873333454
0.12119999882997945,0.145858496427536,0.02704407274723053
0.1216000018757768,0.14583678543567657,0.027219543233513832
0.12199999764561653,0.1458149403333664,0.02739497646689415
0.12240000069141388,0.14579296112060547,0.02757037617266178
0.12280000373721123,0.1457708328962326,0.027745740488171577
0.12320000678300858,0.1457485556602478,0.027921069413423538
0.1235999952768907,0.14572615921497345,0.028096362948417664
0.12399999832268804,0.14570361375808716,0.028271621093153954
0.12440000136848539,0.14568091928958893,0.02844684198498726
0.12480000441428274,0.14565809071063995,0.02862202748656273
0.12519999290816486,0.14563512802124023,0.028797177597880363
0.1255999959539622,0.14561201632022858,0.028972290456295013
0.12599999899975955,0.14558877050876617,0.02914736606180668
0.1264000020455569,0.14556537568569183,0.02932240627706051
0.12680000509135425,0.14554184675216675,0.029497409239411354
0.12719999358523637,0.14551818370819092,0.029672374948859215
0.12759999663103372,0.14549437165260315,0.02984730340540409
0.12799999967683107,0.14547042548656464,0.030022194609045982
0.12840000272262841,0.14544634521007538,0.03019704669713974
0.12880000576842576,0.14542211592197418,0.030371863394975662
0.12919999426230788,0.14539775252342224,0.03054664097726345
0.12959999730810523,0.14537324011325836,0.030721379444003105
0.13000000035390258,0.15784387290477753,0.030897263437509537
0.13040000339969993,0.17031435668468475,0.031101034954190254
0.13080000644549727,0.17028938233852386,0.0313059501349926
0.1311999949393794,0.17026425898075104,0.03151082247495651
0.13159999798517674,0.17023897171020508,0.03171565383672714
0.1320000010309741,0.170213520526886,0.03192044794559479
0.13240000407677144,0.17018790543079376,0.03212519735097885
0.1328000071225688,0.1701621115207672,0.03232990950345993
0.1331999956164509,0.17013616859912872,0.03253457695245743
0.13359999866224825,0.1701100617647171,0.03273920342326164
0.1340000017080456,0.17008379101753235,0.03294379264116287
0.13440000475384295,0.17005735635757446,0.03314833343029022
0.13479999324772507,0.17003075778484344,0.03335283696651459
0.13519999629352242,0.1700039803981781,0.03355729579925537
