time[s],iL[A],v out[V]
0.0,0.0,0.0
0.00040000000467443897,0.0,0.0
0.0008000000093488779,0.0,0.0
0.0012000000424450263,0.0,0.0
0.0016000000186977559,0.0,0.0
0.0019999999949504854,0.0,0.0
0.0024000000848900527,0.0,0.0
0.0027999999474559445,0.0,0.0
0.0032000000373955118,0.0,0.0
0.0035999998999614036,0.0,0.0
0.003999999989900971,0.0,0.0
0.004399999852466863,0.0,0.0
0.004800000169780105,0.0,0.0
0.005200000032345997,0.0,0.0
0.005599999894911889,0.055464670062065125,2.3305266950046644e-05
0.006000000212225132,0.135464608669281,0.00013901645434089005
0.0064000000747910235,0.21546441316604614,0.00035168923204764724
0.006799999937356915,0.29546400904655457,0.0006613186560571194
0.007199999799922807,0.3754633367061615,0.0010678998660296202
0.00760000011723605,0.4554622769355774,0.0015714275650680065
0.007999999979801942,0.5354607701301575,0.002171896630898118
0.008400000297115184,0.6154587864875793,0.0028693019412457943
0.008799999704933725,0.6954562067985535,0.0036636379081755877
0.009200000022246968,0.7754529118537903,0.004554899409413338
0.00960000033956021,0.855448842048645,0.005543080158531666
0.009999999747378752,0.9354439973831177,0.006628175266087055
0.010400000064691994,1.015438199043274,0.007810178678482771
0.010800000382005237,1.0954314470291138,0.009089084342122078
0.011199999789823778,1.1754236221313477,0.010464887134730816
0.01160000010713702,1.2554147243499756,0.0119375791400671
0.012000000424450263,1.3354045152664185,0.013507156632840633
0.012399999832268804,1.4153931140899658,0.015173612162470818
0.012800000149582047,1.4953802824020386,0.01693693920969963
0.013199999557400588,1.5753659009933472,0.01879713125526905
0.01359999987471383,1.6553500890731812,0.02075418271124363
0.014000000192027073,1.735332727432251,0.02280808612704277
0.014399999599845614,1.8153135776519775,0.024958835914731026
0.014799999917158857,1.8707574605941772,0.02720186486840248
0.0152000002344721,1.8707348108291626,0.02946806140244007
0.015600000551785342,1.8707102537155151,0.03173412010073662
0.015999999959603883,1.870684027671814,0.03400003910064697
0.016399999367422424,1.87065589427948,0.03626581281423569
0.01680000059423037,1.8706259727478027,0.03853144496679306
0.01720000000204891,1.8705942630767822,0.040796928107738495
0.01759999940986745,1.870560646057129,0.04306226223707199
0.018000000636675395,1.8705253601074219,0.04532744362950325
0.018400000044493936,1.870488166809082,0.04759247228503227
0.018799999452312477,1.870449185371399,0.04985734447836876
0.01920000067912042,1.8704084157943726,0.05212206020951271
0.019600000086938962,1.8703657388687134,0.05438661202788353
0.019999999494757503,1.8703213930130005,0.056651003658771515
0.020400000721565448,1.8702751398086548,0.05891523137688637
0.02080000012938399,1.8702270984649658,0.06117929145693779
0.02119999953720253,1.8701772689819336,0.06344318389892578
0.021600000764010474,1.870125651359558,0.06570690125226974
0.022000000171829015,1.8700721263885498,0.06797044724225998
0.022399999579647556,1.8700168132781982,0.07023381441831589
0.0228000008064555,1.869959831237793,0.07249701023101807
0.02320000021427404,1.8699008226394653,0.07476001977920532
0.023599999622092582,1.869840145111084,0.07702285051345825
0.024000000848900527,1.8697776794433594,0.07928549498319626
0.024400000256719068,1.869713306427002,0.08154796063899994
0.02479999966453761,1.8696471452713013,0.0838102251291275
0.025200000891345553,1.8695791959762573,0.08607231080532074
0.025600000299164094,1.8695094585418701,0.08833419531583786
0.025999999706982635,1.9146395921707153,0.09061136096715927
0.026399999114801176,1.9945662021636963,0.09297613054513931
0.02680000034160912,2.074490785598755,0.0954376608133316
0.02719999974942766,2.1544134616851807,0.09799594432115555
0.027599999157246202,2.2343339920043945,0.10065097361803055
0.028000000384054147,2.3142523765563965,0.1034027487039566
0.028399999791872688,2.3941686153411865,0.10625125467777252
0.02879999919969123,2.4740824699401855,0.1091964840888977
0.029200000426499173,2.5539937019348145,0.11223843693733215
0.029599999834317714,2.6339027881622314,0.11537709832191467
0.029999999242136255,2.7138092517852783,0.11861246824264526
0.0304000004689442,2.793712854385376,0.12194452434778214
0.030800001695752144,2.8736140727996826,0.12537327408790588
0.031200001103570685,2.95351243019104,0.1288987100124359
0.031600000511389226,3.033407688140869,0.13252080976963043
0.03199999991920777,3.113300323486328,0.13623957335948944
0.03239999932702631,3.193189859390259,0.14005498588085175
0.03279999873484485,3.273076057434082,0.14396704733371735
0.0332000017806422,3.352959394454956,0.14797575771808624
0.03360000118846074,3.4328393936157227,0.15208108723163605
0.03400000059627928,3.512716054916382,0.15628303587436676
0.03440000000409782,3.557790994644165,0.16057242453098297
0.03479999941191636,3.5576608180999756,0.16487693786621094
0.0351999988197349,3.5575273036956787,0.16918106377124786
0.03559999822755344,3.5573902130126953,0.17348483204841614
0.03600000127335079,3.5572497844696045,0.17778822779655457
0.03640000068116933,3.557105779647827,0.18209122121334076
0.03680000008898787,3.5569584369659424,0.1863938570022583
0.03719999949680641,3.556807518005371,0.19069607555866241
0.037599998904624954,3.5566532611846924,0.19499792158603668
0.037999998312443495,3.556495428085327,0.19929936528205872
0.03840000135824084,3.5563342571258545,0.20360040664672852
0.038800000766059384,3.5561697483062744,0.2079010307788849
0.039200000173877925,3.556001663208008,0.21220125257968903
0.039599999581696466,3.555830240249634,0.21650107204914093
0.03999999898951501,3.5556552410125732,0.2208004593849182
0.04039999839733355,3.5554769039154053,0.22509942948818207
0.040800001443130895,3.555294990539551,0.2293979674577713
0.041200000850949436,3.555109739303589,0.2336960732936859
0.04160000025876798,3.5549211502075195,0.2379937469959259
0.04199999966658652,3.5547289848327637,0.24229098856449127
0.04239999907440506,3.5545334815979004,0.24658778309822083
0.0427999984822236,3.5543344020843506,0.25088411569595337
0.04320000152802095,3.5541319847106934,0.2551800310611725
0.04360000093583949,3.5539262294769287,0.2594754695892334
0.04400000034365803,3.5537168979644775,0.2637704312801361
0.04439999975147657,3.553504228591919,0.268064945936203
0.04479999915929511,3.553287982940674,0.2723589837551117
0.04519999856711365,3.5530683994293213,0.27665257453918457
0.045600001612911,3.5528454780578613,0.28094565868377686
0.04600000102072954,3.552618980407715,0.2852382957935333
0.04640000042854808,3.552388906478882,0.2895304262638092
0.046799999836366624,3.6168136596679688,0.2938537299633026
0.047199999244185165,3.6965768337249756,0.2982717454433441
0.047599998652003706,3.776336431503296,0.3027862012386322
0.048000001697801054,3.8560924530029297,0.30739712715148926
0.048400001105619594,3.935844659805298,0.3121044933795929
0.048800000513438135,4.0155930519104,0.3169082999229431
0.049199999921256676,4.095337390899658,0.3218085467815399
0.04959999932907522,4.17507791519165,0.3268051743507385
0.04999999873689376,4.254814624786377,0.3318982422351837
0.050400001782691106,4.33454704284668,0.3370876908302307
0.05080000119050965,4.414275169372559,0.3423735499382019
0.05120000059832819,4.493999481201172,0.3477557599544525
0.05160000000614673,4.573719024658203,0.35323435068130493
0.05199999941396527,4.6534342765808105,0.35880932211875916
0.05239999882178381,4.733144760131836,0.3644806146621704
0.05279999822960235,4.8128509521484375,0.3702482581138611
0.0532000012753997,4.892552375793457,0.3761122226715088
0.05360000068321824,4.956907272338867,0.38207072019577026
0.05400000009103678,4.956599235534668,0.38806024193763733
0.05439999949885532,4.956286430358887,0.39404910802841187
0.054799998906673864,4.955968856811523,0.4000372886657715
0.055199998314492404,4.95564603805542,0.4060247838497162
0.05560000136028975,4.955318927764893,0.41201159358024597
0.05600000076810829,4.954987049102783,0.41799771785736084
0.056400000175926834,4.954650402069092,0.4239831566810608
0.056799999583745375,4.95430850982666,0.42996788024902344
0.057199998991563916,4.953962326049805,0.4359518885612488
0.05759999839938246,4.953610897064209,0.4419352114200592
0.058000001445179805,4.9532551765441895,0.44791778922080994
0.058400000852998346,4.95289421081543,0.45389965176582336
0.05880000026081689,4.952528953552246,0.4598807990550995
0.05919999966863543,4.952158451080322,0.4658612012863159
0.05959999907645397,4.951783657073975,0.47184085845947266
0.05999999848427251,4.951403617858887,0.4778197705745697
0.06040000153006986,4.951018810272217,0.48379793763160706
0.0608000009378884,4.950629711151123,0.48977532982826233
0.06120000034570694,4.950235366821289,0.4957519471645355
0.06160000339150429,4.949836254119873,0.501727819442749
0.06199999916134402,4.949432373046875,0.5077028870582581
0.06240000220714137,4.949024200439453,0.5136772394180298
0.0627999979769811,4.948610782623291,0.5196507573127747
0.06320000102277845,4.948192596435547,0.5256234407424927
0.06359999679261819,4.947769641876221,0.5315953493118286
0.06399999983841553,4.9473419189453125,0.5375664830207825
0.06440000288421288,4.946909427642822,0.5435367822647095
0.06479999865405262,4.94647216796875,0.5495063066482544
0.06520000169984996,4.946030139923096,0.5554749369621277
0.0655999974696897,4.945583820343018,0.5614427924156189
0.06600000051548705,4.945132255554199,0.5674098134040833
0.0664000035612844,4.944675922393799,0.5733759999275208
0.06679999933112413,4.960299015045166,0.5793432593345642
0.06720000237692147,5.039833068847656,0.5853757262229919
0.06759999814676121,5.1193623542785645,0.5915042757987976
0.06800000119255856,5.198886871337891,0.5977289080619812
0.06839999696239829,5.278406143188477,0.6040496826171875
0.06880000000819564,5.357920169830322,0.610466480255127
0.06920000305399299,5.437428951263428,0.6169793605804443
0.06959999882383272,5.516932964324951,0.6235883235931396
0.07000000186963007,5.596431255340576,0.6302932500839233
0.0703999976394698,5.675924301147461,0.637094259262085
0.07080000068526715,5.7554121017456055,0.6439912915229797
0.07119999645510688,5.834894180297852,0.6509843468666077
0.07159999950090423,5.914370536804199,0.658073365688324
0.07200000254670158,5.993841171264648,0.6652584075927734
0.07239999831654131,6.073306083679199,0.6725394129753113
0.07280000136233866,6.152764797210693,0.6799163222312927
0.0731999971321784,6.232218265533447,0.6873892545700073
0.07360000017797574,6.247749328613281,0.6949271559715271
0.07400000322377309,6.247190475463867,0.7024659514427185
0.07439999899361283,6.2466254234313965,0.7100037336349487
0.07480000203941017,6.246054649353027,0.717540442943573
0.07519999780924991,6.245477676391602,0.7250760793685913
0.07560000085504726,6.244894504547119,0.7326107025146484
0.07599999662488699,6.24430513381958,0.7401441931724548
0.07639999967068434,6.243710041046143,0.7476766109466553
0.07680000271648169,6.243109226226807,0.7552079558372498
0.07719999848632142,6.242501735687256,0.7627381682395935
0.07760000153211877,6.241888523101807,0.7702673077583313
0.0779999973019585,6.241269588470459,0.7777953743934631
0.07840000034775585,6.2406439781188965,0.7853222489356995
0.0788000033935532,6.2400126457214355,0.7928480505943298
0.07919999916339293,6.239375591278076,0.8003726601600647
0.07960000220919028,6.23873233795166,0.8078961968421936
0.07999999797903001,6.2380828857421875,0.815418541431427
0.08040000102482736,6.237427711486816,0.8229397535324097
0.0807999967946671,6.236766338348389,0.8304597735404968
0.08119999984046444,6.236098766326904,0.8379786610603333
0.08160000288626179,6.2354254722595215,0.8454963564872742
0.08199999865610152,6.234745979309082,0.8530128598213196
0.08240000170189887,6.234060764312744,0.8605281710624695
0.0827999974717386,6.23336935043335,0.8680422902107239
0.08320000051753595,6.232671737670898,0.875555157661438
0.0836000035633333,6.231968402862549,0.8830668926239014
0.08399999933317304,6.231258869171143,0.8905773162841797
0.08440000237897038,6.23054313659668,0.8980866074562073
0.08479999814881012,6.229821681976318,0.9055945873260498
0.08520000119460747,6.229094505310059,0.9131013751029968
0.0855999969644472,6.228361129760742,0.9206069111824036
0.08600000001024455,6.227621555328369,0.9281111359596252
0.0864000030560419,6.2268757820129395,0.9356141686439514
0.08679999882588163,6.226124286651611,0.9431158900260925
0.08720000187167898,6.251570701599121,0.9506215453147888
0.08759999764151871,6.330807209014893,0.9582009315490723
0.08800000068731606,6.410037517547607,0.965876042842865
0.0883999964571558,6.489261627197266,0.9736467599868774
0.08879999950295314,6.568479537963867,0.9815131425857544
0.08920000254875049,6.647691249847412,0.9894751906394958
0.08959999831859022,6.726896286010742,0.9975327849388123
0.09000000136438757,6.806095123291016,1.0056860446929932
0.0903999971342273,6.885287284851074,1.013934850692749
0.09080000018002465,6.964472770690918,1.0222793817520142
0.091200003225822,7.043651580810547,1.0307193994522095
0.09159999899566174,7.122823715209961,1.039254903793335
0.09200000204145908,7.201988697052002,1.0478860139846802
0.09239999781129882,7.281147003173828,1.0566126108169556
0.09280000085709617,7.360298156738281,1.0654348134994507
0.0931999966269359,7.385645866394043,1.0743305683135986
0.09359999967273325,7.384782791137695,1.0832300186157227
0.0940000027185306,7.383912563323975,1.092128038406372
0.09439999848837033,7.383035659790039,1.1010245084762573
0.09480000153416768,7.382151126861572,1.109919548034668
0.09519999730400741,7.381259441375732,1.1188130378723145
0.09560000034980476,7.380361080169678,1.1277049779891968
0.09600000339560211,7.379455089569092,1.1365954875946045
0.09639999916544184,7.378542423248291,1.1454843282699585
0.09680000221123919,7.377622604370117,1.154371738433838
0.09719999798107892,7.37669563293457,1.1632575988769531
0.09760000102687627,7.37576150894165,1.1721417903900146
0.097999996796716,7.374820232391357,1.1810245513916016
0.09839999984251335,7.373871803283691,1.1899056434631348
0.0988000028883107,7.372916221618652,1.1987851858139038
0.09919999865815043,7.37195348739624,1.2076631784439087
0.09960000170394778,7.370984077453613,1.2165395021438599
0.09999999747378752,7.370007038116455,1.2254142761230469
0.10040000051958486,7.369023323059082,1.2342873811721802
0.10080000356538221,7.368031978607178,1.2431589365005493
0.10119999933522195,7.367033958435059,1.2520287036895752
0.1016000023810193,7.366028785705566,1.260896921157837
0.10199999815085903,7.365016460418701,1.269763469696045
0.10240000119665638,7.363997459411621,1.2786283493041992
0.10279999696649611,7.36297082901001,1.2874916791915894
0.10320000001229346,7.361937522888184,1.2963532209396362
0.1036000030580908,7.360896587371826,1.3052130937576294
0.10399999882793054,7.359848976135254,1.3140711784362793
0.10440000187372789,7.358794212341309,1.322927713394165
0.10479999764356762,7.35773229598999,1.3317824602127075
0.10520000068936497,7.356663227081299,1.3406354188919067
0.1055999964592047,7.355587482452393,1.3494867086410522
0.10599999950500205,7.354504108428955,1.358336329460144
0.1064000025507994,7.353414058685303,1.3671841621398926
0.10679999832063913,7.352316856384277,1.3760302066802979
0.10720000136643648,7.351212501525879,1.3848744630813599
0.10759999713627622,7.350100994110107,1.3937170505523682
0.10800000018207356,7.4076032638549805,1.4025838375091553
0.10840000322787091,7.486477375030518,1.411542296409607
0.10879999899771065,7.56534481048584,1.4205960035324097
0.109200002043508,7.644204616546631,1.4297447204589844
0.10959999781334773,7.723056793212891,1.4389886856079102
0.11000000085914508,7.801901817321777,1.4483277797698975
0.11039999662898481,7.880739688873291,1.4577620029449463
0.11079999967478216,7.959569454193115,1.467291235923767
0.1112000027205795,8.038392066955566,1.4769155979156494
0.11159999849041924,8.117206573486328,1.4866350889205933
0.11200000153621659,8.196013450622559,1.4964494705200195
0.11239999730605632,8.253433227539062,1.5063556432724
0.11280000035185367,8.25222396850586,1.51628577709198
0.11320000339765102,8.251007080078125,1.5262138843536377
0.11359999916749075,8.249781608581543,1.5361402034759521
0.1140000022132881,8.248549461364746,1.5460644960403442
0.11439999798312783,8.247307777404785,1.555986762046814
0.11480000102892518,8.24605941772461,1.5659070014953613
0.11519999679876491,8.244802474975586,1.5758253335952759
0.11559999984456226,8.243537902832031,1.585741639137268
0.11600000289035961,8.242265701293945,1.595655918121338
0.11639999866019934,8.240984916687012,1.6055681705474854
0.11680000170599669,8.239696502685547,1.6154783964157104
0.11719999747583643,8.23840045928955,1.6253864765167236
0.11760000052163377,8.237095832824707,1.635292649269104
0.11800000356743112,8.235783576965332,1.6451966762542725
0.11839999933727086,8.234463691711426,1.655098557472229
0.1188000023830682,8.233135223388672,1.6649985313415527
0.11919999815290794,8.231800079345703,1.674896240234375
0.11960000119870529,8.23045539855957,1.684791922569275
0.11999999696854502,8.229104042053223,1.694685459136963
0.12040000001434237,8.227744102478027,1.704576849937439
0.12080000306013972,8.2263765335083,1.7144662141799927
0.12119999882997945,8.225001335144043,1.7243534326553345
0.1216000018757768,8.223617553710938,1.7342383861541748
0.12199999764561653,8.2222261428833,1.7441211938858032
0.12240000069141388,8.220827102661133,1.7540019750595093
0.12280000373721123,8.219420433044434,1.7638804912567139
0.12320000678300858,8.218005180358887,1.773756742477417
0.1235999952768907,8.216582298278809,1.7836308479309082
0.12399999832268804,8.215150833129883,1.7935028076171875
0.12440000136848539,8.213712692260742,1.8033725023269653
0.12480000441428274,8.212265968322754,1.8132399320602417
0.12519999290816486,8.210811614990234,1.8231052160263062
0.1255999959539622,8.209348678588867,1.8329681158065796
0.12599999899975955,8.207878112792969,1.8428288698196411
0.1264000020455569,8.206399917602539,1.8526873588562012
0.12680000509135425,8.204914093017578,1.8625434637069702
0.12719999358523637,8.203420639038086,1.8723974227905273
0.12759999663103372,8.201918601989746,1.8822489976882935
0.12799999967683107,8.200408935546875,1.892098307609558
0.12840000272262841,8.246006965637207,1.901962161064148
0.12880000576842576,8.324481010437012,1.911912441253662
0.12919999426230788,8.402947425842285,1.92195725440979
0.12959999730810523,8.481406211853027,1.9320968389511108
0.13000000035390258,8.559856414794922,1.9423309564590454
0.13040000339969993,8.638298034667969,1.9526596069335938
0.13080000644549727,8.716732025146484,1.9630829095840454
0.1311999949393794,8.795157432556152,1.9736007452011108
0.13159999798517674,8.873574256896973,1.98421311378479
0.1320000010309741,8.919098854064941,1.994911789894104
0.13240000407677144,8.917498588562012,2.005625009536743
0.1328000071225688,8.915889739990234,2.0163354873657227
0.1331999956164509,8.91427230834961,2.027043581008911
0.13359999866224825,8.912646293640137,2.0377492904663086
0.1340000017080456,8.911011695861816,2.048452377319336
0.13440000475384295,8.909368515014648,2.0591530799865723
0.13479999324772507,8.90771770477295,2.0698511600494385
0.13519999629352242,8.906057357788086,2.0805468559265137
0.13559999933931977,8.904388427734375,2.0912399291992188
0.1360000023851171,8.902710914611816,2.1019303798675537
0.13640000543091446,8.901025772094727,2.1126184463500977
0.13679999392479658,8.899331092834473,2.1233038902282715
0.13719999697059393,8.897627830505371,2.133986711502075
0.13760000001639128,8.895916938781738,2.144666910171509
0.13800000306218863,8.894196510314941,2.1553444862365723
0.13840000610798597,8.892468452453613,2.1660196781158447
0.1387999946018681,8.890730857849121,2.176692008972168
0.13919999764766544,8.888985633850098,2.187361717224121
0.1396000006934628,8.88723087310791,2.198029041290283
0.14000000373926014,8.885468482971191,2.208693504333496
0.14040000678505749,8.883697509765625,2.219355344772339
0.1407999952789396,8.881917953491211,2.2300145626068115
0.14119999832473695,8.880128860473633,2.240670919418335
