time[s],iL[A],v out[V]
0.0,0.0,0.0
0.00040000000467443897,0.0,0.0
0.0008000000093488779,0.0,0.0
0.0012000000424450263,0.0,0.0
0.0016000000186977559,0.0,0.0
0.0019999999949504854,0.0,0.0
0.0024000000848900527,0.0,0.0
0.0027999999474559445,0.0,0.0
0.0032000000373955118,0.0,0.0
0.0035999998999614036,0.0,0.0
0.003999999989900971,0.0,0.0
0.004399999852466863,0.0,0.0
0.004800000169780105,0.0,0.0
0.005200000032345997,0.0,0.0
0.005599999894911889,0.0,0.0
0.006000000212225132,0.0,0.0
0.0064000000747910235,0.0,0.0
0.006799999937356915,0.002769754035398364,5.811767778141075e-08
0.007199999799922807,0.0827697366476059,5.189937292016111e-05
0.00760000011723605,0.1627696454524994,0.00020070539903827012
0.007999999979801942,0.24276939034461975,0.00044647135655395687
0.008400000297115184,0.322768896818161,0.000789192330557853
0.008799999704933725,0.4027681052684784,0.001228863256983459
0.009200000022246968,0.48276692628860474,0.001765478984452784
0.00960000033956021,0.5627652406692505,0.002399034332484007
0.009999999747378752,0.642763078212738,0.0031295239459723234
0.010400000064691994,0.7227602005004883,0.003956942353397608
0.010800000382005237,0.802756667137146,0.004881284199655056
0.011199999789823778,0.8827523589134216,0.005902544129639864
0.01160000010713702,0.9627472162246704,0.007020716089755297
0.012000000424450263,1.0427411794662476,0.008235793560743332
0.012399999832268804,1.1227340698242188,0.009547772817313671
0.012800000149582047,1.2027257680892944,0.01095664594322443
0.013199999557400588,1.2827165126800537,0.012462407350540161
0.01359999987471383,1.2854756116867065,0.014019865542650223
0.014000000192027073,1.285463809967041,0.015577293001115322
0.014399999599845614,1.2854506969451904,0.01713463105261326
0.014799999917158857,1.2854363918304443,0.01869187504053116
0.0152000002344721,1.2854207754135132,0.020249027758836746
0.015600000551785342,1.2854039669036865,0.021806083619594574
0.015999999959603883,1.2853858470916748,0.02336304262280464
0.016399999367422424,1.2853665351867676,0.02491990476846695
0.01680000059423037,1.2853460311889648,0.0264766663312912
0.01720000000204891,1.285324215888977,0.02803332731127739
0.01759999940986745,1.2853012084960938,0.029589883983135223
0.018000000636675395,1.2852768898010254,0.03114633820950985
0.018400000044493936,1.2852513790130615,0.03270268812775612
0.018799999452312477,1.2852245569229126,0.03425892814993858
0.01920000067912042,1.2851965427398682,0.03581506013870239
0.019600000086938962,1.2851672172546387,0.03737108036875725
0.019999999494757503,1.2851366996765137,0.03892699256539345
0.020400000721565448,1.2851049900054932,0.040482789278030396
0.02080000012938399,1.2850719690322876,0.04203847050666809
0.02119999953720253,1.285037636756897,0.04359403997659683
0.021600000764010474,1.2850022315979004,0.045149486511945724
0.022000000171829015,1.2849653959274292,0.046704817563295364
0.022399999579647556,1.284927487373352,0.048260025680065155
0.0228000008064555,1.2848882675170898,0.049815110862255096
0.02320000021427404,1.2848477363586426,0.05137007683515549
0.023599999622092582,1.2848060131072998,0.05292491242289543
0.024000000848900527,1.2847630977630615,0.05447962507605553
0.024400000256719068,1.2847188711166382,0.056034207344055176
0.02479999966453761,1.2846734523773193,0.05758865922689438
0.025200000891345553,1.2846267223358154,0.059142980724573135
0.025600000299164094,1.284578800201416,0.060697171837091446
0.025999999706982635,1.2845295667648315,0.06225122511386871
0.026399999114801176,1.2844791412353516,0.06380514800548553
0.02680000034160912,1.284427523612976,0.06535892933607101
0.02719999974942766,1.3052232265472412,0.06691586226224899
0.027599999157246202,1.3851690292358398,0.06854312121868134
0.028000000384054147,1.4651135206222534,0.0702672004699707
0.028399999791872688,1.5450565814971924,0.0720880925655365
0.02879999919969123,1.6249980926513672,0.07400579750537872
0.029200000426499173,1.7049381732940674,0.07602030783891678
0.029599999834317714,1.7848764657974243,0.07813160866498947
0.029999999242136255,1.8648130893707275,0.0803396999835968
0.0304000004689442,1.9447479248046875,0.08264457434415817
0.030800001695752144,2.0246808528900146,0.08504622429609299
0.031200001103570685,2.104611873626709,0.08754464238882065
0.031600000511389226,2.1845407485961914,0.09013982117176056
0.03199999991920777,2.264467477798462,0.09283175319433212
0.03239999932702631,2.3443922996520996,0.09562043845653534
0.03279999873484485,2.424314498901367,0.09850585460662842
0.0332000017806422,2.4450831413269043,0.1014614999294281
0.03360000118846074,2.4450008869171143,0.10442019999027252
0.03400000059627928,2.444916009902954,0.10737864673137665
0.03440000000409782,2.444828987121582,0.11033685505390167
0.03479999941191636,2.444739580154419,0.1132948100566864
0.0351999988197349,2.444647789001465,0.11625251173973083
0.03559999822755344,2.4445536136627197,0.11920995265245438
0.03600000127335079,2.4444570541381836,0.12216714024543762
0.03640000068116933,2.4443581104278564,0.12512406706809998
0.03680000008898787,2.4442567825317383,0.12808072566986084
0.03719999949680641,2.444153070449829,0.13103711605072021
0.037599998904624954,2.444047212600708,0.1339932382106781
0.037999998312443495,2.443938732147217,0.1369490772485733
0.03840000135824084,2.4438281059265137,0.13990464806556702
0.038800000766059384,2.4437148571014404,0.14285995066165924
0.039200000173877925,2.4435994625091553,0.1458149552345276
0.039599999581696466,2.443481683731079,0.14876967668533325
0.03999999898951501,2.443361520767212,0.15172411501407623
0.04039999839733355,2.4432389736175537,0.15467827022075653
0.040800001443130895,2.4431140422821045,0.15763211250305176
0.041200000850949436,2.4429867267608643,0.1605856716632843
0.04160000025876798,2.442857027053833,0.16353893280029297
0.04199999966658652,2.44272518157959,0.16649189591407776
0.04239999907440506,2.4425907135009766,0.16944454610347748
0.0427999984822236,2.4424538612365723,0.17239689826965332
0.04320000152802095,2.442314863204956,0.1753489375114441
0.04360000093583949,2.442173480987549,0.1783006489276886
0.04400000034365803,2.4420297145843506,0.18125206232070923
0.04439999975147657,2.4418833255767822,0.1842031478881836
0.04479999915929511,2.441734790802002,0.1871539205312729
0.04519999856711365,2.4415838718414307,0.19010436534881592
0.045600001612911,2.4414308071136475,0.1930544674396515
0.04600000102072954,2.441275119781494,0.196004256606102
0.04640000042854808,2.44111704826355,0.19895370304584503
0.046799999836366624,2.4409568309783936,0.2019028216600418
0.047199999244185165,2.440793991088867,0.20485159754753113
0.047599998652003706,2.4769439697265625,0.20781002938747406
0.048000001697801054,2.556776523590088,0.21085061132907867
0.048400001105619594,2.6366066932678223,0.2139878273010254
0.048800000513438135,2.7164340019226074,0.21722163259983063
0.049199999921256676,2.7962589263916016,0.22055205702781677
0.04959999932907522,2.8760812282562256,0.22397905588150024
0.04999999873689376,2.9559006690979004,0.22750264406204224
0.050400001782691106,3.035717248916626,0.23112280666828156
0.05080000119050965,3.1155307292938232,0.2348395437002182
0.05120000059832819,3.1953413486480713,0.23865284025669098
0.05160000000614673,3.275148868560791,0.2425626814365387
0.05199999941396527,3.3549532890319824,0.24656906723976135
0.05239999882178381,3.4347543716430664,0.25067198276519775
0.05279999822960235,3.470867156982422,0.25485697388648987
0.0532000012753997,3.4706616401672363,0.25905150175094604
0.05360000068321824,3.4704527854919434,0.2632455825805664
0.05400000009103678,3.470240354537964,0.26743918657302856
0.05439999949885532,3.470024824142456,0.2716323435306549
0.054799998906673864,3.4698057174682617,0.27582505345344543
0.055199998314492404,3.469583511352539,0.28001725673675537
0.05560000136028975,3.46935772895813,0.2842089831829071
0.05600000076810829,3.4691286087036133,0.288400262594223
0.056400000175926834,3.4688963890075684,0.29259103536605835
0.056799999583745375,3.468660593032837,0.2967813313007355
0.057199998991563916,3.468421459197998,0.300971120595932
0.05759999839938246,3.4681789875030518,0.30516043305397034
0.058000001445179805,3.467933177947998,0.3093492388725281
0.058400000852998346,3.467684030532837,0.3135375380516052
0.05880000026081689,3.4674315452575684,0.31772536039352417
0.05919999966863543,3.4671757221221924,0.32191264629364014
0.05959999907645397,3.466916561126709,0.3260993957519531
0.05999999848427251,3.466654062271118,0.3302856683731079
0.06040000153006986,3.46638822555542,0.3344714045524597
0.0608000009378884,3.466118812561035,0.33865660429000854
0.06120000034570694,3.465846300125122,0.3428412675857544
0.06160000339150429,3.4655704498291016,0.34702539443969727
0.06199999916134402,3.4652910232543945,0.35120898485183716
0.06240000220714137,3.465008497238159,0.3553920388221741
0.0627999979769811,3.4647223949432373,0.359574556350708
0.06320000102277845,3.464433193206787,0.3637565076351166
0.06359999679261819,3.4641404151916504,0.3679378926753998
0.06399999983841553,3.4638442993164062,0.37211874127388
0.06440000288421288,3.463545083999634,0.37629902362823486
0.06479999865405262,3.463242292404175,0.38047873973846436
0.06520000169984996,3.4629361629486084,0.3846578598022461
0.0655999974696897,3.4626269340515137,0.38883641362190247
0.06600000051548705,3.4623141288757324,0.39301440119743347
0.0664000035612844,3.4619979858398438,0.3971917927265167
0.06679999933112413,3.4616787433624268,0.4013686180114746
0.06720000237692147,3.4613559246063232,0.40554481744766235
0.06759999814676121,3.4610297679901123,0.40972045063972473
0.06800000119255856,3.5039918422698975,0.4139096736907959
0.06839999696239829,3.5836591720581055,0.4181850552558899
0.06880000000819564,3.663322687149048,0.4225567579269409
0.06920000305399299,3.742982864379883,0.42702484130859375
0.06959999882383272,3.8226394653320312,0.4315892457962036
0.07000000186963007,3.902292490005493,0.4362500011920929
0.0703999976394698,3.9819414615631104,0.4410070478916168
0.07080000068526715,4.061586856842041,0.4458604156970978
0.07119999645510688,4.141228199005127,0.4508100748062134
0.07159999950090423,4.220865249633789,0.455856055021286
0.07200000254670158,4.3004984855651855,0.4609982669353485
0.07239999831654131,4.343419551849365,0.46622657775878906
0.07280000136233866,4.343044281005859,0.47146835923194885
0.0731999971321784,4.342665195465088,0.4767094552516937
0.07360000017797574,4.342281818389893,0.4819498062133789
0.07400000322377309,4.341894149780273,0.48718947172164917
0.07439999899361283,4.3415021896362305,0.49242839217185974
0.07480000203941017,4.341105937957764,0.4976665675640106
0.07519999780924991,4.340705871582031,0.5029039978981018
0.07560000085504726,4.340301513671875,0.5081407427787781
0.07599999662488699,4.339892864227295,0.5133766531944275
0.07639999967068434,4.339479923248291,0.5186119079589844
0.07680000271648169,4.3390631675720215,0.5238463282585144
0.07719999848632142,4.33864164352417,0.5290800333023071
0.07760000153211877,4.338216304779053,0.5343129634857178
0.0779999973019585,4.33778715133667,0.5395451188087463
0.07840000034775585,4.337353229522705,0.5447764992713928
0.0788000033935532,4.336915493011475,0.5500070452690125
0.07919999916339293,4.336472988128662,0.5552368760108948
0.07960000220919028,4.336027145385742,0.5604658722877502
0.07999999797903001,4.33557653427124,0.5656940937042236
0.08040000102482736,4.335122108459473,0.5709214806556702
0.0807999967946671,4.334662914276123,0.5761480927467346
0.08119999984046444,4.334199905395508,0.581373929977417
0.08160000288626179,4.333733081817627,0.5865988731384277
0.08199999865610152,4.333261489868164,0.5918230414390564
0.08240000170189887,4.3327860832214355,0.5970463752746582
0.0827999974717386,4.332306385040283,0.6022688746452332
0.08320000051753595,4.331822395324707,0.6074905395507812
0.0836000035633333,4.331334114074707,0.6127113699913025
0.08399999933317304,4.330842018127441,0.6179313063621521
0.08440000237897038,4.330345630645752,0.6231504678726196
0.08479999814881012,4.329844951629639,0.6283686757087708
0.08520000119460747,4.329339981079102,0.6335861086845398
0.0855999969644472,4.328831195831299,0.6388026475906372
0.08600000001024455,4.328318119049072,0.644018292427063
0.0864000030560419,4.327800750732422,0.6492330431938171
0.08679999882588163,4.327279090881348,0.6544469594955444
0.08720000187167898,4.326753616333008,0.6596599817276001
0.08759999764151871,4.326223850250244,0.6648721098899841
0.08800000068731606,4.325689792633057,0.6700833439826965
0.0883999964571558,4.379635334014893,0.6753161549568176
0.08879999950295314,4.45909309387207,0.6806400418281555
0.08920000254875049,4.538546085357666,0.6860600709915161
0.08959999831859022,4.617995262145996,0.6915760636329651
0.09000000136438757,4.697439670562744,0.697188138961792
0.0903999971342273,4.776879787445068,0.7028961777687073
0.09080000018002465,4.8563151359558105,0.7087002992630005
0.091200003225822,4.935745716094971,0.7146003246307373
0.09159999899566174,5.015171527862549,0.720596432685852
0.09200000204145908,5.0690765380859375,0.7266835570335388
0.09239999781129882,5.068492889404297,0.7327921390533447
0.09280000085709617,5.067903995513916,0.7388997077941895
0.0931999966269359,5.067310333251953,0.7450063228607178
0.09359999967273325,5.066711902618408,0.7511118650436401
0.0940000027185306,5.066108703613281,0.7572163939476013
0.09439999848837033,5.065500259399414,0.7633199095726013
0.09480000153416768,5.064887523651123,0.7694224119186401
0.09519999730400741,5.064269542694092,0.775523841381073
0.09560000034980476,5.06364631652832,0.7816241979598999
0.09600000339560211,5.063018798828125,0.7877235412597656
0.09639999916544184,5.0623860359191895,0.7938218116760254
0.09680000221123919,5.061748504638672,0.7999190092086792
0.09719999798107892,5.061106204986572,0.806015133857727
0.09760000102687627,5.060459136962891,0.812110185623169
0.097999996796716,5.059806823730469,0.8182041645050049
0.09839999984251335,5.059149742126465,0.8242970705032349
0.0988000028883107,5.058487892150879,0.8303888440132141
0.09919999865815043,5.057821273803711,0.8364795446395874
0.09960000170394778,5.057149410247803,0.84256911277771
0.09999999747378752,5.056473255157471,0.8486575484275818
0.10040000051958486,5.055791854858398,0.8547449111938477
0.10080000356538221,5.055105686187744,0.8608311414718628
0.10119999933522195,5.054414749145508,0.8669162392616272
0.1016000023810193,5.053718566894531,0.8730002045631409
0.10199999815085903,5.053017616271973,0.879082977771759
0.10240000119665638,5.052311897277832,0.8851646780967712
0.10279999696649611,5.051601409912109,0.8912451863288879
0.10320000001229346,5.050886154174805,0.8973245620727539
0.1036000030580908,5.05016565322876,0.9034027457237244
0.10399999882793054,5.049440860748291,0.9094797968864441
0.10440000187372789,5.048710823059082,0.9155556559562683
0.10479999764356762,5.047975540161133,0.921630322933197
0.10520000068936497,5.04723596572876,0.9277037978172302
0.1055999964592047,5.046491622924805,0.9337760806083679
0.10599999950500205,5.045742034912109,0.9398471713066101
0.1064000025507994,5.044987678527832,0.945917010307312
0.10679999832063913,5.044228553771973,0.9519857168197632
0.10720000136643648,5.043464660644531,0.9580531120300293
0.10759999713627622,5.04269552230835,0.9641193747520447
0.10800000018207356,5.041922092437744,0.9701843857765198
0.10840000322787091,5.041143417358398,0.9762481451034546
0.10879999899771065,5.115705966949463,0.982353687286377
0.109200002043508,5.194917678833008,0.9885547161102295
0.10959999781334773,5.2741241455078125,0.9948515295982361
0.11000000085914508,5.353325843811035,1.001244068145752
0.11039999662898481,5.432522296905518,1.0077321529388428
0.11079999967478216,5.51171350479126,1.0143160820007324
0.1112000027205795,5.590899467468262,1.0209956169128418
0.11159999849041924,5.665425777435303,1.0277705192565918
0.11200000153621659,5.664600849151611,1.0345872640609741
0.11239999730605632,5.66377067565918,1.0414025783538818
0.11280000035185367,5.66293478012085,1.0482165813446045
0.11320000339765102,5.662093162536621,1.055029273033142
0.11359999916749075,5.6612467765808105,1.0618406534194946
0.1140000022132881,5.660394191741943,1.0686506032943726
0.11439999798312783,5.659536838531494,1.0754591226577759
0.11480000102892518,5.6586737632751465,1.0822663307189941
0.11519999679876491,5.6578049659729,1.0890722274780273
0.11559999984456226,5.656931400299072,1.095876693725586
0.11600000289035961,5.6560516357421875,1.10267972946167
0.11639999866019934,5.655167102813721,1.1094813346862793
0.11680000170599669,5.654276371002197,1.1162816286087036
0.11719999747583643,5.653380870819092,1.1230804920196533
0.11760000052163377,5.652479648590088,1.1298778057098389
0.11800000356743112,5.651573181152344,1.1366738080978394
0.11839999933727086,5.650660991668701,1.1434683799743652
0.1188000023830682,5.649743556976318,1.1502615213394165
0.11919999815290794,5.648820400238037,1.1570532321929932
0.11960000119870529,5.647891998291016,1.1638435125350952
0.11999999696854502,5.646958351135254,1.170632243156433
0.12040000001434237,5.646018981933594,1.1774195432662964
0.12080000306013972,5.645074367523193,1.184205412864685
0.12119999882997945,5.644124507904053,1.1909897327423096
0.1216000018757768,5.643168926239014,1.1977726221084595
0.12199999764561653,5.642208099365234,1.2045539617538452
0.12240000069141388,5.641241550445557,1.2113338708877563
0.12280000373721123,5.640269756317139,1.2181122303009033
0.12320000678300858,5.6392927169799805,1.2248891592025757
0.1235999952768907,5.638309955596924,1.2316645383834839
0.12399999832268804,5.637321949005127,1.238438367843628
0.12440000136848539,5.63632869720459,1.2452106475830078
0.12480000441428274,5.635329723358154,1.2519813776016235
0.12519999290816486,5.6343255043029785,1.2587506771087646
0.1255999959539622,5.633315563201904,1.265518307685852
0.12599999899975955,5.63230037689209,1.2722845077514648
0.1264000020455569,5.631279945373535,1.279049038887024
0.12680000509135425,5.63025426864624,1.2858120203018188
0.12719999358523637,5.629222869873047,1.2925734519958496
0.12759999663103372,5.628185749053955,1.2993332147598267
0.12799999967683107,5.627143859863281,1.306091547012329
0.12840000272262841,5.626096248626709,1.3128482103347778
0.12880000576842576,5.667994976043701,1.3196171522140503
0.12919999426230788,5.746936798095703,1.326471209526062
0.12959999730810523,5.825872898101807,1.3334205150604248
0.13000000035390258,5.904803276062012,1.3404651880264282
0.13040000339969993,5.983727931976318,1.3476052284240723
0.13080000644549727,6.062646865844727,1.3548405170440674
0.1311999949393794,6.141560077667236,1.3621711730957031
0.13159999798517674,6.183419227600098,1.369586706161499
0.1320000010309741,6.182320594787598,1.3770145177841187
0.13240000407677144,6.181216239929199,1.3844406604766846
0.1328000071225688,6.180105686187744,1.3918650150299072
0.1331999956164509,6.178988933563232,1.3992877006530762
0.13359999866224825,6.1778669357299805,1.4067087173461914
0.1340000017080456,6.176738262176514,1.4141279458999634
0.13440000475384295,6.175604343414307,1.4215455055236816
0.13479999324772507,6.174463748931885,1.4289612770080566
0.13519999629352242,6.173317909240723,1.4363752603530884
0.13559999933931977,6.172165870666504,1.4437875747680664
0.1360000023851171,6.1710076332092285,1.4511981010437012
0.13640000543091446,6.169843673706055,1.4586068391799927
0.13679999392479658,6.168673992156982,1.4660139083862305
0.13719999697059393,6.1674981117248535,1.4734190702438354
0.13760000001639128,6.166316509246826,1.4808224439620972
0.13800000306218863,6.165128707885742,1.4882241487503052
0.13840000610798597,6.16393518447876,1.4956239461898804
0.1387999946018681,6.162735939025879,1.5030219554901123
0.13919999764766544,6.161530494689941,1.510418176651001
0.1396000006934628,6.1603193283081055,1.5178124904632568
0.14000000373926014,6.159101963043213,1.525205135345459
0.14040000678505749,6.157878875732422,1.5325958728790283
0.1407999952789396,6.156649589538574,1.5399847030639648
0.14119999832473695,6.155415058135986,1.547371745109558
