time[s],iL[A],v out[V]
0.0,0.0,0.0
0.00040000000467443897,0.0,0.0
0.0008000000093488779,0.0,0.0
0.0012000000424450263,0.0,0.0
0.0016000000186977559,0.0,0.0
0.0019999999949504854,0.0,0.0
0.0024000000848900527,0.0,0.0
0.0027999999474559445,0.0,0.0
0.0032000000373955118,0.0,0.0
0.0035999998999614036,0.0,0.0
0.003999999989900971,0.0,0.0
0.004399999852466863,0.0,0.0
0.004800000169780105,0.0,0.0
0.005200000032345997,0.0,0.0
0.005599999894911889,0.0,0.0
0.006000000212225132,0.0,0.0
0.0064000000747910235,0.0,0.0
0.006799999937356915,0.0,0.0
0.007199999799922807,0.0,0.0
0.00760000011723605,0.0,0.0
0.007999999979801942,0.0,0.0
0.008400000297115184,0.0,0.0
0.008799999704933725,0.0,0.0
0.009200000022246968,0.0,0.0
0.00960000033956021,0.0,0.0
0.009999999747378752,0.05144655331969261,2.0050913008162752e-05
0.010400000064691994,0.10289305448532104,0.00012471545778680593
0.010800000382005237,0.1028929054737091,0.0002494251530151814
0.011199999789823778,0.10289265960454941,0.0003741285763680935
0.01160000010713702,0.10289230942726135,0.0004988255677744746
0.012000000424450263,0.10289186239242554,0.0006235160981304944
0.012399999832268804,0.10289131104946136,0.0007481998763978481
0.012800000149582047,0.10289066284894943,0.0008728769607841969
0.013199999557400588,0.10288991779088974,0.0009975471766665578
0.01359999987471383,0.10288906842470169,0.0011222102912142873
0.014000000192027073,0.10288812220096588,0.0012468663044273853
0.014399999599845614,0.10288707166910172,0.0013715150998905301
0.014799999917158857,0.10288592427968979,0.001496156444773078
0.0152000002344721,0.1028846800327301,0.001620790339075029
0.015600000551785342,0.10288333147764206,0.001745416666381061
0.015999999959603883,0.10288188606500626,0.0018700351938605309
0.016399999367422424,0.1028803363442421,0.0019946459215134382
0.01680000059423037,0.10287869721651077,0.0021192487329244614
0.01720000000204891,0.1028769463300705,0.0022438433952629566
0.01759999940986745,0.10287510603666306,0.0023684296756982803
0.018000000636675395,0.10287316143512726,0.002493007807061076
0.018400000044493936,0.1028711125254631,0.002617577323690057
0.018799999452312477,0.10286897420883179,0.002742138458415866
0.01920000067912042,0.10286672413349152,0.002866690745577216
0.019600000086938962,0.10286438465118408,0.0029912341851741076
0.019999999494757503,0.10286194086074829,0.00311576877720654
0.020400000721565448,0.10285940021276474,0.00324029428884387
0.02080000012938399,0.10285675525665283,0.0033648107200860977
0.02119999953720253,0.10285401344299316,0.0034893176052719355
0.021600000764010474,0.10285117477178574,0.0036138154100626707
0.022000000171829015,0.10284823179244995,0.0037383034359663725
0.022399999579647556,0.1028451919555664,0.0038627819158136845
0.0228000008064555,0.1028420552611351,0.003987250383943319
0.02320000021427404,0.10283881425857544,0.004111709073185921
0.023599999622092582,0.10283547639846802,0.004236157983541489
0.024000000848900527,0.10283203423023224,0.004360596649348736
0.024400000256719068,0.1028284952044487,0.004485024604946375
0.02479999966453761,0.1028248593211174,0.0046094427816569805
0.025200000891345553,0.10282111912965775,0.004733850248157978
0.025600000299164094,0.10281728208065033,0.0048582470044493675
0.025999999706982635,0.10281334817409515,0.004982633050531149
0.026399999114801176,0.10280930995941162,0.005107008386403322
0.02680000034160912,0.10280517488718033,0.0052313725464046
0.02719999974942766,0.10280094295740128,0.005355725530534983
0.027599999157246202,0.10279660671949387,0.00548006733879447
0.028000000384054147,0.1027921736240387,0.005604397971183062
0.028399999791872688,0.10278764367103577,0.005728716962039471
0.02879999919969123,0.10278300940990448,0.005853024777024984
0.029200000426499173,0.10277827829122543,0.005977320484817028
0.029599999834317714,0.10277344286441803,0.006101604551076889
0.029999999242136255,0.15370109677314758,0.0062455288134515285
0.0304000004689442,0.2046286016702652,0.006473605986684561
0.030800001695752144,0.20462332665920258,0.006721317768096924
0.031200001103570685,0.20461784303188324,0.006969010923057795
0.031600000511389226,0.20461216568946838,0.007216684985905886
0.03199999991920777,0.204606294631958,0.0074643404223024845
0.03239999932702631,0.2046002298593521,0.007711976300925016
0.03279999873484485,0.2045939564704895,0.007959593087434769
0.0332000017806422,0.20458748936653137,0.008207189850509167
0.03360000118846074,0.20458082854747772,0.008454767055809498
0.03400000059627928,0.20457395911216736,0.008702323772013187
0.03440000000409782,0.20456691086292267,0.008949859999120235
0.03479999941191636,0.20455963909626007,0.009197374805808067
0.0351999988197349,0.20455218851566315,0.009444870054721832
0.03559999822755344,0.2045445293188095,0.009692342951893806
0.03600000127335079,0.20453667640686035,0.009939795359969139
0.03640000068116933,0.20452862977981567,0.010187226347625256
0.03680000008898787,0.20452037453651428,0.010434634983539581
0.03719999949680641,0.20451194047927856,0.010682021267712116
0.037599998904624954,0.20450328290462494,0.01092938520014286
0.037999998312443495,0.204494446516037,0.011176726780831814
0.03840000135824084,0.20448540151119232,0.011424045078456402
0.038800000766059384,0.20447616279125214,0.011671341024339199
0.039200000173877925,0.20446673035621643,0.011918613687157631
0.039599999581696466,0.2044571042060852,0.012165862135589123
0.03999999898951501,0.20444726943969727,0.01241308730095625
0.04039999839733355,0.2044372409582138,0.012660288251936436
0.040800001443130895,0.20442701876163483,0.012907464988529682
0.041200000850949436,0.20441658794879913,0.013154617510735989
0.04160000025876798,0.20440596342086792,0.01340174488723278
0.04199999966658652,0.2043951451778412,0.013648847118020058
0.04239999907440506,0.20438413321971893,0.01389592420309782
0.0427999984822236,0.20437291264533997,0.014142976142466068
0.04320000152802095,0.20436149835586548,0.014390002004802227
0.04360000093583949,0.20434989035129547,0.014637002721428871
0.04400000034365803,0.20433807373046875,0.014883976429700851
0.04439999975147657,0.2043260782957077,0.015130924060940742
0.04479999915929511,0.20431387424468994,0.015377845615148544
0.04519999856711365,0.20430146157741547,0.015624739229679108
0.045600001612911,0.20428887009620667,0.015871606767177582
0.04600000102072954,0.20427606999874115,0.016118446364998817
0.04640000042854808,0.20426307618618011,0.016365258023142815
0.046799999836366624,0.20424988865852356,0.016612041741609573
0.047199999244185165,0.20423650741577148,0.016858797520399094
0.047599998652003706,0.2042229175567627,0.017105525359511375
0.048000001697801054,0.2042091339826584,0.01735222525894642
0.048400001105619594,0.20419515669345856,0.017598895356059074
0.048800000513438135,0.20418097078800201,0.01784553751349449
0.049199999921256676,0.20416660606861115,0.01809214986860752
0.04959999932907522,0.20415203273296356,0.018338732421398163
0.04999999873689376,0.25443220138549805,0.018604448065161705
0.050400001782691106,0.30471211671829224,0.018953731283545494
0.05080000119050965,0.30469679832458496,0.019322142004966736
0.05120000059832819,0.3046811819076538,0.019690517336130142
0.05160000000614673,0.30466529726982117,0.020058853551745415
0.05199999941396527,0.30464908480644226,0.020427154377102852
0.05239999882178381,0.30463260412216187,0.020795416086912155
0.05279999822960235,0.3046158254146576,0.021163640543818474
0.0532000012753997,0.30459874868392944,0.02153182588517666
0.05360000068321824,0.3045813739299774,0.02189997397363186
0.05400000009103678,0.3045637011528015,0.022268082946538925
0.05439999949885532,0.30454573035240173,0.02263615094125271
0.054799998906673864,0.30452749133110046,0.023004179820418358
0.055199998314492404,0.30450892448425293,0.023372167721390724
0.05560000136028975,0.3044900894165039,0.023740116506814957
0.05600000076810829,0.304470956325531,0.024108024314045906
0.056400000175926834,0.30445152521133423,0.024475891143083572
0.056799999583745375,0.3044317960739136,0.024843715131282806
0.057199998991563916,0.30441176891326904,0.025211498141288757
0.05759999839938246,0.30439144372940063,0.025579238310456276
0.058000001445179805,0.30437085032463074,0.025946935638785362
0.058400000852998346,0.3043499290943146,0.026314590126276016
0.05880000026081689,0.3043287396430969,0.026682201772928238
0.05919999966863543,0.3043072521686554,0.027049768716096878
0.05959999907645397,0.30428546667099,0.027417292818427086
0.05999999848427251,0.3042633831501007,0.027784772217273712
0.06040000153006986,0.30424100160598755,0.028152206912636757
0.0608000009378884,0.3042183518409729,0.02851959690451622
0.06120000034570694,0.304195374250412,0.028886940330266953
0.06160000339150429,0.3041721284389496,0.029254239052534103
0.06199999916134402,0.3041485846042633,0.029621489346027374
0.06240000220714137,0.30412471294403076,0.029988694936037064
0.0627999979769811,0.3041006028652191,0.030355853959918022
0.06320000102277845,0.3040761649608612,0.0307229645550251
0.06359999679261819,0.3040514290332794,0.03109002858400345
0.06399999983841553,0.30402642488479614,0.031457044184207916
0.06440000288421288,0.3040010929107666,0.031824011355638504
0.06479999865405262,0.30397549271583557,0.03219093009829521
0.06520000169984996,0.30394959449768066,0.03255780041217804
0.0655999974696897,0.3039233982563019,0.03292462229728699
0.06600000051548705,0.3038969039916992,0.03329139202833176
0.0664000035612844,0.30387014150619507,0.033658113330602646
0.06679999933112413,0.30384305119514465,0.03402478247880936
0.06720000237692147,0.30381569266319275,0.03439140319824219
0.06759999814676121,0.30378803610801697,0.03475797176361084
0.06800000119255856,0.3037600815296173,0.035124488174915314
0.06839999696239829,0.3037318289279938,0.03549095243215561
0.06880000000819564,0.30370330810546875,0.035857364535331726
0.06920000305399299,0.30367445945739746,0.036223724484443665
0.06959999882383272,0.3036453425884247,0.036590032279491425
0.07000000186963007,0.3539159893989563,0.03697545453906059
0.0703999976394698,0.40418627858161926,0.037444423884153366
0.07080000068526715,0.4041561186313629,0.03793250024318695
0.07119999645510688,0.4041255712509155,0.03842051699757576
0.07159999950090423,0.4040946662425995,0.038908474147319794
0.07200000254670158,0.40406334400177,0.039396367967128754
0.07239999831654131,0.4040316343307495,0.03988420218229294
0.07280000136233866,0.4039995074272156,0.04037197306752205
0.0731999971321784,0.403967022895813,0.040859680622816086
0.07360000017797574,0.40393415093421936,0.04134732484817505
0.07400000322377309,0.4039008617401123,0.04183490574359894
0.07439999899361283,0.4038672149181366,0.042322419583797455
0.07480000203941017,0.40383315086364746,0.0428098700940609
0.07519999780924991,0.4037986993789673,0.04329725727438927
0.07560000085504726,0.40376389026641846,0.043784577399492264
0.07599999662488699,0.4037286639213562,0.04427183419466019
0.07639999967068434,0.4036930501461029,0.04475902020931244
0.07680000271648169,0.40365704894065857,0.04524614289402962
0.07719999848632142,0.4036206603050232,0.04573319852352142
0.07760000153211877,0.4035838544368744,0.04622018337249756
0.0779999973019585,0.40354669094085693,0.04670710116624832
0.07840000034775585,0.40350914001464844,0.047193948179483414
0.0788000033935532,0.4034711718559265,0.047680728137493134
0.07919999916339293,0.40343284606933594,0.04816743731498718
0.07960000220919028,0.4033941328525543,0.04865407571196556
0.07999999797903001,0.4033550024032593,0.04914064332842827
0.08040000102482736,0.4033154845237732,0.049627140164375305
0.0807999967946671,0.40327560901641846,0.05011356621980667
0.08119999984046444,0.4032353162765503,0.05059991776943207
0.08160000288626179,0.4031946361064911,0.051086198538541794
0.08199999865610152,0.40315356850624084,0.05157240480184555
0.08240000170189887,0.40311211347579956,0.052058540284633636
0.0827999974717386,0.40307027101516724,0.052544597536325455
0.08320000051753595,0.40302804112434387,0.0530305840075016
0.0836000035633333,0.40298542380332947,0.05351649597287178
0.08399999933317304,0.402942419052124,0.05400232970714569
0.08440000237897038,0.40289902687072754,0.05448808893561363
0.08479999814881012,0.40285524725914,0.054973769932985306
0.08520000119460747,0.40281108021736145,0.05545937642455101
0.0855999969644472,0.40276649594306946,0.05594490468502045
0.08600000001024455,0.4027215540409088,0.056430354714393616
0.0864000030560419,0.40267622470855713,0.05691572651267052
0.08679999882588163,0.4026305079460144,0.05740102007985115
0.08720000187167898,0.40258437395095825,0.057886235415935516
0.08759999764151871,0.40253788232803345,0.058371368795633316
0.08800000068731606,0.4024909734725952,0.05885642394423485
0.0883999964571558,0.40244370698928833,0.059341397136449814
0.08879999950295314,0.4023960530757904,0.059826288372278214
0.08920000254875049,0.40234798192977905,0.060311101377010345
0.08959999831859022,0.40229955315589905,0.06079582870006561
0.09000000136438757,0.4524814486503601,0.06129959225654602
0.0903999971342273,0.5026628971099854,0.06188680976629257
0.09080000018002465,0.5026131868362427,0.06249305233359337
0.091200003225822,0.502562940120697,0.063099205493927
0.09159999899566174,0.5025122165679932,0.06370526552200317
0.09200000204145908,0.5024610161781311,0.06431123614311218
0.09239999781129882,0.5024093389511108,0.06491711735725403
0.09280000085709617,0.5023571252822876,0.06552290916442871
0.0931999966269359,0.5023044943809509,0.06612859666347504
0.09359999967273325,0.5022513270378113,0.0667342022061348
0.0940000027185306,0.5021976828575134,0.0673397108912468
0.09439999848837033,0.5021435618400574,0.06794512271881104
0.09480000153416768,0.5020889639854431,0.06855043768882751
0.09519999730400741,0.5020338892936707,0.06915565580129623
0.09560000034980476,0.50197833776474,0.06976078450679779
0.09600000339560211,0.5019223093986511,0.07036580890417099
0.09639999916544184,0.5018657445907593,0.07097073644399643
0.09680000221123919,0.501808762550354,0.0715755745768547
0.09719999798107892,0.5017512440681458,0.07218030840158463
0.09760000102687627,0.5016932487487793,0.07278493791818619
0.097999996796716,0.5016347765922546,0.07338947057723999
0.09839999984251335,0.5015758275985718,0.07399390637874603
0.0988000028883107,0.5015164017677307,0.07459823787212372
0.09919999865815043,0.5014564394950867,0.07520247250795364
0.09960000170394778,0.5013960599899292,0.07580659538507462
0.09999999747378752,0.5013352036476135,0.07641062140464783
0.10040000051958486,0.5012738108634949,0.07701454311609268
0.10080000356538221,0.5012120008468628,0.07761836051940918
0.10119999933522195,0.5011496543884277,0.07822207361459732
0.1016000023810193,0.5010868310928345,0.0788256824016571
0.10199999815085903,0.501023530960083,0.07942918688058853
0.10240000119665638,0.5009597539901733,0.0800325870513916
0.10279999696649611,0.5008955001831055,0.08063587546348572
0.10320000001229346,0.5008307099342346,0.08123905956745148
0.1036000030580908,0.5007655024528503,0.08184213191270828
0.10399999882793054,0.5006997585296631,0.08244509994983673
0.10440000187372789,0.5006335973739624,0.08304795622825623
0.10479999764356762,0.5005668997764587,0.08365070074796677
0.10520000068936497,0.5004997253417969,0.08425334095954895
0.1055999964592047,0.5004320740699768,0.08485586196184158
0.10599999950500205,0.5003639459609985,0.08545827865600586
0.1064000025507994,0.5002953410148621,0.08606058359146118
0.10679999832063913,0.5002262592315674,0.08666276931762695
0.10720000136643648,0.5001567006111145,0.08726485073566437
0.10759999713627622,0.5000866651535034,0.08786681294441223
0.10800000018207356,0.5000160932540894,0.08846865594387054
0.10840000322787091,0.49994510412216187,0.0890703946352005
0.10879999899771065,0.4998736083507538,0.08967200666666031
0.109200002043508,0.4998016059398651,0.09027350693941116
0.10959999781334773,0.4997291564941406,0.09087489545345306
0.11000000085914508,0.5500116944313049,0.09149537235498428
0.11039999662898481,0.600293755531311,0.09219938516616821
0.11079999967478216,0.6002196669578552,0.09292247891426086
0.1112000027205795,0.6001450419425964,0.09364545345306396
0.11159999849041924,0.6000698208808899,0.09436829388141632
0.11200000153621659,0.5999940633773804,0.09509101510047913
0.11239999730605632,0.5999177098274231,0.09581360220909119
0.11280000035185367,0.5998407602310181,0.0965360701084137
0.11320000339765102,0.5997632741928101,0.09725840389728546
0.11359999916749075,0.5996851325035095,0.09798061102628708
0.1140000022132881,0.599606454372406,0.09870268404483795
0.11439999798312783,0.5995272397994995,0.09942463040351868
0.11480000102892518,0.5994473695755005,0.10014644265174866
0.11519999679876491,0.5993670225143433,0.1008681207895279
0.11559999984456226,0.5992860198020935,0.10158967226743698
0.11600000289035961,0.599204421043396,0.10231108963489532
0.11639999866019934,0.5991222858428955,0.10303236544132233
0.11680000170599669,0.599039614200592,0.10375351458787918
0.11719999747583643,0.598956286907196,0.1044745221734047
0.11760000052163377,0.5988724231719971,0.10519539564847946
0.11800000356743112,0.5987880229949951,0.10591613501310349
0.11839999933727086,0.5987029671669006,0.10663673281669617
0.1188000023830682,0.5986173748970032,0.1073571965098381
0.11919999815290794,0.598531186580658,0.1080775186419487
0.11960000119870529,0.5984444618225098,0.10879769921302795
0.11999999696854502,0.5983571410179138,0.10951773822307587
0.12040000001434237,0.5982692241668701,0.11023763567209244
0.12080000306013972,0.5981807708740234,0.11095739901065826
0.12119999882997945,0.598091721534729,0.11167701333761215
0.1216000018757768,0.5980020761489868,0.1123964861035347
0.12199999764561653,0.5979118943214417,0.1131158173084259
0.12240000069141388,0.5978211164474487,0.11383499950170517
0.12280000373721123,0.5977297425270081,0.1145540401339531
0.12320000678300858,0.5976378321647644,0.11527293175458908
0.1235999952768907,0.597545325756073,0.11599168181419373
0.12399999832268804,0.5974522233009338,0.11671028286218643
0.12440000136848539,0.5973585844039917,0.1174287348985672
0.12480000441428274,0.5972643494606018,0.11814703792333603
0.12519999290816486,0.5971695184707642,0.11886519193649292
0.1255999959539622,0.5970741510391235,0.11958319693803787
0.12599999899975955,0.5969781875610352,0.12030104547739029
0.1264000020455569,0.5968816876411438,0.12101874500513077
0.12680000509135425,0.5967845916748047,0.12173629552125931
0.12719999358523637,0.5966868996620178,0.12245369702577591
0.12759999663103372,0.5965886116027832,0.12317093461751938
0.12799999967683107,0.5964897871017456,0.12388802319765091
0.12840000272262841,0.596390426158905,0.1246049553155899
0.12880000576842576,0.5962904691696167,0.12532173097133636
0.12919999426230788,0.5961899161338806,0.1260383576154709
0.12959999730810523,0.5960887670516968,0.12675482034683228
0.13000000035390258,0.6463598608970642,0.1274903565645218
0.13040000339969993,0.6966303586959839,0.12830939888954163
0.13080000644549727,0.696527361869812,0.1291474848985672
0.1311999949393794,0.6964237093925476,0.12998542189598083
0.13159999798517674,0.6963194012641907,0.13082318007946014
0.1320000010309741,0.6962143778800964,0.13166077435016632
0.13240000407677144,0.6961086988449097,0.13249820470809937
0.1328000071225688,0.6960023641586304,0.13333547115325928
0.1331999956164509,0.6958953738212585,0.13417255878448486
0.13359999866224825,0.6957877278327942,0.13500948250293732
0.1340000017080456,0.6956793665885925,0.13584622740745544
0.13440000475384295,0.6955703496932983,0.13668279349803925
0.13479999324772507,0.6954606771469116,0.13751919567584991
0.13519999629352242,0.6953503489494324,0.13835543394088745
0.13559999933931977,0.6952393054962158,0.13919147849082947
0.1360000023851171,0.6951276063919067,0.14002735912799835
0.13640000543091446,0.6950152516365051,0.1408630609512329
0.13679999392479658,0.694902241230011,0.14169858396053314
0.13719999697059393,0.6947885751724243,0.14253392815589905
0.13760000001639128,0.6946741938591003,0.14336909353733063
0.13800000306218863,0.6945591568946838,0.14420408010482788
0.13840000610798597,0.6944434642791748,0.1450388878583908
