time[s],iL[A],v out[V]
0.0,0.0,0.0
0.00040000000467443897,0.0,0.0
0.0008000000093488779,0.0,0.0
0.0012000000424450263,0.0,0.0
0.0016000000186977559,0.0,0.0
0.0019999999949504854,0.0,0.0
0.0024000000848900527,0.0,0.0
0.0027999999474559445,0.0,0.0
0.0032000000373955118,0.0,0.0
0.0035999998999614036,0.0,0.0
0.003999999989900971,0.0,0.0
0.004399999852466863,0.0,0.0
0.004800000169780105,0.0,0.0
0.005200000032345997,0.0,0.0
0.005599999894911889,0.0,0.0
0.006000000212225132,0.0,0.0
0.0064000000747910235,0.0,0.0
0.006799999937356915,0.0,0.0
0.007199999799922807,0.0,0.0
0.00760000011723605,0.0,0.0
0.007999999979801942,0.0,0.0
0.008400000297115184,0.0,0.0
0.008799999704933725,0.0,0.0
0.009200000022246968,0.0,0.0
0.00960000033956021,0.0,0.0
0.009999999747378752,0.002691924571990967,5.489741283781768e-08
0.010400000064691994,0.00538384635001421,6.525718617922394e-06
0.010800000382005237,0.005383838899433613,1.3051114365225658e-05
0.011199999789823778,0.005383825860917568,1.957618042069953e-05
0.01160000010713702,0.005383807234466076,2.610091178212315e-05
0.012000000424450263,0.0053837839514017105,3.2625302992528304e-05
0.012399999832268804,0.005383755080401897,3.914934495696798e-05
0.012800000149582047,0.005383721087127924,4.567303039948456e-05
0.013199999557400588,0.00538368197157979,5.2196359320078045e-05
0.01359999987471383,0.005383637733757496,5.871931716683321e-05
0.014000000192027073,0.005383588373661041,6.524190393975005e-05
0.014399999599845614,0.005383533425629139,7.176411600084975e-05
0.014799999917158857,0.005383473355323076,7.82859351602383e-05
0.0152000002344721,0.005383408162742853,8.480736141791567e-05
0.015600000551785342,0.00538333784788847,9.132839477388188e-05
0.015999999959603883,0.0053832619450986385,9.78490206762217e-05
0.016399999367422424,0.005383180920034647,0.00010436923912493512
0.01680000059423037,0.005383094772696495,0.00011088903556810692
0.01720000000204891,0.005383003503084183,0.0001174084100057371
0.01759999940986745,0.00538290711119771,0.00012392735516186804
0.018000000636675395,0.005382805597037077,0.0001304458564845845
0.018400000044493936,0.005382698494940996,0.00013696392124984413
0.018799999452312477,0.005382586270570755,0.0001434815494576469
0.01920000067912042,0.0053824689239263535,0.00014999871200416237
0.019600000086938962,0.0053823464550077915,0.00015651540888939053
0.019999999494757503,0.005382218398153782,0.00016303164011333138
0.020400000721565448,0.005382085219025612,0.00016954740567598492
0.02080000012938399,0.0053819469176232815,0.0001760626764735207
0.02119999953720253,0.005381803493946791,0.00018257746705785394
0.021600000764010474,0.0053816549479961395,0.00018909176287706941
0.022000000171829015,0.005381501279771328,0.00019560556393116713
0.022399999579647556,0.005381342023611069,0.00020211885566823184
0.0228000008064555,0.005381177645176649,0.00020863163808826357
0.02320000021427404,0.005381008144468069,0.0002151439111912623
0.023599999622092582,0.005380833521485329,0.0002216556458733976
0.024000000848900527,0.005380653776228428,0.00022816685668658465
0.024400000256719068,0.005380468443036079,0.00023467752907890826
0.02479999966453761,0.0053802779875695705,0.00024118766305036843
0.025200000891345553,0.005380082409828901,0.0002476972294971347
0.025600000299164094,0.005379881709814072,0.0002542062720749527
0.025999999706982635,0.005379675887525082,0.0002607147325761616
0.026399999114801176,0.005379464477300644,0.0002672226110007614
0.02680000034160912,0.005379248410463333,0.0002737299364525825
0.02719999974942766,0.005379026755690575,0.00028023667982779443
0.027599999157246202,0.005378799978643656,0.0002867428120225668
0.028000000384054147,0.0053785680793225765,0.0002932483912445605
0.028399999791872688,0.00537833059206605,0.0002997533301822841
0.02879999919969123,0.0053780884481966496,0.0003062576870433986
0.029200000426499173,0.005377840716391802,0.00031276143272407353
0.029599999834317714,0.005377587862312794,0.0003192645381204784
0.029999999242136255,0.008068419992923737,0.0003258218930568546
0.0304000004689442,0.010759244672954082,0.0003387925971765071
0.030800001695752144,0.010758968070149422,0.0003518172015901655
0.031200001103570685,0.01075868122279644,0.00036484081647358835
0.031600000511389226,0.010758384130895138,0.0003778634709306061
0.03199999991920777,0.010758076794445515,0.0003908851067535579
0.03239999932702631,0.01075775921344757,0.0004039057530462742
0.03279999873484485,0.010757430456578732,0.000416925351601094
0.0332000017806422,0.010757091455161572,0.00042994393152184784
0.03360000118846074,0.01075674220919609,0.00044296146370470524
0.03400000059627928,0.010756382718682289,0.00045597791904583573
0.03440000000409782,0.010756012983620167,0.0004689933266490698
0.03479999941191636,0.010755633004009724,0.0004820076283067465
0.0351999988197349,0.010755241848528385,0.0004950208240188658
0.03559999822755344,0.010754840448498726,0.0005080329137854278
0.03600000127335079,0.010754428803920746,0.0005210438976064324
0.03640000068116933,0.010754006914794445,0.0005340537754818797
0.03680000008898787,0.010753574781119823,0.0005470624309964478
0.03719999949680641,0.010753131471574306,0.0005600699805654585
0.037599998904624954,0.010752677917480469,0.0005730763077735901
0.037999998312443495,0.010752215050160885,0.0005860814708285034
0.03840000135824084,0.010751741006970406,0.0005990854697301984
0.038800000766059384,0.010751255787909031,0.0006120882462710142
0.039200000173877925,0.01075076125562191,0.00062508974224329
0.039599999581696466,0.010750255547463894,0.0006380900740623474
0.03999999898951501,0.010749740526080132,0.0006510891253128648
0.04039999839733355,0.010749214328825474,0.000664086895994842
0.040800001443130895,0.010748677887022495,0.0006770834443159401
0.041200000850949436,0.010748131200671196,0.0006900786538608372
0.04160000025876798,0.010747574269771576,0.0007030725828371942
0.04199999966658652,0.01074700616300106,0.0007160651730373502
0.04239999907440506,0.010746427811682224,0.0007290564826689661
0.0427999984822236,0.010745840147137642,0.0007420464535243809
0.04320000152802095,0.010745241306722164,0.0007550350273959339
0.04360000093583949,0.010744631290435791,0.0007680223206989467
0.04400000034365803,0.010744011960923672,0.0007810081588104367
0.04439999975147657,0.010743382386863232,0.0007939926581457257
0.04479999915929511,0.010742741636931896,0.0008069757022894919
0.04519999856711365,0.01074209064245224,0.000819957407657057
0.045600001612911,0.010741429403424263,0.0008329376578330994
0.04600000102072954,0.010740757919847965,0.0008459164528176188
0.04640000042854808,0.010740076191723347,0.0008588937926106155
0.046799999836366624,0.010739384219050407,0.0008718697354197502
0.047199999244185165,0.010738681070506573,0.0008848441066220403
0.047599998652003706,0.010737968608736992,0.0008978170808404684
0.048000001697801054,0.010737244971096516,0.0009107884834520519
0.048400001105619594,0.010736511088907719,0.0009237584308721125
0.048800000513438135,0.010735766962170601,0.0009367268066853285
0.049199999921256676,0.010735012590885162,0.0009496936690993607
0.04959999932907522,0.010734247043728828,0.0009626590181142092
0.04999999873689376,0.013429688289761543,0.0009756778599694371
0.050400001782691106,0.016125116497278214,0.0009951210813596845
0.05080000119050965,0.016124311834573746,0.0010146175045520067
0.05120000059832819,0.016123492270708084,0.001034111948683858
0.05160000000614673,0.01612265780568123,0.001053604413755238
0.05199999941396527,0.01612180657684803,0.001073095016181469
0.05239999882178381,0.016120940446853638,0.001092583523131907
0.05279999822960235,0.01612005941569805,0.001112070051021874
0.0532000012753997,0.016119161620736122,0.0011315545998513699
0.05360000068321824,0.016118248924613,0.0011510370532050729
0.05400000009103678,0.016117319464683533,0.0011705175274983048
0.05439999949885532,0.016116375103592873,0.001189995906315744
0.054799998906673864,0.01611541584134102,0.0012094720732420683
0.055199998314492404,0.01611443981528282,0.0012289462611079216
0.05560000136028975,0.01611344888806343,0.0012484182370826602
0.05600000076810829,0.016112443059682846,0.001267888117581606
0.056400000175926834,0.01611142046749592,0.001287355786189437
0.056799999583745375,0.016110382974147797,0.0013068212429061532
0.057199998991563916,0.016109328716993332,0.0013262844877317548
0.05759999839938246,0.016108261421322823,0.0013457455206662416
0.058000001445179805,0.01610717549920082,0.0013652043417096138
0.058400000852998346,0.016106076538562775,0.0013846608344465494
0.05880000026081689,0.016104960814118385,0.0014041151152923703
0.05919999966863543,0.016103830188512802,0.0014235670678317547
0.05959999907645397,0.016102682799100876,0.0014430166920647025
0.05999999848427251,0.016101520508527756,0.001462463871575892
0.06040000153006986,0.016100343316793442,0.001481908722780645
0.0608000009378884,0.016099149361252785,0.0015013512456789613
0.06120000034570694,0.016097940504550934,0.0015207914402708411
0.06160000339150429,0.01609671674668789,0.0015402291901409626
0.06199999916134402,0.0160954762250185,0.0015596643788740039
0.06240000220714137,0.01609422080218792,0.0015790972393006086
0.0627999979769811,0.016092950478196144,0.0015985275385901332
0.06320000102277845,0.016091663390398026,0.0016179553931578994
0.06359999679261819,0.016090361401438713,0.0016373808030039072
0.06399999983841553,0.016089042648673058,0.001656803535297513
0.06440000288421288,0.016087710857391357,0.0016762238228693604
0.06479999865405262,0.016086360439658165,0.0016956415493041277
0.06520000169984996,0.016084996983408928,0.001715056598186493
0.0655999974696897,0.016083616763353348,0.0017344692023470998
0.06600000051548705,0.016082221642136574,0.0017538790125399828
0.0664000035612844,0.016080811619758606,0.0017732862615957856
0.06679999933112413,0.016079384833574295,0.0017926908330991864
0.06720000237692147,0.01607794314622879,0.0018120927270501852
0.06759999814676121,0.016076484695076942,0.001831491943448782
0.06800000119255856,0.01607501320540905,0.0018508884822949767
0.06839999696239829,0.016073523089289665,0.0018702822271734476
0.06880000000819564,0.016072019934654236,0.0018896731780841947
0.06920000305399299,0.016070500016212463,0.0019090614514425397
0.06959999882383272,0.016068965196609497,0.001928446814417839
0.07000000186963007,0.018765181303024292,0.0019478846807032824
0.0703999976394698,0.021461378782987595,0.0019737491384148598
0.07080000068526715,0.02145978808403015,0.0019996657501906157
0.07119999645510688,0.021458178758621216,0.0020255788695067167
0.07159999950090423,0.02145654708147049,0.0020514889620244503
0.07200000254670158,0.02145489677786827,0.0020773957949131727
0.07239999831654131,0.02145322412252426,0.002103299368172884
0.07280000136233866,0.02145153097808361,0.002129199681803584
0.0731999971321784,0.021449817344546318,0.002155096735805273
0.07360000017797574,0.021448083221912384,0.002180990297347307
0.07400000322377309,0.02144632674753666,0.00220688059926033
0.07439999899361283,0.021444551646709442,0.0022327674087136984
0.07480000203941017,0.021442754194140434,0.0022586509585380554
0.07519999780924991,0.021440938115119934,0.002284530783072114
0.07560000085504726,0.021439099684357643,0.0023104073479771614
0.07599999662488699,0.02143724076449871,0.002336280420422554
0.07639999967068434,0.021435361355543137,0.002362149767577648
0.07680000271648169,0.02143346145749092,0.002388015855103731
0.07719999848632142,0.021431541070342064,0.0024138782173395157
0.07760000153211877,0.021429600194096565,0.0024397370871156454
0.0779999973019585,0.021427636966109276,0.0024655922316014767
0.07840000034775585,0.021425655111670494,0.0024914436507970095
0.0788000033935532,0.02142365090548992,0.0025172915775328875
0.07919999916339293,0.021421626210212708,0.002543135778978467
0.07960000220919028,0.021419582888484,0.0025689760223031044
0.07999999797903001,0.021417517215013504,0.002594812773168087
0.08040000102482736,0.021415431052446365,0.002620645798742771
0.0807999967946671,0.021413324400782585,0.002646474866196513
0.08119999984046444,0.021411197260022163,0.0026723002083599567
0.08160000288626179,0.02140904776751995,0.002698121592402458
0.08199999865610152,0.021406879648566246,0.002723939251154661
0.08240000170189887,0.0214046910405159,0.002749752951785922
0.0827999974717386,0.021402480080723763,0.002775562694296241
0.08320000051753595,0.021400248631834984,0.0028013684786856174
0.0836000035633333,0.021397998556494713,0.0028271705377846956
0.08399999933317304,0.02139572612941265,0.002852968405932188
0.08440000237897038,0.021393433213233948,0.0028787623159587383
0.08479999814881012,0.021391119807958603,0.002904552035033703
0.08520000119460747,0.021388785913586617,0.0029303377959877253
0.0855999969644472,0.02138643153011799,0.0029561195988208055
0.08600000001024455,0.02138405665755272,0.0029818969778716564
0.0864000030560419,0.02138165943324566,0.003007670398801565
0.08679999882588163,0.021379243582487106,0.003033439628779888
0.08720000187167898,0.021376807242631912,0.003059204900637269
0.08759999764151871,0.021374348551034927,0.0030849657487124205
0.08800000068731606,0.02137187123298645,0.0031107221730053425
0.0883999964571558,0.021369371563196182,0.0031364746391773224
0.08879999950295314,0.021366853266954422,0.003162222681567073
0.08920000254875049,0.02136431261897087,0.003187966300174594
0.08959999831859022,0.02136175148189068,0.003213705727830529
0.09000000136438757,0.024058783426880836,0.003239495912566781
0.0903999971342273,0.026755793020129204,0.0032717157155275345
0.09080000018002465,0.02675316296517849,0.003303986042737961
0.091200003225822,0.026750506833195686,0.0033362514805048704
0.09159999899566174,0.026747824624180794,0.003368512261658907
0.09200000204145908,0.026745116338133812,0.0034007681533694267
0.09239999781129882,0.02674238383769989,0.00343301915563643
0.09280000085709617,0.02673962339758873,0.003465265268459916
0.0931999966269359,0.02673683874309063,0.0034975064918398857
0.09359999967273325,0.02673402801156044,0.003529742592945695
0.0940000027185306,0.02673119120299816,0.0035619738046079874
0.09439999848837033,0.026728328317403793,0.003594200126826763
0.09480000153416768,0.026725441217422485,0.0036264213267713785
0.09519999730400741,0.02672252617776394,0.0036586374044418335
0.09560000034980476,0.026719586923718452,0.003690848359838128
0.09600000339560211,0.026716621592640877,0.0037230541929602623
0.09639999916544184,0.026713630184531212,0.003755254903808236
0.09680000221123919,0.026710612699389458,0.0037874504923820496
0.09719999798107892,0.026707570999860764,0.003819640725851059
0.09760000102687627,0.02670450136065483,0.0038518256042152643
0.097999996796716,0.02670140750706196,0.0038840053603053093
0.09839999984251335,0.026698287576436996,0.00391617976129055
0.0988000028883107,0.026695141568779945,0.0039483485743403435
0.09919999865815043,0.026691969484090805,0.003980512265115976
0.09960000170394778,0.026688773185014725,0.0040126703679561615
0.09999999747378752,0.026685548946261406,0.004044823348522186
0.10040000051958486,0.026682300493121147,0.004076970741152763
0.10080000356538221,0.0266790259629488,0.004109112545847893
0.10119999933522195,0.026675725355744362,0.0041412487626075745
0.1016000023810193,0.026672400534152985,0.0041733793914318085
0.10199999815085903,0.02666904777288437,0.004205504432320595
0.10240000119665638,0.026665670797228813,0.004237623419612646
0.10279999696649611,0.026662267744541168,0.004269737284630537
0.10320000001229346,0.026658838614821434,0.00430184556171298
0.1036000030580908,0.02665538527071476,0.0043339477851986885
0.10399999882793054,0.026651905849575996,0.004366044420748949
0.10440000187372789,0.026648400351405144,0.004398135002702475
0.10479999764356762,0.026644868776202202,0.0044302199967205524
0.10520000068936497,0.02664131112396717,0.004462298937141895
0.1055999964592047,0.0266377292573452,0.0044943722896277905
0.10599999950500205,0.02663411945104599,0.004526439588516951
0.1064000025507994,0.02663048543035984,0.004558500833809376
0.10679999832063913,0.02662682719528675,0.004590556025505066
0.10720000136643648,0.026623141020536423,0.004622605629265308
0.10759999713627622,0.026619430631399155,0.0046546487137675285
0.10800000018207356,0.026615694165229797,0.004686686210334301
0.10840000322787091,0.02661193162202835,0.004718717187643051
0.10879999899771065,0.026608143001794815,0.004750742111355066
0.109200002043508,0.02660433016717434,0.0047827609814703465
0.10959999781334773,0.026600491255521774,0.004814773797988892
0.11000000085914508,0.02930130623281002,0.004846835974603891
0.11039999662898481,0.03200209513306618,0.0048853373154997826
0.11079999967478216,0.0319981686770916,0.004923887550830841
0.1112000027205795,0.03199421614408493,0.00496243080124259
0.11159999849041924,0.031990230083465576,0.005000967998057604
0.11200000153621659,0.031986214220523834,0.005039498209953308
0.11239999730605632,0.031982168555259705,0.005078021436929703
0.11280000035185367,0.03197808936238289,0.005116538144648075
0.11320000339765102,0.031973980367183685,0.005155047867447138
0.11359999916749075,0.031969841569662094,0.005193551070988178
0.1140000022132881,0.03196566924452782,0.005232047289609909
0.11439999798312783,0.03196147084236145,0.005270536057651043
0.11480000102892518,0.0319572389125824,0.0053090183064341545
0.11519999679876491,0.03195297718048096,0.0053474935702979565
0.11559999984456226,0.03194868192076683,0.0053859613835811615
0.11600000289035961,0.031944356858730316,0.005424422677606344
0.11639999866019934,0.031940001994371414,0.00546287652105093
0.11680000170599669,0.031935617327690125,0.005501322913914919
0.11719999747583643,0.03193119913339615,0.0055397627875208855
0.11760000052163377,0.031926754862070084,0.005578194744884968
0.11800000356743112,0.03192227706313133,0.0056166197173297405
0.11839999933727086,0.031917765736579895,0.005655037704855204
0.1188000023830682,0.03191322833299637,0.0056934477761387825
0.11919999815290794,0.031908657401800156,0.005731850862503052
0.11960000119870529,0.031904056668281555,0.005770246498286724
0.11999999696854502,0.03189942613244057,0.005808634217828512
0.12040000001434237,0.03189476206898689,0.005847014952450991
0.12080000306013972,0.03189007192850113,0.005885387770831585
0.12119999882997945,0.03188534826040268,0.005923753138631582
0.1216000018757768,0.031880591064691544,0.005962111055850983
0.12199999764561653,0.03187580779194832,0.006000461522489786
0.12240000069141388,0.03187099099159241,0.006038804072886705
0.12280000373721123,0.03186614438891411,0.00607713870704174
0.12320000678300858,0.03186126798391342,0.0061154658906161785
0.1235999952768907,0.03185636177659035,0.006153785157948732
0.12399999832268804,0.03185142204165459,0.006192096974700689
0.12440000136848539,0.03184645250439644,0.006230400409549475
0.12480000441428274,0.0318414531648159,0.006268695928156376
0.12519999290816486,0.03183642402291298,0.00630698399618268
0.1255999959539622,0.03183136135339737,0.006345263682305813
0.12599999899975955,0.03182627260684967,0.006383535452187061
0.1264000020455569,0.031821150332689285,0.0064217993058264256
0.12680000509135425,0.03181599825620651,0.0064600552432239056
0.12719999358523637,0.03181081265211105,0.006498302798718214
0.12759999663103372,0.031805600970983505,0.006536541972309351
0.12799999967683107,0.03180035576224327,0.006574773229658604
0.12840000272262841,0.03179508075118065,0.006612996105104685
0.12880000576842576,0.03178977221250534,0.006651211064308882
0.12919999426230788,0.03178443759679794,0.00668941717594862
0.12959999730810523,0.03177906945347786,0.006727615371346474
0.13000000035390258,0.034478116780519485,0.006765860598534346
0.13040000339969993,0.03717712685465813,0.0068105426616966724
0.13080000644549727,0.037171658128499985,0.006855270825326443
0.1311999949393794,0.037166155874729156,0.0068999906070530415
0.13159999798517674,0.03716062009334564,0.006944701541215181
0.1320000010309741,0.03715504705905914,0.006989403627812862
0.13240000407677144,0.03714943677186966,0.007034096866846085
0.1328000071225688,0.03714379295706749,0.007078780792653561
