time[s],iL[A],v out[V]
0.0,0.0,0.0
0.00040000000467443897,0.0677042081952095,3.472574462648481e-05
0.0008000000093488779,0.1477041393518448,0.00016527180559933186
0.0012000000424450263,0.22770391404628754,0.00039277871837839484
0.0016000000186977559,0.30770349502563477,0.0007172415498644114
0.0019999999949504854,0.38770273327827454,0.0011386553524062037
0.0024000000848900527,0.46770164370536804,0.001657014829106629
0.0027999999474559445,0.547700047492981,0.00227231509052217
0.0032000000373955118,0.6276979446411133,0.0029845505487173796
0.0035999998999614036,0.7076952457427979,0.003793715965002775
0.003999999989900971,0.7876918911933899,0.004699805751442909
0.004399999852466863,0.8676877021789551,0.00570281408727169
0.004800000169780105,0.9476827383041382,0.0068027363158762455
0.005200000032345997,1.0276768207550049,0.007999565452337265
0.005599999894911889,1.1076699495315552,0.009293296374380589
0.006000000212225132,1.18766188621521,0.010683923028409481
0.0064000000747910235,1.2676527500152588,0.01217143889516592
0.006799999937356915,1.347642421722412,0.013755837455391884
0.007199999799922807,1.4276307821273804,0.015437114052474499
0.00760000011723605,1.507617712020874,0.017215261235833168
0.007999999979801942,1.587603211402893,0.01909027434885502
0.008400000297115184,1.667587161064148,0.02106214314699173
0.008799999704933725,1.7475694417953491,0.023130863904953003
0.009200000022246968,1.8275500535964966,0.02529643103480339
0.00960000033956021,1.9075289964675903,0.027558833360671997
0.009999999747378752,1.9875059127807617,0.029918069019913673
0.010400000064691994,2.06748104095459,0.032374124974012375
0.010800000382005237,2.147454023361206,0.03492700308561325
0.011199999789823778,2.2274250984191895,0.03757668659090996
0.01160000010713702,2.307394027709961,0.040323175489902496
0.012000000424450263,2.3873605728149414,0.04316645488142967
0.012399999832268804,2.46732497215271,0.046106524765491486
0.012800000149582047,2.5472867488861084,0.04914337769150734
0.013199999557400588,2.627246141433716,0.05227699875831604
0.01359999987471383,2.7072031497955322,0.05550738796591759
0.014000000192027073,2.7871572971343994,0.05883453041315079
0.014399999599845614,2.8671090602874756,0.06225842237472534
0.014799999917158857,2.9470577239990234,0.06577906012535095
0.0152000002344721,3.027003765106201,0.06939642876386642
0.015600000551785342,3.1069467067718506,0.07311051338911057
0.015999999959603883,3.186886787414551,0.07692132145166397
0.016399999367422424,3.2668235301971436,0.08082883805036545
0.01680000059423037,3.346757411956787,0.0848330557346344
0.01720000000204891,3.4266879558563232,0.08893395960330963
0.01759999940986745,3.506614923477173,0.09313154965639114
0.018000000636675395,3.586538791656494,0.09742581099271774
0.018400000044493936,3.666459083557129,0.10181674361228943
0.018799999452312477,3.746375799179077,0.10630432516336441
0.01920000067912042,3.826288938522339,0.11088855564594269
0.019600000086938962,3.906198501586914,0.11556942015886307
0.019999999494757503,3.9738082885742188,0.12034577131271362
0.020400000721565448,3.973710060119629,0.1251564919948578
0.02080000012938399,3.9736080169677734,0.1299668699502945
0.02119999953720253,4.043999671936035,0.1348145306110382
0.021600000764010474,4.123889923095703,0.13975811004638672
0.022000000171829015,4.2037763595581055,0.14479829370975494
0.022399999579647556,4.283658504486084,0.1499350368976593
0.0228000008064555,4.363536357879639,0.15516836941242218
0.02320000021427404,4.4434099197387695,0.1604982614517212
0.023599999622092582,4.523279666900635,0.16592471301555634
0.024000000848900527,4.603144645690918,0.17144769430160522
0.024400000256719068,4.683004856109619,0.17706722021102905
0.02479999966453761,4.762861251831055,0.18278326094150543
0.025200000891345553,4.84271240234375,0.18859581649303436
0.025600000299164094,4.9225592613220215,0.19450487196445465
0.025999999706982635,5.002401351928711,0.2005104273557663
0.026399999114801176,5.082238674163818,0.2066124677658081
0.02680000034160912,5.1620707511901855,0.2128109633922577
0.02719999974942766,5.241898059844971,0.21910592913627625
0.027599999157246202,5.321720123291016,0.22549735009670258
0.028000000384054147,5.4015374183654785,0.2319852113723755
0.028399999791872688,5.481348991394043,0.2385694831609726
0.02879999919969123,5.561155319213867,0.2452501803636551
0.029200000426499173,5.640956401824951,0.252027302980423
0.029599999834317714,5.720752239227295,0.25890079140663147
0.029999999242136255,5.80054235458374,0.2658706605434418
0.0304000004689442,5.880326747894287,0.27293694019317627
0.030800001695752144,5.9601054191589355,0.2800995409488678
0.031200001103570685,6.0398783683776855,0.28735849261283875
0.031600000511389226,6.119645595550537,0.2947137951850891
0.03199999991920777,6.19940710067749,0.3021654188632965
0.03239999932702631,6.279162406921387,0.30971336364746094
0.03279999873484485,6.358911514282227,0.31735759973526
0.0332000017806422,6.43865442276001,0.3250981271266937
0.03360000118846074,6.518391132354736,0.3329349160194397
0.03400000059627928,6.598121643066406,0.3408679962158203
0.03440000000409782,6.6778459548950195,0.3488973081111908
0.03479999941191636,6.757563591003418,0.35702288150787354
0.0351999988197349,6.837274551391602,0.36524465680122375
0.03559999822755344,6.91697883605957,0.37356266379356384
0.03600000127335079,6.996676921844482,0.3819768726825714
0.03640000068116933,7.0763678550720215,0.3904872536659241
0.03680000008898787,7.156052112579346,0.3990938365459442
0.03719999949680641,7.235729217529297,0.40779656171798706
0.037599998904624954,7.315399646759033,0.416595458984375
0.037999998312443495,7.3950629234313965,0.42549046874046326
0.03840000135824084,7.4747185707092285,0.4344816207885742
0.038800000766059384,7.554367542266846,0.4435688555240631
0.039200000173877925,7.62450647354126,0.4527515172958374
0.039599999581696466,7.624140739440918,0.4619709551334381
0.03999999898951501,7.623767375946045,0.4711894989013672
0.04039999839733355,7.623386859893799,0.48040711879730225
0.040800001443130895,7.6229987144470215,0.4896238446235657
0.041200000850949436,7.622603416442871,0.4988396465778351
0.04160000025876798,7.6222004890441895,0.5080544948577881
0.04199999966658652,7.621790409088135,0.5172684192657471
0.04239999907440506,7.621373176574707,0.5264813899993896
0.0427999984822236,7.620948314666748,0.5356934666633606
0.04320000152802095,7.620515823364258,0.5449044704437256
0.04360000093583949,7.698697566986084,0.5541614294052124
0.04400000034365803,7.778250694274902,0.5635142922401428
0.04439999975147657,7.8577961921691895,0.5729631185531616
0.04479999915929511,7.937334060668945,0.5825079083442688
0.04519999856711365,8.016863822937012,0.5921486616134644
0.045600001612911,8.096386909484863,0.6018853187561035
0.04600000102072954,8.175901412963867,0.6117178797721863
0.04640000042854808,8.255407333374023,0.6216463446617126
0.046799999836366624,8.334906578063965,0.6316707134246826
0.047199999244185165,8.414397239685059,0.6417909264564514
0.047599998652003706,8.493879318237305,0.652006983757019
0.048000001697801054,8.57335376739502,0.6623189449310303
0.048400001105619594,8.652819633483887,0.6727266907691956
0.048800000513438135,8.732276916503906,0.6832302212715149
0.049199999921256676,8.811726570129395,0.6938295364379883
0.04959999932907522,8.891167640686035,0.7045246958732605
0.04999999873689376,8.970599174499512,0.715315580368042
0.050400001782691106,9.050023078918457,0.7262022495269775
0.05080000119050965,9.129437446594238,0.7371845841407776
0.05120000059832819,9.208843231201172,0.7482627034187317
0.05160000000614673,9.288240432739258,0.7594364881515503
0.05199999941396527,9.36762809753418,0.7707059979438782
0.05239999882178381,9.447007179260254,0.7820711731910706
0.05279999822960235,9.526376724243164,0.7935320138931274
0.0532000012753997,9.605737686157227,0.805088460445404
0.05360000068321824,9.685088157653809,0.8167405724525452
0.05400000009103678,9.764430046081543,0.828488290309906
0.05439999949885532,9.84376335144043,0.8403315544128418
0.054799998906673864,9.923086166381836,0.8522704243659973
0.055199998314492404,10.002399444580078,0.8643049001693726
0.05560000136028975,10.081703186035156,0.876434862613678
0.05600000076810829,10.16099739074707,0.8886603713035583
0.056400000175926834,10.240281105041504,0.9009814262390137
0.056799999583745375,10.318177223205566,0.9133979082107544
0.057199998991563916,10.3174409866333,0.9258597493171692
0.05759999839938246,10.316695213317871,0.9383201003074646
0.058000001445179805,10.315939903259277,0.9507789611816406
0.058400000852998346,10.315174102783203,0.9632362723350525
0.05880000026081689,10.314398765563965,0.9756920337677002
0.05919999966863543,10.313612937927246,0.9881462454795837
0.05959999907645397,10.312817573547363,1.0005989074707031
0.05999999848427251,10.31201171875,1.0130499601364136
0.06040000153006986,10.311196327209473,1.0254994630813599
0.0608000009378884,10.310370445251465,1.0379472970962524
0.06120000034570694,10.30953598022461,1.0503935813903809
0.06160000339150429,10.308690071105957,1.0628383159637451
0.06199999916134402,10.30783462524414,1.0752813816070557
0.06240000220714137,10.30696964263916,1.0877227783203125
0.0627999979769811,10.306095123291016,1.1001625061035156
0.06320000102277845,10.305209159851074,1.112600564956665
0.06359999679261819,10.304314613342285,1.1250368356704712
0.06399999983841553,10.303409576416016,1.1374715566635132
0.06440000288421288,10.302495002746582,1.149904489517212
0.06479999865405262,10.301569938659668,1.162335753440857
0.06520000169984996,10.300634384155273,1.1747653484344482
0.0655999974696897,10.299690246582031,1.1871931552886963
0.06600000051548705,10.298735618591309,1.199619174003601
0.0664000035612844,10.297770500183105,1.2120434045791626
0.06679999933112413,10.296795845031738,1.2244659662246704
0.06720000237692147,10.309185028076172,1.2368879318237305
0.06759999814676121,10.388190269470215,1.2493715286254883
0.06800000119255856,10.467185974121094,1.2619502544403076
0.06839999696239829,10.546171188354492,1.274624228477478
0.06880000000819564,10.62514591217041,1.2873932123184204
0.06920000305399299,10.704111099243164,1.3002572059631348
0.06959999882383272,10.783065795898438,1.3132164478302002
0.07000000186963007,10.86201000213623,1.3262706995010376
0.0703999976394698,10.940943717956543,1.339419960975647
0.07080000068526715,11.019866943359375,1.3526642322540283
0.07119999645510688,11.098779678344727,1.3660036325454712
0.07159999950090423,11.177680969238281,1.3794379234313965
0.07200000254670158,11.256571769714355,1.3929672241210938
0.07239999831654131,11.33545207977295,1.406591534614563
0.07280000136233866,11.414321899414062,1.4203107357025146
0.0731999971321784,11.426552772521973,1.4340912103652954
0.07360000017797574,11.425399780273438,1.4478710889816284
0.07400000322377309,11.424236297607422,1.4616488218307495
0.07439999899361283,11.42306137084961,1.4754244089126587
0.07480000203941017,11.421875953674316,1.4891979694366455
0.07519999780924991,11.420679092407227,1.5029693841934204
0.07560000085504726,11.41947078704834,1.516738772392273
0.07599999662488699,11.418251991271973,1.530505895614624
0.07639999967068434,11.417021751403809,1.5442708730697632
0.07680000271648169,11.415781021118164,1.55803382396698
0.07719999848632142,11.414528846740723,1.5717945098876953
0.07760000153211877,11.4132661819458,1.5855529308319092
0.0779999973019585,11.411992073059082,1.5993092060089111
0.07840000034775585,11.410707473754883,1.6130633354187012
0.0788000033935532,11.409411430358887,1.6268150806427002
0.07919999916339293,11.40810489654541,1.6405646800994873
0.07960000220919028,11.406786918640137,1.654312014579773
0.07999999797903001,11.405457496643066,1.6680570840835571
0.08040000102482736,11.404117584228516,1.6817998886108398
0.0807999967946671,11.402766227722168,1.6955403089523315
0.08119999984046444,11.40140438079834,1.7092784643173218
0.08160000288626179,11.400032043457031,1.7230143547058105
0.08199999865610152,11.398648262023926,1.7367478609085083
0.08240000170189887,11.397253036499023,1.750478982925415
0.0827999974717386,11.39584732055664,1.7642078399658203
0.08320000051753595,11.394430160522461,1.777934193611145
0.0836000035633333,11.3930025100708,1.7916582822799683
0.08399999933317304,11.391563415527344,1.805379867553711
0.08440000237897038,11.390113830566406,1.8190990686416626
0.08479999814881012,11.388652801513672,1.8328158855438232
0.08520000119460747,11.387181282043457,1.8465301990509033
0.0855999969644472,11.385698318481445,1.8602421283721924
0.08600000001024455,11.384204864501953,1.8739515542984009
0.0864000030560419,11.382699966430664,1.8876584768295288
0.08679999882588163,11.381184577941895,1.9013628959655762
0.08720000187167898,11.379657745361328,1.915064811706543
0.08759999764151871,11.378120422363281,1.9287642240524292
0.08800000068731606,11.376571655273438,1.9424611330032349
0.0883999964571558,11.375012397766113,1.9561554193496704
0.08879999950295314,11.40103816986084,1.9698530435562134
0.08920000254875049,11.479456901550293,1.9836241006851196
0.08959999831859022,11.55786418914795,1.99748957157135
0.09000000136438757,11.636260032653809,2.0114495754241943
0.0903999971342273,11.714645385742188,2.025503635406494
0.09080000018002465,11.79301929473877,2.039652109146118
0.091200003225822,11.871381759643555,2.0538949966430664
0.09159999899566174,11.897329330444336,2.068211317062378
0.09200000204145908,11.895668983459473,2.0825307369232178
0.09239999781129882,11.893997192382812,2.0968472957611084
0.09280000085709617,11.892313957214355,2.111161231994629
0.0931999966269359,11.890619277954102,2.1254725456237793
0.09359999967273325,11.88891315460205,2.1397809982299805
0.0940000027185306,11.887195587158203,2.1540865898132324
0.09439999848837033,11.885466575622559,2.1683895587921143
0.09480000153416768,11.883726119995117,2.182689666748047
0.09519999730400741,11.881974220275879,2.1969869136810303
0.09560000034980476,11.880210876464844,2.2112812995910645
0.09600000339560211,11.878436088562012,2.2255730628967285
0.09639999916544184,11.876649856567383,2.2398617267608643
0.09680000221123919,11.874852180480957,2.254147529602051
0.09719999798107892,11.873043060302734,2.268430709838867
0.09760000102687627,11.871222496032715,2.2827107906341553
0.097999996796716,11.869391441345215,2.296988010406494
0.09839999984251335,11.867547988891602,2.311262369155884
0.0988000028883107,11.865693092346191,2.325533628463745
0.09919999865815043,11.863826751708984,2.3398020267486572
0.09960000170394778,11.86194896697998,2.35406756401062
0.09999999747378752,11.860060691833496,2.3683300018310547
0.10040000051958486,11.858160018920898,2.38258957862854
0.10080000356538221,11.85624885559082,2.396846055984497
0.10119999933522195,11.854325294494629,2.411099433898926
0.1016000023810193,11.852391242980957,2.4253499507904053
0.10199999815085903,11.850444793701172,2.4395973682403564
0.10240000119665638,11.848487854003906,2.4538416862487793
0.10279999696649611,11.846518516540527,2.468083143234253
0.10320000001229346,11.844538688659668,2.482321262359619
0.1036000030580908,11.842547416687012,2.496556282043457
0.10399999882793054,11.840543746948242,2.5107884407043457
0.10440000187372789,11.838529586791992,2.525017261505127
0.10479999764356762,11.836503982543945,2.53924298286438
0.10520000068936497,11.834466934204102,2.5534656047821045
0.1055999964592047,11.832418441772461,2.5676848888397217
0.10599999950500205,11.830358505249023,2.5819013118743896
0.1064000025507994,11.828287124633789,2.596114158630371
0.10679999832063913,11.826205253601074,2.6103241443634033
0.10720000136643648,11.824110984802246,2.624530792236328
0.10759999713627622,11.822005271911621,2.6387341022491455
0.10800000018207356,11.819889068603516,2.6529343128204346
0.10840000322787091,11.817760467529297,2.667131185531616
0.10879999899771065,11.815621376037598,2.6813247203826904
0.109200002043508,11.844083786010742,2.6955220699310303
0.10959999781334773,11.921921730041504,2.709794759750366
0.11000000085914508,11.999748229980469,2.72416090965271
0.11039999662898481,12.077563285827637,2.7386207580566406
0.11079999967478216,12.155365943908691,2.753174304962158
0.1112000027205795,12.183771133422852,2.7678029537200928
0.11159999849041924,12.181550979614258,2.782435178756714
0.11200000153621659,12.17931842803955,2.7970640659332275
0.11239999730605632,12.177075386047363,2.811689615249634
0.11280000035185367,12.174819946289062,2.8263118267059326
0.11320000339765102,12.172553062438965,2.840930223464966
0.11359999916749075,12.17027473449707,2.8555455207824707
0.1140000022132881,12.167984008789062,2.87015700340271
0.11439999798312783,12.165682792663574,2.884765148162842
0.11480000102892518,12.163368225097656,2.899369955062866
0.11519999679876491,12.161043167114258,2.913970947265625
0.11559999984456226,12.158706665039062,2.9285686016082764
0.11600000289035961,12.156357765197754,2.943162679672241
0.11639999866019934,12.153997421264648,2.9577531814575195
0.11680000170599669,12.151625633239746,2.9723401069641113
0.11719999747583643,12.14924144744873,2.9869234561920166
0.11760000052163377,12.146845817565918,3.0015032291412354
0.11800000356743112,12.144438743591309,3.0160794258117676
0.11839999933727086,12.142020225524902,3.030651807785034
0.1188000023830682,12.1395902633667,3.0452206134796143
0.11919999815290794,12.137147903442383,3.059785842895508
0.11960000119870529,12.13469409942627,3.0743472576141357
0.11999999696854502,12.13222885131836,3.088905096054077
0.12040000001434237,12.129752159118652,3.103459119796753
0.12080000306013972,12.127263069152832,3.118009567260742
0.12119999882997945,12.124763488769531,3.132556200027466
0.1216000018757768,12.122251510620117,3.147099256515503
0.12199999764561653,12.119728088378906,3.1616382598876953
0.12240000069141388,12.117192268371582,3.176173686981201
0.12280000373721123,12.114645957946777,3.1907052993774414
0.12320000678300858,12.11208724975586,3.205233097076416
0.1235999952768907,12.109517097473145,3.219757318496704
0.12399999832268804,12.106935501098633,3.2342774868011475
0.12440000136848539,12.104342460632324,3.248793840408325
0.12480000441428274,12.101737976074219,3.263306140899658
0.12519999290816486,12.09912109375,3.2778148651123047
0.1255999959539622,12.0964937210083,3.2923195362091064
0.12599999899975955,12.093853950500488,3.3068203926086426
0.1264000020455569,12.091202735900879,3.321317434310913
0.12680000509135425,12.088539123535156,3.335810422897339
0.12719999358523637,12.085865020751953,3.35029935836792
0.12759999663103372,12.083179473876953,3.3647844791412354
0.12799999967683107,12.08048152923584,3.379265785217285
0.12840000272262841,12.07777214050293,3.393742799758911
0.12880000576842576,12.075051307678223,3.4082159996032715
0.12919999426230788,12.072319030761719,3.422685146331787
0.12959999730810523,12.143381118774414,3.4371917247772217
0.13000000035390258,12.220624923706055,3.4517905712127686
0.13040000339969993,12.297858238220215,3.466482639312744
0.13080000644549727,12.368884086608887,3.481267213821411
0.1311999949393794,12.366093635559082,3.496088981628418
0.13159999798517674,12.363290786743164,3.51090669631958
0.1320000010309741,12.360475540161133,3.5257201194763184
0.13240000407677144,12.357649803161621,3.540529489517212
0.1328000071225688,12.35481071472168,3.5553348064422607
0.1331999956164509,12.351961135864258,3.5701358318328857
0.13359999866224825,12.349099159240723,3.584932804107666
0.1340000017080456,12.346224784851074,3.5997254848480225
0.13440000475384295,12.343338966369629,3.614513874053955
0.13479999324772507,12.340441703796387,3.629298210144043
0.13519999629352242,12.337532043457031,3.644078254699707
0.13559999933931977,12.334610939025879,3.6588540077209473
0.1360000023851171,12.33167839050293,3.6736254692077637
0.13640000543091446,12.328733444213867,3.6883926391601562
0.13679999392479658,12.325777053833008,3.703155517578125
0.13719999697059393,12.322808265686035,3.717914342880249
0.13760000001639128,12.319828033447266,3.73266863822937
0.13800000306218863,12.3168363571167,3.7474186420440674
