time[s],iL[A],v out[V]
0.0,0.0,0.0
0.00040000000467443897,0.0,0.0
0.0008000000093488779,0.0,0.0
0.0012000000424450263,0.0,0.0
0.0016000000186977559,0.0,0.0
0.0019999999949504854,0.0,0.0
0.0024000000848900527,0.0,0.0
0.0027999999474559445,0.0,0.0
0.0032000000373955118,0.0,0.0
0.0035999998999614036,0.010448516346514225,8.270550324596115e-07
0.003999999989900971,0.09044849872589111,6.197563197929412e-05
0.004399999852466863,0.1704483926296234,0.00022008853557053953
0.004800000169780105,0.2504481077194214,0.00047516089398413897
0.005200000032345997,0.33044761419296265,0.0008271877304650843
0.005599999894911889,0.41044676303863525,0.0012761640828102827
0.006000000212225132,0.4904455244541168,0.0018220847705379128
0.0064000000747910235,0.5704438090324402,0.0024649444967508316
0.006799999937356915,0.650441586971283,0.0032047380227595568
0.007199999799922807,0.7304386496543884,0.0040414598770439625
0.00760000011723605,0.8104350566864014,0.004975104704499245
0.007999999979801942,0.8904306888580322,0.006005666684359312
0.008400000297115184,0.9704254269599915,0.007133140228688717
0.008799999704933725,1.0504192113876343,0.008357519283890724
0.009200000022246968,1.1304121017456055,0.009678798727691174
0.00960000033956021,1.2104036808013916,0.011096972040832043
0.009999999747378752,1.2903943061828613,0.01261203270405531
0.010400000064691994,1.3703835010528564,0.014223975129425526
0.010800000382005237,1.450371503829956,0.01593279279768467
0.011199999789823778,1.5303579568862915,0.017738480120897293
0.01160000010713702,1.610343098640442,0.019641030579805374
0.012000000424450263,1.6903265714645386,0.021640434861183167
0.012399999832268804,1.7703083753585815,0.02373669110238552
0.012800000149582047,1.8502885103225708,0.025929788127541542
0.013199999557400588,1.9302668571472168,0.02821972221136093
0.01359999987471383,2.0102434158325195,0.030606484040617943
0.014000000192027073,2.0902178287506104,0.03309006989002228
0.014399999599845614,2.1701903343200684,0.03567046672105789
0.014799999917158857,2.2501606941223145,0.038347676396369934
0.0152000002344721,2.3301291465759277,0.04112168401479721
0.015600000551785342,2.410094976425171,0.043992482125759125
0.015999999959603883,2.490058660507202,0.04696006700396538
0.016399999367422424,2.5700197219848633,0.05002443119883537
0.01680000059423037,2.5804271697998047,0.05314892157912254
0.01720000000204891,2.58038330078125,0.05627403035759926
0.01759999940986745,2.5803370475769043,0.05939893797039986
0.018000000636675395,2.5802881717681885,0.06252363324165344
0.018400000044493936,2.5802369117736816,0.06564811617136002
0.018799999452312477,2.580183267593384,0.06877238303422928
0.01920000067912042,2.580127000808716,0.07189643383026123
0.019600000086938962,2.5800681114196777,0.07502026855945587
0.019999999494757503,2.5800068378448486,0.07814387232065201
0.020400000721565448,2.5799431800842285,0.08126725256443024
0.02080000012938399,2.5798768997192383,0.08439040184020996
0.02119999953720253,2.579807996749878,0.08751331269741058
0.021600000764010474,2.5797367095947266,0.0906359925866127
0.022000000171829015,2.579663038253784,0.09375843405723572
0.022399999579647556,2.5795867443084717,0.09688062965869904
0.0228000008064555,2.579508066177368,0.10000257939100266
0.02320000021427404,2.5794267654418945,0.10312428325414658
0.023599999622092582,2.57934308052063,0.1062457337975502
0.024000000848900527,2.579256772994995,0.10936693102121353
0.024400000256719068,2.6501071453094482,0.11252599209547043
0.02479999966453761,2.730015754699707,0.11578114330768585
0.025200000891345553,2.8099217414855957,0.11913298070430756
0.025600000299164094,2.8898251056671143,0.12258151918649673
0.025999999706982635,2.9697256088256836,0.1261267364025116
0.026399999114801176,3.0496232509613037,0.12976862490177155
0.02680000034160912,3.1295180320739746,0.13350717723369598
0.02719999974942766,3.209409713745117,0.13734237849712372
0.027599999157246202,3.2892982959747314,0.14127424359321594
0.028000000384054147,3.3691835403442383,0.14530272781848907
0.028399999791872688,3.449065685272217,0.1494278609752655
0.02879999919969123,3.528944492340088,0.15364961326122284
0.029200000426499173,3.6088197231292725,0.1579679697751999
0.029599999834317714,3.6886916160583496,0.16238294541835785
0.029999999242136255,3.7685599327087402,0.16689451038837433
0.0304000004689442,3.8484246730804443,0.17150266468524933
0.030800001695752144,3.928285598754883,0.17620739340782166
0.031200001103570685,4.008142471313477,0.18100868165493011
0.031600000511389226,4.087996006011963,0.1859065443277359
0.03199999991920777,4.167845249176025,0.19090095162391663
0.03239999932702631,4.247690677642822,0.1959919035434723
0.03279999873484485,4.327531814575195,0.2011793702840805
0.0332000017806422,4.4073686599731445,0.20646336674690247
0.03360000118846074,4.48720121383667,0.21184387803077698
0.03400000059627928,4.5670294761657715,0.21732088923454285
0.03440000000409782,4.646853446960449,0.22289438545703888
0.03479999941191636,4.726673126220703,0.22856436669826508
0.0351999988197349,4.806487560272217,0.23433081805706024
0.03559999822755344,4.886298179626465,0.24019373953342438
0.03600000127335079,4.957042694091797,0.24615247547626495
0.03640000068116933,4.956843376159668,0.2521488070487976
0.03680000008898787,4.956638813018799,0.2581446170806885
0.03719999949680641,4.956429958343506,0.264139860868454
0.037599998904624954,4.956216335296631,0.2701345980167389
0.037999998312443495,4.955997943878174,0.27612873911857605
0.03840000135824084,4.955774784088135,0.28212234377861023
0.038800000766059384,4.9555463790893555,0.28811538219451904
0.039200000173877925,4.955313682556152,0.2941078543663025
0.039599999581696466,4.955075740814209,0.30009976029396057
0.03999999898951501,4.954833507537842,0.3060910701751709
0.04039999839733355,4.954586029052734,0.31208178400993347
0.040800001443130895,4.954334259033203,0.3180719316005707
0.041200000850949436,4.954077243804932,0.32406145334243774
0.04160000025876798,4.953815460205078,0.33005037903785706
0.04199999966658652,4.953549385070801,0.3360387086868286
0.04239999907440506,4.953278064727783,0.34202641248703003
0.0427999984822236,4.953001976013184,0.3480134904384613
0.04320000152802095,4.952721118927002,0.35399994254112244
0.04360000093583949,4.952435493469238,0.35998573899269104
0.04400000034365803,4.952145099639893,0.3659709095954895
0.04439999975147657,4.951849937438965,0.3719554543495178
0.04479999915929511,4.951550006866455,0.3779393434524536
0.04519999856711365,5.013686656951904,0.3839521110057831
0.045600001612911,5.093377113342285,0.39005881547927856
0.04600000102072954,5.173062801361084,0.3962618410587311
0.04640000042854808,5.252743244171143,0.40256115794181824
0.046799999836366624,5.332418441772461,0.40895673632621765
0.047199999244185165,5.412088871002197,0.4154485762119293
0.047599998652003706,5.491753578186035,0.42203664779663086
0.048000001697801054,5.571413516998291,0.42872098088264465
0.048400001105619594,5.651067733764648,0.4355015456676483
0.048800000513438135,5.730716705322266,0.44237831234931946
0.049199999921256676,5.810359954833984,0.4493512809276581
0.04959999932907522,5.889997482299805,0.4564204514026642
0.04999999873689376,5.969629764556885,0.4635857939720154
0.050400001782691106,6.049255847930908,0.47084733843803406
0.05080000119050965,6.128876209259033,0.47820499539375305
0.05120000059832819,6.20849084854126,0.48565882444381714
0.05160000000614673,6.28809928894043,0.49320879578590393
0.05199999941396527,6.367701530456543,0.5008549094200134
0.05239999882178381,6.4472975730896,0.5085970759391785
0.05279999822960235,6.526887893676758,0.5164353847503662
0.0532000012753997,6.606471538543701,0.5243697762489319
0.05360000068321824,6.686048984527588,0.5324001908302307
0.05400000009103678,6.76561975479126,0.5405267477035522
0.05439999949885532,6.845183849334717,0.5487492680549622
0.054799998906673864,6.924741744995117,0.55706787109375
0.055199998314492404,6.986733913421631,0.5654801726341248
0.05560000136028975,6.986278057098389,0.5739210247993469
0.05600000076810829,6.985815525054932,0.5823609828948975
0.056400000175926834,6.98534631729126,0.590799868106842
0.056799999583745375,6.984870433807373,0.599237859249115
0.057199998991563916,6.984387397766113,0.607674777507782
0.05759999839938246,6.983898162841797,0.6161107420921326
0.058000001445179805,6.983401775360107,0.624545693397522
0.058400000852998346,6.982898712158203,0.6329796314239502
0.05880000026081689,6.982388973236084,0.6414125561714172
0.05919999966863543,6.98187255859375,0.6498444676399231
0.05959999907645397,6.981349468231201,0.658275306224823
0.05999999848427251,6.980819225311279,0.6667051315307617
0.06040000153006986,6.980282306671143,0.6751338839530945
0.0608000009378884,6.979739189147949,0.6835615634918213
0.06120000034570694,6.979188919067383,0.6919881701469421
0.06160000339150429,6.978631973266602,0.700413703918457
0.06199999916134402,6.9780683517456055,0.708838164806366
0.06240000220714137,6.977497577667236,0.7172614932060242
0.0627999979769811,6.9769206047058105,0.7256837487220764
0.06320000102277845,6.976336479187012,0.7341048717498779
0.06359999679261819,6.975746154785156,0.7425248622894287
0.06399999983841553,6.975148677825928,0.7509437799453735
0.06440000288421288,6.974544525146484,0.7593615055084229
0.06479999865405262,6.973933696746826,0.7677780985832214
0.06520000169984996,6.973316192626953,0.7761935591697693
0.0655999974696897,6.972691535949707,0.7846078276634216
0.06600000051548705,6.972060680389404,0.7930209636688232
0.0664000035612844,6.9714226722717285,0.8014329075813293
0.06679999933112413,7.025666236877441,0.8098664879798889
0.06720000237692147,7.105015277862549,0.8183910846710205
0.06759999814676121,7.184356689453125,0.8270114064216614
0.06800000119255856,7.2636919021606445,0.8357275128364563
0.06839999696239829,7.343019485473633,0.8445392847061157
0.06880000000819564,7.422340393066406,0.8534468412399292
0.06920000305399299,7.501654148101807,0.862450122833252
0.06959999882383272,7.580960750579834,0.8715490698814392
0.07000000186963007,7.66025972366333,0.880743682384491
0.0703999976394698,7.739551544189453,0.8900339603424072
0.07080000068526715,7.818835735321045,0.899419903755188
0.07119999645510688,7.8981122970581055,0.9089015126228333
0.07159999950090423,7.977381229400635,0.9184787273406982
0.07200000254670158,8.056642532348633,0.928151547908783
0.07239999831654131,8.135896682739258,0.9379199743270874
0.07280000136233866,8.215142250061035,0.9477839469909668
0.0731999971321784,8.294380187988281,0.9577435255050659
0.07360000017797574,8.34849739074707,0.967793881893158
0.07400000322377309,8.347719192504883,0.9778656363487244
0.07439999899361283,8.346933364868164,0.9879359602928162
0.07480000203941017,8.346138954162598,0.9980048537254333
0.07519999780924991,8.345335960388184,1.0080722570419312
0.07560000085504726,8.344525337219238,1.0181381702423096
0.07599999662488699,8.343707084655762,1.0282026529312134
0.07639999967068434,8.342880249023438,1.0382657051086426
0.07680000271648169,8.342045783996582,1.0483272075653076
0.07719999848632142,8.341203689575195,1.0583871603012085
0.07760000153211877,8.340352058410645,1.0684455633163452
0.0779999973019585,8.339493751525879,1.0785025358200073
0.07840000034775585,8.338626861572266,1.0885579586029053
0.0788000033935532,8.337752342224121,1.098611831665039
0.07919999916339293,8.336869239807129,1.1086641550064087
0.07960000220919028,8.335978507995605,1.1187149286270142
0.07999999797903001,8.335079193115234,1.1287641525268555
0.08040000102482736,8.334172248840332,1.138811707496643
0.0807999967946671,8.333256721496582,1.148857831954956
0.08119999984046444,8.3323335647583,1.1589021682739258
0.08160000288626179,8.331402778625488,1.1689449548721313
0.08199999865610152,8.330463409423828,1.1789861917495728
0.08240000170189887,8.329516410827637,1.1890257596969604
0.0827999974717386,8.328560829162598,1.1990636587142944
0.08320000051753595,8.327597618103027,1.2090998888015747
0.0836000035633333,8.326626777648926,1.2191344499588013
0.08399999933317304,8.325647354125977,1.2291674613952637
0.08440000237897038,8.324660301208496,1.2391986846923828
0.08479999814881012,8.323664665222168,1.2492282390594482
0.08520000119460747,8.322661399841309,1.25925612449646
0.0855999969644472,8.321649551391602,1.269282341003418
0.08600000001024455,8.320630073547363,1.2793067693710327
0.0864000030560419,8.319602966308594,1.2893294095993042
0.08679999882588163,8.318567276000977,1.2993505001068115
0.08720000187167898,8.317523956298828,1.309369683265686
0.08759999764151871,8.316472053527832,1.3193871974945068
0.08800000068731606,8.34658432006836,1.329410195350647
0.0883999964571558,8.425516128540039,1.339510440826416
0.08879999950295314,8.504441261291504,1.3497058153152466
0.08920000254875049,8.583356857299805,1.3599964380264282
0.08959999831859022,8.662264823913574,1.3703820705413818
0.09000000136438757,8.741164207458496,1.3808629512786865
0.0903999971342273,8.82005500793457,1.3914388418197632
0.09080000018002465,8.898938179016113,1.402109980583191
0.091200003225822,8.977811813354492,1.4128761291503906
0.09159999899566174,9.05667781829834,1.4237372875213623
0.09200000204145908,9.135534286499023,1.4346935749053955
0.09239999781129882,9.165553092956543,1.4457268714904785
0.09280000085709617,9.16439151763916,1.4567656517028809
0.0931999966269359,9.163222312927246,1.4678024053573608
0.09359999967273325,9.162043571472168,1.4788371324539185
0.0940000027185306,9.160856246948242,1.4898699522018433
0.09439999848837033,9.159659385681152,1.5009007453918457
0.09480000153416768,9.158454895019531,1.5119296312332153
0.09519999730400741,9.157240867614746,1.5229564905166626
0.09560000034980476,9.156018257141113,1.5339813232421875
0.09600000339560211,9.154786109924316,1.54500412940979
0.09639999916544184,9.153545379638672,1.5560249090194702
0.09680000221123919,9.152297019958496,1.567043662071228
0.09719999798107892,9.15103816986084,1.5780603885650635
0.09760000102687627,9.149771690368652,1.589074969291687
0.097999996796716,9.1484956741333,1.6000875234603882
0.09839999984251335,9.147212028503418,1.6110979318618774
0.0988000028883107,9.145917892456055,1.6221063137054443
0.09919999865815043,9.14461612701416,1.6331126689910889
0.09960000170394778,9.143304824829102,1.644116759300232
0.09999999747378752,9.141985893249512,1.6551188230514526
0.10040000051958486,9.140657424926758,1.6661187410354614
0.10080000356538221,9.139320373535156,1.6771163940429688
0.10119999933522195,9.13797378540039,1.6881120204925537
0.1016000023810193,9.136619567871094,1.6991053819656372
0.10199999815085903,9.135255813598633,1.7100965976715088
0.10240000119665638,9.133882522583008,1.7210856676101685
0.10279999696649611,9.132501602172852,1.7320724725723267
0.10320000001229346,9.131112098693848,1.7430570125579834
0.1036000030580908,9.12971305847168,1.7540394067764282
0.10399999882793054,9.128305435180664,1.7650196552276611
0.10440000187372789,9.1268892288208,1.775997519493103
0.10479999764356762,9.125463485717773,1.786973237991333
0.10520000068936497,9.124029159545898,1.797946572303772
0.1055999964592047,9.122587203979492,1.8089176416397095
0.10599999950500205,9.121135711669922,1.819886565208435
0.1064000025507994,9.119674682617188,1.8308531045913696
0.10679999832063913,9.118206024169922,1.8418172597885132
0.10720000136643648,9.116727828979492,1.8527791500091553
0.10759999713627622,9.115242004394531,1.863738775253296
0.10800000018207356,9.113746643066406,1.8746960163116455
0.10840000322787091,9.112241744995117,1.885650873184204
0.10879999899771065,9.17429256439209,1.8966341018676758
0.109200002043508,9.252771377563477,1.9077097177505493
0.10959999781334773,9.3312406539917,1.9188799858093262
0.11000000085914508,9.409701347351074,1.9301449060440063
0.11039999662898481,9.488152503967285,1.9415042400360107
0.11079999967478216,9.566594123840332,1.9529582262039185
0.1112000027205795,9.645027160644531,1.9645066261291504
0.11159999849041924,9.707015037536621,1.9761475324630737
0.11200000153621659,9.705430030822754,1.987816572189331
0.11239999730605632,9.703834533691406,1.9994831085205078
0.11280000035185367,9.702230453491211,2.0111470222473145
0.11320000339765102,9.700616836547852,2.02280855178833
0.11359999916749075,9.698993682861328,2.0344676971435547
0.1140000022132881,9.697361946105957,2.04612398147583
0.11439999798312783,9.695719718933105,2.0577778816223145
0.11480000102892518,9.694068908691406,2.0694291591644287
0.11519999679876491,9.692408561706543,2.081078052520752
0.11559999984456226,9.690739631652832,2.092724084854126
0.11600000289035961,9.68906021118164,2.104367733001709
0.11639999866019934,9.687372207641602,2.116008758544922
0.11680000170599669,9.685674667358398,2.1276471614837646
0.11719999747583643,9.683968544006348,2.1392829418182373
0.11760000052163377,9.682251930236816,2.1509158611297607
0.11800000356743112,9.680526733398438,2.162546396255493
0.11839999933727086,9.678791999816895,2.1741743087768555
0.1188000023830682,9.677047729492188,2.1857993602752686
0.11919999815290794,9.675294876098633,2.1974217891693115
0.11960000119870529,9.673532485961914,2.2090415954589844
0.11999999696854502,9.671760559082031,2.220658540725708
0.12040000001434237,9.669979095458984,2.2322728633880615
0.12080000306013972,9.66818904876709,2.243884563446045
0.12119999882997945,9.666389465332031,2.255493402481079
0.1216000018757768,9.664580345153809,2.267099380493164
0.12199999764561653,9.662761688232422,2.278702735900879
0.12240000069141388,9.660934448242188,2.2903032302856445
0.12280000373721123,9.659097671508789,2.30190110206604
0.12320000678300858,9.657251358032227,2.3134961128234863
0.1235999952768907,9.6553955078125,2.3250882625579834
0.12399999832268804,9.653531074523926,2.3366775512695312
0.12440000136848539,9.651657104492188,2.348264217376709
0.12480000441428274,9.649773597717285,2.3598477840423584
0.12519999290816486,9.647881507873535,2.3714287281036377
0.1255999959539622,9.645979881286621,2.3830068111419678
0.12599999899975955,9.644068717956543,2.3945817947387695
0.1264000020455569,9.6421480178833,2.406154155731201
0.12680000509135425,9.640218734741211,2.4177234172821045
0.12719999358523637,9.638279914855957,2.4292898178100586
0.12759999663103372,9.636331558227539,2.4408533573150635
0.12799999967683107,9.634374618530273,2.452414035797119
0.12840000272262841,9.632408142089844,2.4639716148376465
0.12880000576842576,9.633875846862793,2.4755263328552246
0.12919999426230788,9.71189022064209,2.487130880355835
0.12959999730810523,9.789896011352539,2.4988291263580322
0.13000000035390258,9.867892265319824,2.5106215476989746
0.13040000339969993,9.945878982543945,2.522507905960083
0.13080000644549727,10.023856163024902,2.5344882011413574
0.1311999949393794,10.101823806762695,2.546562433242798
0.13159999798517674,10.103224754333496,2.5586860179901123
0.1320000010309741,10.101173400878906,2.5708067417144775
0.13240000407677144,10.099111557006836,2.5829246044158936
0.1328000071225688,10.097041130065918,2.595039129257202
0.1331999956164509,10.09496021270752,2.6071505546569824
0.13359999866224825,10.092869758605957,2.6192588806152344
0.1340000017080456,10.090768814086914,2.631364107131958
0.13440000475384295,10.088659286499023,2.6434662342071533
0.13479999324772507,10.086539268493652,2.655565023422241
0.13519999629352242,10.084410667419434,2.66766095161438
0.13559999933931977,10.082271575927734,2.679753541946411
0.1360000023851171,10.080122947692871,2.691842794418335
0.13640000543091446,10.077963829040527,2.7039291858673096
0.13679999392479658,10.075796127319336,2.7160122394561768
0.13719999697059393,10.07361888885498,2.7280919551849365
0.13760000001639128,10.071431159973145,2.740168571472168
0.13800000306218863,10.069234848022461,2.752241849899292
0.13840000610798597,10.067028045654297,2.7643117904663086
0.1387999946018681,10.064811706542969,2.776378631591797
0.13919999764766544,10.062585830688477,2.7884421348571777
0.1396000006934628,10.06035041809082,2.800502300262451
0.14000000373926014,10.058104515075684,2.8125593662261963
0.14040000678505749,10.0558500289917,2.824613094329834
