time[s],iL[A],v out[V]
0.0,0.0,0.0
0.00040000000467443897,0.0,0.0
0.0008000000093488779,0.0,0.0
0.0012000000424450263,0.0,0.0
0.0016000000186977559,0.0,0.0
0.0019999999949504854,0.0,0.0
0.0024000000848900527,0.0,0.0
0.0027999999474559445,0.0,0.0
0.0032000000373955118,0.0,0.0
0.0035999998999614036,0.0,0.0
0.003999999989900971,0.0,0.0
0.004399999852466863,0.0,0.0
0.004800000169780105,0.0,0.0
0.005200000032345997,0.0,0.0
0.005599999894911889,0.0,0.0
0.006000000212225132,0.0,0.0
0.0064000000747910235,0.0,0.0
0.006799999937356915,0.0,0.0
0.007199999799922807,0.0,0.0
0.00760000011723605,0.0,0.0
0.007999999979801942,0.0,0.0
0.008400000297115184,0.0,0.0
0.008799999704933725,0.0,0.0
0.009200000022246968,0.0,0.0
0.00960000033956021,0.0,0.0
0.009999999747378752,0.020866215229034424,3.2984628433041507e-06
0.010400000064691994,0.04173240810632706,5.058350143372081e-05
0.010800000382005237,0.04173234850168228,0.0001011645290418528
0.011199999789823778,0.04173224791884422,0.00015174300642684102
0.01160000010713702,0.04173210635781288,0.00020231888629496098
0.012000000424450263,0.04173192381858826,0.00025289211771450937
0.012399999832268804,0.04173170030117035,0.0003034626424778253
0.012800000149582047,0.04173143953084946,0.00035403043148107827
0.013199999557400588,0.04173113405704498,0.0004045954265166074
0.01359999987471383,0.041730791330337524,0.0004551575693767518
0.014000000192027073,0.04173040762543678,0.0005057168309576809
0.014399999599845614,0.04172998294234276,0.000556273153051734
0.014799999917158857,0.04172951728105545,0.0006068264483474195
0.0152000002344721,0.04172901064157486,0.0006573767168447375
0.015600000551785342,0.041728466749191284,0.0007079239585436881
0.015999999959603883,0.04172787815332413,0.0007584679988212883
0.016399999367422424,0.041727252304553986,0.0008090088376775384
0.01680000059423037,0.04172658547759056,0.0008595464751124382
0.01720000000204891,0.04172587767243385,0.0009100808529183269
0.01759999940986745,0.04172512888908386,0.0009606118546798825
0.018000000636675395,0.04172433912754059,0.0010111394803971052
0.018400000044493936,0.04172350838780403,0.001061663730069995
0.018799999452312477,0.04172264039516449,0.0011121844872832298
0.01920000067912042,0.041721731424331665,0.001162701635621488
0.019600000086938962,0.04172078147530556,0.0012132152915000916
0.019999999494757503,0.041719790548086166,0.0012637252220883965
0.020400000721565448,0.04171875864267349,0.001314231543801725
0.02080000012938399,0.041717689484357834,0.0013647341402247548
0.02119999953720253,0.041716575622558594,0.0014152330113574862
0.021600000764010474,0.04171542450785637,0.0014657280407845974
0.022000000171829015,0.04171423241496086,0.0015162191120907664
0.022399999579647556,0.04171299561858177,0.0015667063416913152
0.0228000008064555,0.041711725294589996,0.0016171896131709218
0.02320000021427404,0.04171041026711464,0.0016676688101142645
0.023599999622092582,0.041709054261446,0.001718144048936665
0.024000000848900527,0.041707661002874374,0.0017686150968074799
0.024400000256719068,0.04170622676610947,0.0018190819537267089
0.02479999966453761,0.041704751551151276,0.001869544736109674
0.025200000891345553,0.0417032353579998,0.0019200030947104096
0.025600000299164094,0.041701678186655045,0.0019704571459442377
0.025999999706982635,0.041700080037117004,0.002020906889811158
0.026399999114801176,0.04169844463467598,0.002071352442726493
0.02680000034160912,0.04169676825404167,0.0021217933390289545
0.02719999974942766,0.04169505089521408,0.002172229578718543
0.027599999157246202,0.04169329255819321,0.002222661627456546
0.028000000384054147,0.04169149324297905,0.002273088786751032
0.028399999791872688,0.04168965667486191,0.002323511289432645
0.02879999919969123,0.041687775403261185,0.0023739293683320284
0.029200000426499173,0.04168585687875748,0.0024243423249572515
0.029599999834317714,0.041683897376060486,0.0024747508578002453
0.029999999242136255,0.06268496811389923,0.0025284960865974426
0.0304000004689442,0.0836859717965126,0.0026264681946486235
0.030800001695752144,0.08368382602930069,0.0027277746703475714
0.031200001103570685,0.0836816057562828,0.0028290734626352787
0.031600000511389226,0.08367930352687836,0.002930364804342389
0.03199999991920777,0.08367691934108734,0.0030316482298076153
0.03239999932702631,0.08367445319890976,0.003132923971861601
0.03279999873484485,0.08367190510034561,0.0032341915648430586
0.0332000017806422,0.0836692750453949,0.003335451241582632
0.03360000118846074,0.08366657048463821,0.0034367027692496777
0.03400000059627928,0.08366377651691437,0.0035379459150135517
0.03440000000409782,0.08366090804338455,0.003639180911704898
0.03479999941191636,0.08365795761346817,0.003740407293662429
0.0351999988197349,0.08365492522716522,0.0038416252937167883
0.03559999822755344,0.08365181088447571,0.0039428346790373325
0.03600000127335079,0.08364861458539963,0.004044035449624062
0.03640000068116933,0.08364533632993698,0.0041452269069850445
0.03680000008898787,0.08364198356866837,0.004246409982442856
0.03719999949680641,0.08363854140043259,0.004347583744674921
0.037599998904624954,0.08363502472639084,0.00444874819368124
0.037999998312443495,0.08363142609596252,0.0045499037951231
0.03840000135824084,0.08362774550914764,0.004651050083339214
0.038800000766059384,0.0836239829659462,0.004752186592668295
0.039200000173877925,0.08362014591693878,0.004853313788771629
0.039599999581696466,0.0836162194609642,0.004954431671649218
0.03999999898951501,0.08361221849918365,0.005055539309978485
0.04039999839733355,0.08360813558101654,0.0051566376350820065
0.040800001443130895,0.08360397070646286,0.005257725715637207
0.041200000850949436,0.08359972387552261,0.005358804017305374
0.04160000025876798,0.0835953950881958,0.0054598720744252205
0.04199999966658652,0.08359098434448242,0.005560929886996746
0.04239999907440506,0.08358649909496307,0.005661977455019951
0.0427999984822236,0.08358192443847656,0.005763014778494835
0.04320000152802095,0.08357727527618408,0.005864041391760111
0.04360000093583949,0.08357254415750504,0.005965057760477066
0.04400000034365803,0.08356773108243942,0.006066062953323126
0.04439999975147657,0.08356283605098724,0.006167057901620865
0.04479999915929511,0.0835578665137291,0.0062680416740477085
0.04519999856711365,0.08355280756950378,0.006369014270603657
0.045600001612911,0.0835476741194725,0.006469976156949997
0.04600000102072954,0.08354245871305466,0.006570926867425442
0.04640000042854808,0.08353716135025024,0.006671866402029991
0.046799999836366624,0.08353178203105927,0.006772794295102358
0.047199999244185165,0.08352632075548172,0.006873710546642542
0.047599998652003706,0.0835207849740982,0.0069746156223118305
0.048000001697801054,0.08351516723632812,0.0070755090564489365
0.048400001105619594,0.08350946009159088,0.007176390383392572
0.048800000513438135,0.08350367844104767,0.007277260068804026
0.049199999921256676,0.08349782228469849,0.007378118112683296
0.04959999932907522,0.08349187672138214,0.0074789635837078094
0.04999999873689376,0.10467220842838287,0.007583197671920061
0.050400001782691106,0.12585243582725525,0.007731978315860033
0.05080000119050965,0.12584619224071503,0.007884143851697445
0.05120000059832819,0.12583981454372406,0.00803629495203495
0.05160000000614673,0.12583333253860474,0.008188431151211262
0.05199999941396527,0.12582671642303467,0.008340551517903805
0.05239999882178381,0.12581998109817505,0.008492656983435154
0.05279999822960235,0.12581312656402588,0.008644746616482735
0.0532000012753997,0.12580615282058716,0.008796820417046547
0.05360000068321824,0.1257990598678589,0.008948877453804016
0.05400000009103678,0.12579183280467987,0.009100919589400291
0.05439999949885532,0.1257844865322113,0.009252944961190224
0.054799998906673864,0.12577702105045319,0.009404954500496387
0.055199998314492404,0.12576943635940552,0.009556947275996208
0.05560000136028975,0.1257617324590683,0.009708923287689686
0.05600000076810829,0.12575390934944153,0.00986088253557682
0.056400000175926834,0.1257459670305252,0.010012825019657612
0.056799999583745375,0.12573789060115814,0.010164749808609486
0.057199998991563916,0.12572969496250153,0.010316658765077591
0.05759999839938246,0.12572138011455536,0.010468549095094204
0.058000001445179805,0.12571294605731964,0.010620422661304474
0.058400000852998346,0.12570439279079437,0.010772277601063251
0.05880000026081689,0.12569570541381836,0.010924115777015686
0.05919999966863543,0.125686913728714,0.011075935326516628
0.05959999907645397,0.12567798793315887,0.011227737180888653
0.05999999848427251,0.1256689429283142,0.011379520408809185
0.06040000153006986,0.12565977871418,0.011531285010278225
0.0608000009378884,0.12565049529075623,0.011683031916618347
0.06120000034570694,0.1256410926580429,0.011834760196506977
0.06160000339150429,0.12563155591487885,0.01198646891862154
0.06199999916134402,0.12562191486358643,0.01213815901428461
0.06240000220714137,0.12561213970184326,0.012289829552173615
0.0627999979769811,0.12560224533081055,0.012441481463611126
0.06320000102277845,0.12559223175048828,0.01259311381727457
0.06359999679261819,0.12558209896087646,0.012744725681841373
0.06399999983841553,0.1255718320608139,0.012896318919956684
0.06440000288421288,0.12556146085262299,0.013047891668975353
0.06479999865405262,0.12555095553398132,0.013199444860219955
0.06520000169984996,0.1255403459072113,0.013350977562367916
0.0655999974696897,0.12552960216999054,0.01350249070674181
0.06600000051548705,0.12551873922348022,0.013653982430696487
0.0664000035612844,0.12550775706768036,0.013805454596877098
0.06679999933112413,0.12549665570259094,0.013956905342638493
0.06720000237692147,0.12548542022705078,0.014108335599303246
0.06759999814676121,0.12547408044338226,0.014259744435548782
0.06800000119255856,0.125462606549263,0.014411131851375103
0.06839999696239829,0.1254510134458542,0.014562498778104782
0.06880000000819564,0.12543930113315582,0.01471384335309267
0.06920000305399299,0.1254274696111679,0.014865166507661343
0.06959999882383272,0.12541551887989044,0.015016468241810799
0.07000000186963007,0.146931454539299,0.015171259641647339
0.0703999976394698,0.16844724118709564,0.01537119410932064
0.07080000068526715,0.16843487322330475,0.015574614517390728
0.07119999645510688,0.16842232644557953,0.015778010711073875
0.07159999950090423,0.16840961575508118,0.015981381759047508
0.07200000254670158,0.1683967560529709,0.016184726729989052
0.07239999831654131,0.16838373243808746,0.016388045623898506
0.07280000136233866,0.16837053000926971,0.01659134030342102
0.0731999971321784,0.16835717856884003,0.016794608905911446
0.07360000017797574,0.1683436632156372,0.016997849568724632
0.07400000322377309,0.16832998394966125,0.01720106601715088
0.07439999899361283,0.16831614077091217,0.017404254525899887
0.07480000203941017,0.16830213367938995,0.017607416957616806
0.07519999780924991,0.1682879626750946,0.017810553312301636
0.07560000085504726,0.16827364265918732,0.018013661727309227
0.07599999662488699,0.1682591438293457,0.01821674220263958
0.07639999967068434,0.16824449598789215,0.018419794738292694
0.07680000271648169,0.16822966933250427,0.01862282119691372
0.07719999848632142,0.16821469366550446,0.018825819715857506
0.07760000153211877,0.1681995540857315,0.019028788432478905
0.0779999973019585,0.16818425059318542,0.019231729209423065
0.07840000034775585,0.1681687831878662,0.019434643909335136
0.0788000033935532,0.16815315186977386,0.01963752694427967
0.07919999916339293,0.1681373566389084,0.019840382039546967
0.07960000220919028,0.16812141239643097,0.020043209195137024
0.07999999797903001,0.16810528934001923,0.020246006548404694
0.08040000102482736,0.16808901727199554,0.020448774099349976
0.0807999967946671,0.16807256639003754,0.02065151184797287
0.08119999984046444,0.1680559664964676,0.020854219794273376
0.08160000288626179,0.1680392026901245,0.021056897938251495
0.08199999865610152,0.1680222749710083,0.021259546279907227
0.08240000170189887,0.16800518333911896,0.02146216295659542
0.0827999974717386,0.16798794269561768,0.021664749830961227
0.08320000051753595,0.16797052323818207,0.021867305040359497
0.0836000035633333,0.16795295476913452,0.02206983044743538
0.08399999933317304,0.16793520748615265,0.022272324189543724
0.08440000237897038,0.16791731119155884,0.022474786266684532
0.08479999814881012,0.1678992509841919,0.022677216678857803
0.08520000119460747,0.16788102686405182,0.022879615426063538
0.0855999969644472,0.1678626537322998,0.023081982508301735
0.08600000001024455,0.16784410178661346,0.023284317925572395
0.0864000030560419,0.167825385928154,0.02348661981523037
0.08679999882588163,0.16780652105808258,0.023688890039920807
0.08720000187167898,0.16778749227523804,0.023891126736998558
0.08759999764151871,0.16776829957962036,0.024093329906463623
0.08800000068731606,0.16774894297122955,0.02429550141096115
0.0883999964571558,0.1677294224500656,0.024497637525200844
0.08879999950295314,0.16770973801612854,0.024699741974473
0.08920000254875049,0.16768990457057953,0.02490181289613247
0.08959999831859022,0.16766990721225739,0.025103848427534103
0.09000000136438757,0.18953613936901093,0.025309478864073753
0.0903999971342273,0.21140220761299133,0.025560874491930008
0.09080000018002465,0.21138165891170502,0.02581586129963398
0.091200003225822,0.211360901594162,0.026070810854434967
0.09159999899566174,0.21133993566036224,0.02632572315633297
0.09200000204145908,0.21131877601146698,0.026580598205327988
0.09239999781129882,0.211297407746315,0.026835434138774872
0.09280000085709617,0.2112758457660675,0.027090230956673622
0.0931999966269359,0.2112540751695633,0.027344990521669388
0.09359999967273325,0.21123209595680237,0.02759971097111702
0.0940000027185306,0.21120990812778473,0.027854392305016518
0.09439999848837033,0.21118752658367157,0.028109034523367882
0.09480000153416768,0.2111649364233017,0.028363635763525963
0.09519999730400741,0.2111421376466751,0.02861819788813591
0.09560000034980476,0.211119145154953,0.028872720897197723
0.09600000339560211,0.21109594404697418,0.029127202928066254
0.09639999916544184,0.21107254922389984,0.0293816439807415
0.09680000221123919,0.2110489308834076,0.029636044055223465
0.09719999798107892,0.21102511882781982,0.029890403151512146
0.09760000102687627,0.21100111305713654,0.030144721269607544
0.097999996796716,0.21097689867019653,0.03039899840950966
0.09839999984251335,0.21095247566699982,0.03065323270857334
0.0988000028883107,0.2109278440475464,0.03090742602944374
0.09919999865815043,0.21090301871299744,0.031161576509475708
0.09960000170394778,0.21087798476219177,0.03141568601131439
0.09999999747378752,0.2108527570962906,0.031669750809669495
0.10040000051958486,0.2108273208141327,0.031923774629831314
0.10080000356538221,0.21080167591571808,0.032177750021219254
0.10119999933522195,0.21077583730220795,0.03243168815970421
0.1016000023810193,0.2107497900724411,0.03268557786941528
0.10199999815085903,0.21072353422641754,0.032939426600933075
0.10240000119665638,0.21069708466529846,0.033193230628967285
0.10279999696649611,0.21067042648792267,0.033446986228227615
0.10320000001229346,0.21064357459545135,0.03370070084929466
0.1036000030580908,0.21061651408672333,0.03395437076687813
0.10399999882793054,0.2105892449617386,0.03420799598097801
0.10440000187372789,0.21056178212165833,0.034461572766304016
0.10479999764356762,0.21053411066532135,0.03471510484814644
0.10520000068936497,0.21050623059272766,0.03496859222650528
0.1055999964592047,0.21047815680503845,0.03522203117609024
0.10599999950500205,0.21044987440109253,0.03547542542219162
0.1064000025507994,0.2104213982820511,0.03572877496480942
0.10679999832063913,0.21039271354675293,0.035982076078653336
0.10720000136643648,0.21036382019519806,0.03623532876372337
0.10759999713627622,0.21033473312854767,0.03648853302001953
0.10800000018207356,0.21030543744564056,0.03674169257283211
0.10840000322787091,0.21027594804763794,0.036994803696870804
0.10879999899771065,0.2102462500333786,0.03724786266684532
0.109200002043508,0.21021634340286255,0.03750087693333626
0.10959999781334773,0.21018624305725098,0.037753842771053314
0.11000000085914508,0.23240308463573456,0.03801050782203674
0.11039999662898481,0.25461968779563904,0.03831355646252632
0.11079999967478216,0.25458890199661255,0.03862030431628227
0.1112000027205795,0.25455790758132935,0.038926996290683746
0.11159999849041924,0.25452661514282227,0.03923363983631134
0.11200000153621659,0.25449511408805847,0.03954022750258446
0.11239999730605632,0.2544633746147156,0.039846763014793396
0.11280000035185367,0.2544313669204712,0.04015324264764786
0.11320000339765102,0.2543991208076477,0.04045967385172844
0.11359999916749075,0.2543666362762451,0.040766045451164246
0.1140000022132881,0.25433388352394104,0.04107236489653587
0.11439999798312783,0.25430092215538025,0.041378628462553024
0.11480000102892518,0.25426769256591797,0.041684839874506
0.11519999679876491,0.2542342245578766,0.04199099540710449
0.11559999984456226,0.2542005181312561,0.04229709506034851
0.11600000289035961,0.25416654348373413,0.042603135108947754
0.11639999866019934,0.25413233041763306,0.04290912300348282
0.11680000170599669,0.2540978789329529,0.043215055018663406
0.11719999747583643,0.2540631890296936,0.04352092742919922
0.11760000052163377,0.2540282607078552,0.043826743960380554
0.11800000356743112,0.25399306416511536,0.04413250461220741
0.11839999933727086,0.2539576292037964,0.044438205659389496
0.1188000023830682,0.2539219558238983,0.0447438508272171
0.11919999815290794,0.25388604402542114,0.04504943639039993
0.11960000119870529,0.25384989380836487,0.04535496234893799
0.11999999696854502,0.2538134753704071,0.04566042870283127
0.12040000001434237,0.25377681851387024,0.04596583917737007
0.12080000306013972,0.2537399232387543,0.0462711863219738
0.12119999882997945,0.2537027895450592,0.04657647758722305
0.1216000018757768,0.25366541743278503,0.04688170924782753
0.12199999764561653,0.2536277770996094,0.04718687757849693
0.12240000069141388,0.2535898983478546,0.04749198630452156
0.12280000373721123,0.25355178117752075,0.04779703542590141
0.12320000678300858,0.2535134255886078,0.04810202494263649
0.1235999952768907,0.2534748315811157,0.04840695112943649
0.12399999832268804,0.25343596935272217,0.04871181398630142
0.12440000136848539,0.2533968985080719,0.049016617238521576
0.12480000441428274,0.25335755944252014,0.049321357160806656
0.12519999290816486,0.2533179819583893,0.04962603375315666
0.1255999959539622,0.2532781660556793,0.049930647015571594
0.12599999899975955,0.25323808193206787,0.05023520067334175
0.1264000020455569,0.2531977891921997,0.050539687275886536
0.12680000509135425,0.25315722823143005,0.050844110548496246
0.12719999358523637,0.2531164288520813,0.05114847049117088
0.12759999663103372,0.25307539105415344,0.051452767103910446
0.12799999967683107,0.2530341148376465,0.05175699666142464
0.12840000272262841,0.25299257040023804,0.052061162889003754
0.12880000576842576,0.2529508173465729,0.0523652657866478
0.12919999426230788,0.2529087960720062,0.05266930162906647
0.12959999730810523,0.2528665363788605,0.052973270416259766
0.13000000035390258,0.27535751461982727,0.053281020373106
0.13040000339969993,0.2978482246398926,0.05363563448190689
0.13080000644549727,0.29780516028404236,0.05399402976036072
0.1311999949393794,0.29776182770729065,0.054352350533008575
0.13159999798517674,0.29771819710731506,0.05471060425043106
0.1320000010309741,0.297674298286438,0.055068787187337875
0.13240000407677144,0.29763010144233704,0.05542689934372902
0.1328000071225688,0.2975856065750122,0.05578494071960449
0.1331999956164509,0.2975408434867859,0.056142907589673996
0.13359999866224825,0.2974957823753357,0.05650080740451813
0.1340000017080456,0.297450453042984,0.05685863271355629
0.13440000475384295,0.29740479588508606,0.05721638351678848
0.13479999324772507,0.297358900308609,0.057574063539505005
0.13519999629352242,0.2973126769065857,0.057931672781705856
0.13559999933931977,0.2972662150859833,0.05828920379281044
0.1360000023851171,0.2972194254398346,0.05864666402339935
0.13640000543091446,0.2971723675727844,0.0590040497481823
