time[s],iL[A],v out[V]
0.0,0.0,0.0
0.00040000000467443897,0.0,0.0
0.0008000000093488779,0.0,0.0
0.0012000000424450263,0.0,0.0
0.0016000000186977559,0.0,0.0
0.0019999999949504854,0.0,0.0
0.0024000000848900527,0.0,0.0
0.0027999999474559445,0.0,0.0
0.0032000000373955118,0.0,0.0
0.0035999998999614036,0.0,0.0
0.003999999989900971,0.0,0.0
0.004399999852466863,0.0,0.0
0.004800000169780105,0.0,0.0
0.005200000032345997,0.0,0.0
0.005599999894911889,0.0,0.0
0.006000000212225132,0.0,0.0
0.0064000000747910235,0.0,0.0
0.006799999937356915,0.0,0.0
0.007199999799922807,0.0,0.0
0.00760000011723605,0.0,0.0
0.007999999979801942,0.0,0.0
0.008400000297115184,0.0,0.0
0.008799999704933725,0.0,0.0
0.009200000022246968,0.0,0.0
0.00960000033956021,0.0,0.0
0.009999999747378752,0.015380918979644775,1.792211605788907e-06
0.010400000064691994,0.030761823058128357,3.728615411091596e-05
0.010800000382005237,0.030761778354644775,7.457047468051314e-05
0.011199999789823778,0.030761703848838806,0.00011185291805304587
0.01160000010713702,0.03076159954071045,0.00014913344057276845
0.012000000424450263,0.030761465430259705,0.00018641201313585043
0.012399999832268804,0.030761301517486572,0.00022368860663846135
0.012800000149582047,0.030761107802391052,0.0002609631628729403
0.013199999557400588,0.030760884284973145,0.0002982356818392873
0.01359999987471383,0.0307606291025877,0.0003355060762260109
0.014000000192027073,0.030760345980525017,0.0003727743460331112
0.014399999599845614,0.030760033056139946,0.0004100404621567577
0.014799999917158857,0.030759690329432487,0.00044730433728545904
0.0152000002344721,0.03075931780040264,0.00048456600052304566
0.015600000551785342,0.030758915469050407,0.0005218253936618567
0.015999999959603883,0.030758483335375786,0.0005590824875980616
0.016399999367422424,0.030758021399378777,0.000596337195020169
0.01680000059423037,0.03075752779841423,0.000633589515928179
0.01720000000204891,0.030757006257772446,0.0006708394503220916
0.01759999940986745,0.030756454914808273,0.0007080868817865849
0.018000000636675395,0.030755873769521713,0.0007453318685293198
0.018400000044493936,0.030755262821912766,0.0007825742941349745
0.018799999452312477,0.03075462207198143,0.000819814158603549
0.01920000067912042,0.030753951519727707,0.0008570514619350433
0.019600000086938962,0.030753251165151596,0.0008942860877141356
0.019999999494757503,0.030752521008253098,0.0009315180359408259
0.020400000721565448,0.03075176104903221,0.0009687473066151142
0.02080000012938399,0.030750971287488937,0.0010059737833216786
0.02119999953720253,0.030750151723623276,0.001043197582475841
0.021600000764010474,0.030749302357435226,0.0010804184712469578
0.022000000171829015,0.03074842318892479,0.0011176365660503507
0.022399999579647556,0.030747514218091965,0.0011548517504706979
0.0228000008064555,0.030746575444936752,0.0011920639080926776
0.02320000021427404,0.030745606869459152,0.0012292732717469335
0.023599999622092582,0.030744608491659164,0.0012664794921875
0.024000000848900527,0.03074358031153679,0.0013036828022450209
0.024400000256719068,0.030742522329092026,0.0013408829690888524
0.02479999966453761,0.030741434544324875,0.0013780801091343164
0.025200000891345553,0.030740316957235336,0.0014152741059660912
0.025600000299164094,0.03073916956782341,0.0014524648431688547
0.025999999706982635,0.030737994238734245,0.001489652437157929
0.026399999114801176,0.030736787244677544,0.0015268366551026702
0.02680000034160912,0.030735550448298454,0.0015640177298337221
0.02719999974942766,0.030734283849596977,0.001601195428520441
0.027599999157246202,0.03073298931121826,0.0016383698675781488
0.028000000384054147,0.03073166310787201,0.0016755408141762018
0.028399999791872688,0.03073030710220337,0.0017127083847299218
0.02879999919969123,0.03072892315685749,0.001749872462823987
0.029200000426499173,0.030727507546544075,0.0017870330484583974
0.029599999834317714,0.03072606399655342,0.0018241900252178311
0.029999999242136255,0.046115998178720474,0.001863138168118894
0.0304000004689442,0.061505887657403946,0.0019358049612492323
0.030800001695752144,0.0615043118596077,0.0020102609414607286
0.031200001103570685,0.06150267273187637,0.0020847113337367773
0.031600000511389226,0.061500973999500275,0.0021591561380773783
0.03199999991920777,0.0614992193877697,0.0022335953544825315
0.03239999932702631,0.06149740144610405,0.00230802851729095
0.03279999873484485,0.061495523899793625,0.0023824560921639204
0.0332000017806422,0.06149359047412872,0.002456877613440156
0.03360000118846074,0.06149159371852875,0.0025312930811196566
0.03400000059627928,0.061489537358284,0.002605702728033066
0.03440000000409782,0.06148742511868477,0.0026801060885190964
0.03479999941191636,0.06148524954915047,0.0027545031625777483
0.0351999988197349,0.06148301810026169,0.0028288939502090216
0.03559999822755344,0.061480723321437836,0.002903278451412916
0.03600000127335079,0.061478372663259506,0.002977656666189432
0.03640000068116933,0.0614759586751461,0.003052028128877282
0.03680000008898787,0.06147348880767822,0.0031263933051377535
0.03719999949680641,0.06147095933556557,0.003200751729309559
0.037599998904624954,0.06146836653351784,0.0032751034013926983
0.037999998312443495,0.06146571785211563,0.0033494483213871717
0.03840000135824084,0.06146300956606865,0.0034237864892929792
0.038800000766059384,0.06146024167537689,0.0034981174394488335
0.039200000173877925,0.06145741045475006,0.0035724416375160217
0.039599999581696466,0.06145452335476875,0.0036467588506639004
0.03999999898951501,0.06145157665014267,0.003721068613231182
0.04039999839733355,0.06144857034087181,0.003795371390879154
0.040800001443130895,0.06144550442695618,0.0038696667179465294
0.041200000850949436,0.06144237890839577,0.003943955060094595
0.04160000025876798,0.06143919378519058,0.004018235486000776
0.04199999966658652,0.06143594905734062,0.004092508926987648
0.04239999907440506,0.061432644724845886,0.0041667744517326355
0.0427999984822236,0.061429280787706375,0.004241032060235739
0.04320000152802095,0.06142586097121239,0.004315282683819532
0.04360000093583949,0.061422377824783325,0.0043895249255001545
0.04400000034365803,0.06141883507370949,0.00446375971660018
0.04439999975147657,0.061415236443281174,0.004537986125797033
0.04479999915929511,0.061411574482917786,0.00461220508441329
0.04519999856711365,0.06140785664319992,0.004686415661126375
0.045600001612911,0.06140407919883728,0.004760617855936289
0.04600000102072954,0.061400238424539566,0.004834812134504318
0.04640000042854808,0.061396341770887375,0.004908998031169176
0.046799999836366624,0.06139238551259041,0.00498317601159215
0.047199999244185165,0.061388369649648666,0.0050573451444506645
0.047599998652003706,0.06138429418206215,0.0051315054297447205
0.048000001697801054,0.061380159109830856,0.005205657798796892
0.048400001105619594,0.06137596443295479,0.005279801320284605
0.048800000513438135,0.061371710151433945,0.005353935994207859
0.049199999921256676,0.061367399990558624,0.005428061820566654
0.04959999932907522,0.06136302649974823,0.005502179265022278
0.04999999873689376,0.07686402648687363,0.005578108597546816
0.050400001782691106,0.09236495196819305,0.005687974393367767
0.05080000119050965,0.09236036241054535,0.005799650680273771
0.05120000059832819,0.09235567599534988,0.00591131579130888
0.05160000000614673,0.09235090017318726,0.006022969726473093
0.05199999941396527,0.09234604239463806,0.006134612951427698
0.05239999882178381,0.09234108775854111,0.006246244069188833
0.05279999822960235,0.09233604371547699,0.006357864011079073
0.0532000012753997,0.09233091026544571,0.006469472777098417
0.05360000068321824,0.09232569485902786,0.006581069435924292
0.05400000009103678,0.09232038259506226,0.006692654453217983
0.05439999949885532,0.09231498837471008,0.006804227363318205
0.054799998906673864,0.09230949729681015,0.0069157881662249565
0.055199998314492404,0.09230391681194305,0.0070273373275995255
0.05560000136028975,0.09229825437068939,0.007138873916119337
0.05600000076810829,0.09229249507188797,0.007250398397445679
0.056400000175926834,0.09228665381669998,0.007361910305917263
0.056799999583745375,0.09228071570396423,0.00747340964153409
0.057199998991563916,0.09227469563484192,0.00758489640429616
0.05759999839938246,0.09226858615875244,0.007696370128542185
0.058000001445179805,0.0922623798251152,0.007807831279933453
0.058400000852998346,0.0922560915350914,0.007919279858469963
0.05880000026081689,0.09224971383810043,0.008030714467167854
0.05919999966863543,0.0922432392835617,0.008142136037349701
0.05959999907645397,0.09223668277263641,0.008253544569015503
0.05999999848427251,0.09223003685474396,0.00836494006216526
0.06040000153006986,0.09222330152988434,0.008476321585476398
0.0608000009378884,0.09221647679805756,0.008587690070271492
0.06120000034570694,0.09220956265926361,0.008699043653905392
0.06160000339150429,0.0922025591135025,0.008810384199023247
0.06199999916134402,0.09219546616077423,0.008921710774302483
0.06240000220714137,0.0921882838010788,0.0090330233797431
0.0627999979769811,0.0921810120344162,0.009144322015345097
0.06320000102277845,0.09217365086078644,0.0092556057497859
0.06359999679261819,0.09216620028018951,0.009366875514388084
0.06399999983841553,0.09215866029262543,0.009478130377829075
0.06440000288421288,0.09215103834867477,0.009589371271431446
0.06479999865405262,0.09214331954717636,0.009700597263872623
0.06520000169984996,0.09213551878929138,0.009811808355152607
0.0655999974696897,0.09212762117385864,0.009923004545271397
0.06600000051548705,0.09211964160203934,0.010034185834228992
0.0664000035612844,0.09211156517267227,0.010145352222025394
0.06679999933112413,0.09210340678691864,0.010256502777338028
0.06720000237692147,0.09209515899419785,0.010367638431489468
0.06759999814676121,0.09208682179450989,0.010478758253157139
0.06800000119255856,0.09207838773727417,0.010589863173663616
0.06839999696239829,0.09206987172365189,0.01070095133036375
0.06880000000819564,0.09206126630306244,0.010812024585902691
0.06920000305399299,0.09205257147550583,0.010923082008957863
0.06959999882383272,0.09204379469156265,0.011034123599529266
0.07000000186963007,0.10772465169429779,0.011147013865411282
0.0703999976394698,0.12340540438890457,0.011294192634522915
0.07080000068526715,0.12339630722999573,0.01144321821630001
0.07119999645510688,0.12338709831237793,0.011592225171625614
0.07159999950090423,0.12337776273488998,0.0117412144318223
0.07200000254670158,0.12336830794811249,0.011890184134244919
0.07239999831654131,0.12335874140262604,0.012039135210216045
0.07280000136233866,0.12334904819726944,0.012188068591058254
0.0731999971321784,0.12333923578262329,0.012336981482803822
0.07360000017797574,0.12332931160926819,0.012485875748097897
0.07400000322377309,0.12331926077604294,0.01263475138694048
0.07439999899361283,0.12330909073352814,0.01278360653668642
0.07480000203941017,0.12329880893230438,0.012932442128658295
0.07519999780924991,0.12328840047121048,0.013081259094178677
0.07560000085504726,0.12327788025140762,0.013230054639279842
0.07599999662488699,0.12326723337173462,0.013378831557929516
0.07639999967068434,0.12325646728277206,0.013527587056159973
0.07680000271648169,0.12324558943510056,0.013676322996616364
0.07719999848632142,0.1232345923781395,0.013825038447976112
0.07760000153211877,0.12322346866130829,0.013973732478916645
0.0779999973019585,0.12321223318576813,0.01412240695208311
0.07840000034775585,0.12320087105035782,0.01427106000483036
0.0788000033935532,0.12318939715623856,0.014419691637158394
0.07919999916339293,0.12317780405282974,0.014568301849067211
0.07960000220919028,0.12316608428955078,0.014716891571879387
0.07999999797903001,0.12315425276756287,0.014865459874272346
0.08040000102482736,0.1231423020362854,0.015014005824923515
0.0807999967946671,0.12313023209571838,0.015162530355155468
0.08119999984046444,0.12311804294586182,0.015311033464968204
0.08160000288626179,0.1231057345867157,0.01545951422303915
0.08199999865610152,0.12309330701828003,0.015607972629368305
0.08240000170189887,0.12308076024055481,0.015756407752633095
0.0827999974717386,0.12306809425354004,0.015904821455478668
0.08320000051753595,0.12305530905723572,0.01605321280658245
0.0836000035633333,0.12304241210222244,0.016201581805944443
0.08399999933317304,0.12302938848733902,0.016349926590919495
0.08440000237897038,0.12301625311374664,0.016498249024152756
0.08479999814881012,0.12300299108028412,0.016646547242999077
0.08520000119460747,0.12298961728811264,0.016794823110103607
0.0855999969644472,0.12297612428665161,0.016943076625466347
0.08600000001024455,0.12296250462532043,0.017091304063796997
0.0864000030560419,0.1229487732052803,0.017239509150385857
0.08679999882588163,0.12293492257595062,0.017387690022587776
0.08720000187167898,0.12292095273733139,0.017535846680402756
0.08759999764151871,0.12290686368942261,0.017683980986475945
0.08800000068731606,0.12289266288280487,0.017832089215517044
0.0883999964571558,0.12287833541631699,0.017980173230171204
0.08879999950295314,0.12286388874053955,0.018128231167793274
0.08920000254875049,0.12284933030605316,0.018276266753673553
0.08959999831859022,0.12283465266227722,0.018424276262521744
0.09000000136438757,0.13865943253040314,0.01857416145503521
0.0903999971342273,0.1544840782880783,0.018758617341518402
0.09080000018002465,0.15446898341178894,0.01894494891166687
0.091200003225822,0.15445375442504883,0.01913125067949295
0.09159999899566174,0.15443837642669678,0.01931752637028694
0.09200000204145908,0.1544228494167328,0.019503774121403694
0.09239999781129882,0.15440717339515686,0.01968999393284321
0.09280000085709617,0.154391348361969,0.019876185804605484
0.0931999966269359,0.1543753743171692,0.020062347874045372
0.09359999967273325,0.15435925126075745,0.02024848386645317
0.0940000027185306,0.15434297919273376,0.020434588193893433
0.09439999848837033,0.15432655811309814,0.020620666444301605
0.09480000153416768,0.15430998802185059,0.02080671489238739
0.09519999730400741,0.1542932689189911,0.020992733538150787
0.09560000034980476,0.15427640080451965,0.021178722381591797
0.09600000339560211,0.15425938367843628,0.021364683285355568
0.09639999916544184,0.15424221754074097,0.021550612524151802
0.09680000221123919,0.15422490239143372,0.021736513823270798
0.09719999798107892,0.15420743823051453,0.021922383457422256
0.09760000102687627,0.1541898250579834,0.022108223289251328
0.097999996796716,0.15417206287384033,0.02229403331875801
0.09839999984251335,0.15415415167808533,0.022479811683297157
0.0988000028883107,0.15413609147071838,0.022665560245513916
0.09919999865815043,0.1541178822517395,0.022851277142763138
0.09960000170394778,0.15409952402114868,0.023036964237689972
0.09999999747378752,0.15408103168010712,0.02322261780500412
0.10040000051958486,0.15406237542629242,0.02340824156999588
0.10080000356538221,0.15404358506202698,0.023593831807374954
0.10119999933522195,0.1540246307849884,0.02377939224243164
0.1016000023810193,0.1540055274963379,0.02396491914987564
0.10199999815085903,0.15398629009723663,0.024150414392352104
0.10240000119665638,0.15396688878536224,0.02433587796986103
0.10279999696649611,0.1539473533630371,0.02452130801975727
0.10320000001229346,0.15392765402793884,0.024706706404685974
0.1036000030580908,0.15390782058238983,0.024892069399356842
0.10399999882793054,0.1538878232240677,0.025077400729060173
0.10440000187372789,0.1538676917552948,0.025262700393795967
0.10479999764356762,0.15384741127490997,0.025447964668273926
0.10520000068936497,0.1538269817829132,0.0256331954151392
0.1055999964592047,0.1538064032793045,0.025818392634391785
0.10599999950500205,0.15378566086292267,0.026003556326031685
0.1064000025507994,0.1537647843360901,0.02618868462741375
0.10679999832063913,0.15374375879764557,0.02637377940118313
0.10720000136643648,0.1537225991487503,0.02655883878469467
0.10759999713627622,0.1537012755870819,0.02674386464059353
0.10800000018207356,0.15367980301380157,0.02692885510623455
0.10840000322787091,0.1536581814289093,0.027113810181617737
0.10879999899771065,0.15363642573356628,0.027298729866743088
0.109200002043508,0.15361450612545013,0.027483614161610603
0.10959999781334773,0.15359245240688324,0.027668464928865433
0.11000000085914508,0.16960620880126953,0.027855224907398224
0.11039999662898481,0.18561981618404388,0.028076928108930588
0.11079999967478216,0.1855972558259964,0.028300542384386063
0.1112000027205795,0.18557453155517578,0.028524117544293404
0.11159999849041924,0.18555162847042084,0.02874765358865261
0.11200000153621659,0.18552853167057037,0.028971152380108833
0.11239999730605632,0.18550527095794678,0.029194610193371773
0.11280000035185367,0.18548183143138885,0.029418030753731728
0.11320000339765102,0.1854581981897354,0.0296414103358984
0.11359999916749075,0.18543440103530884,0.029864750802516937
0.1140000022132881,0.18541041016578674,0.03008805215358734
0.11439999798312783,0.18538625538349152,0.03031131438910961
0.11480000102892518,0.18536192178726196,0.03053453378379345
0.11519999679876491,0.18533740937709808,0.030757714062929153
0.11559999984456226,0.18531270325183868,0.030980855226516724
0.11600000289035961,0.18528783321380615,0.03120395354926586
0.11639999866019934,0.1852627843618393,0.031427010893821716
0.11680000170599669,0.1852375566959381,0.03165002912282944
0.11719999747583643,0.1852121353149414,0.03187300264835358
0.11760000052163377,0.18518655002117157,0.03209593519568443
0.11800000356743112,0.1851607859134674,0.032318826764822006
0.11839999933727086,0.18513484299182892,0.032541677355766296
0.1188000023830682,0.1851087212562561,0.032764483243227005
0.11919999815290794,0.18508242070674896,0.03298724815249443
0.11960000119870529,0.1850559413433075,0.033209968358278275
0.11999999696854502,0.1850292831659317,0.033432647585868835
0.12040000001434237,0.18500244617462158,0.033655282109975815
0.12080000306013972,0.18497543036937714,0.03387787565588951
0.12119999882997945,0.18494825065135956,0.034100424498319626
0.1216000018757768,0.18492087721824646,0.03432292863726616
0.12199999764561653,0.18489332497119904,0.03454538807272911
0.12240000069141388,0.18486560881137848,0.03476780280470848
0.12280000373721123,0.1848376989364624,0.03499017655849457
0.12320000678300858,0.184809610247612,0.035212501883506775
0.1235999952768907,0.18478135764598846,0.0354347825050354
0.12399999832268804,0.1847529262304306,0.03565702214837074
0.12440000136848539,0.18472430109977722,0.035879213362932205
0.12480000441428274,0.1846955120563507,0.03610135614871979
0.12519999290816486,0.18466654419898987,0.03632345795631409
0.1255999959539622,0.1846373975276947,0.036545511335134506
0.12599999899975955,0.1846080720424652,0.036767520010471344
0.1264000020455569,0.1845785677433014,0.0369894802570343
0.12680000509135425,0.18454888463020325,0.03721139580011368
0.12719999358523637,0.18451903760433197,0.037433262914419174
0.12759999663103372,0.18448899686336517,0.03765508532524109
0.12799999967683107,0.18445877730846405,0.037876859307289124
0.12840000272262841,0.1844283938407898,0.03809858486056328
0.12880000576842576,0.1843978315591812,0.03832026198506355
0.12919999426230788,0.1843670755624771,0.038541894406080246
0.12959999730810523,0.18433615565299988,0.03876347467303276
0.13000000035390258,0.20054440200328827,0.03898700699210167
0.13040000339969993,0.21675245463848114,0.039245862513780594
0.13080000644549727,0.21672095358371735,0.039506666362285614
0.1311999949393794,0.21668924391269684,0.039767418056726456
0.13159999798517674,0.21665732562541962,0.04002811759710312
0.1320000010309741,0.21662519872188568,0.040288764983415604
0.13240000407677144,0.21659286320209503,0.04054936021566391
0.1328000071225688,0.21656031906604767,0.040809907019138336
0.1331999956164509,0.2165275663137436,0.041070397943258286
0.13359999866224825,0.2164946049451828,0.041330840438604355
0.1340000017080456,0.2164614349603653,0.04159122705459595
0.13440000475384295,0.21642805635929108,0.04185156151652336
0.13479999324772507,0.21639448404312134,0.0421118400990963
0.13519999629352242,0.2163606882095337,0.042372070252895355
0.13559999933931977,0.21632668375968933,0.042632244527339935
