time[s],iL[A],v out[V]
0.0,0.0,0.0
0.00040000000467443897,0.0,0.0
0.0008000000093488779,0.0,0.0
0.0012000000424450263,0.0,0.0
0.0016000000186977559,0.0,0.0
0.0019999999949504854,0.0,0.0
0.0024000000848900527,0.0,0.0
0.0027999999474559445,0.0,0.0
0.0032000000373955118,0.0,0.0
0.0035999998999614036,0.0,0.0
0.003999999989900971,0.0,0.0
0.004399999852466863,0.0,0.0
0.004800000169780105,0.0,0.0
0.005200000032345997,0.0,0.0
0.005599999894911889,0.0,0.0
0.006000000212225132,0.0,0.0
0.0064000000747910235,0.0,0.0
0.006799999937356915,0.0,0.0
0.007199999799922807,0.0,0.0
0.00760000011723605,0.0,0.0
0.007999999979801942,0.0,0.0
0.008400000297115184,0.0,0.0
0.008799999704933725,0.0,0.0
0.009200000022246968,0.0,0.0
0.00960000033956021,0.0,0.0
0.009999999747378752,0.054941292852163315,2.2867518055136316e-05
0.010400000064691994,0.10988253355026245,0.00013318724813871086
0.010800000382005237,0.10988236963748932,0.0002663684426806867
0.011199999789823778,0.10988210886716843,0.0003995428851339966
0.01160000010713702,0.10988172888755798,0.0005327105172909796
0.012000000424450263,0.10988125205039978,0.0006658711354248226
0.012399999832268804,0.10988066345453262,0.000799024710431695
0.012800000149582047,0.1098799780011177,0.0009321710094809532
0.013199999557400588,0.10987917333841324,0.0010653099743649364
0.01359999987471383,0.10987827181816101,0.0011984413722530007
0.014000000192027073,0.10987725853919983,0.0013315652031451464
0.014399999599845614,0.10987614095211029,0.0014646813506260514
0.014799999917158857,0.1098749116063118,0.0015977895818650723
0.0152000002344721,0.10987358540296555,0.001730889780446887
0.015600000551785342,0.10987214744091034,0.0018639819463714957
0.015999999959603883,0.10987059772014618,0.001997065730392933
0.016399999367422424,0.10986895114183426,0.0021301412489265203
0.01680000059423037,0.10986719280481339,0.0022632081527262926
0.01720000000204891,0.10986533015966415,0.0023962664417922497
0.01759999940986745,0.10986335575580597,0.002529315883293748
0.018000000636675395,0.10986128449440002,0.0026623564772307873
0.018400000044493936,0.10985910147428513,0.002795387990772724
0.018799999452312477,0.10985680669546127,0.0029284104239195585
0.01920000067912042,0.10985441505908966,0.0030614235438406467
0.019600000086938962,0.1098519116640091,0.003194427350535989
0.019999999494757503,0.10984930396080017,0.0033274213783442974
0.020400000721565448,0.10984659194946289,0.003460405860096216
0.02080000012938399,0.10984376817941666,0.0035933805629611015
0.02119999953720253,0.10984084010124207,0.0037263452541083097
0.021600000764010474,0.10983780771493912,0.003859299933537841
0.022000000171829015,0.10983466356992722,0.003992244601249695
0.022399999579647556,0.10983141511678696,0.004125178791582584
0.0228000008064555,0.10982806235551834,0.004258102271705866
0.02320000021427404,0.10982460528612137,0.004391015507280827
0.023599999622092582,0.10982103645801544,0.004523918032646179
0.024000000848900527,0.10981736332178116,0.004656809847801924
0.024400000256719068,0.10981358587741852,0.004789690487086773
0.02479999966453761,0.10980970412492752,0.004922559950500727
0.025200000891345553,0.10980571061372757,0.005055418238043785
0.025600000299164094,0.10980161279439926,0.005188265349715948
0.025999999706982635,0.1097974106669426,0.005321100819855928
0.026399999114801176,0.10979309678077698,0.005453924648463726
0.02680000034160912,0.1097886860370636,0.005586736835539341
0.02719999974942766,0.10978416353464127,0.005719537381082773
0.027599999157246202,0.10977952927350998,0.0058523258194327354
0.028000000384054147,0.10977479815483093,0.005985102150589228
0.028399999791872688,0.10976995527744293,0.006117865908890963
0.02879999919969123,0.10976500809192657,0.0062506175599992275
0.029200000426499173,0.10975995659828186,0.0063833571039140224
0.029599999834317714,0.10975479334592819,0.006516083609312773
0.029999999242136255,0.16409823298454285,0.0066711739636957645
0.0304000004689442,0.21844151616096497,0.006913248915225267
0.030800001695752144,0.2184358686208725,0.007177681662142277
0.031200001103570685,0.2184300273656845,0.007442094385623932
0.031600000511389226,0.2184239625930786,0.007706487085670233
0.03199999991920777,0.2184177041053772,0.007970859296619892
0.03239999932702631,0.21841120719909668,0.008235211484134197
0.03279999873484485,0.21840451657772064,0.008499542251229286
0.0332000017806422,0.2183976173400879,0.008763852529227734
0.03360000118846074,0.21839049458503723,0.009028141386806965
0.03400000059627928,0.21838316321372986,0.00929240882396698
0.03440000000409782,0.21837562322616577,0.009556653909385204
0.03479999941191636,0.21836787462234497,0.009820877574384212
0.0351999988197349,0.21835991740226746,0.010085077956318855
0.03559999822755344,0.21835173666477203,0.010349256917834282
0.03600000127335079,0.2183433622121811,0.010613412596285343
0.03640000068116933,0.21833476424217224,0.010877544991672039
0.03680000008898787,0.21832595765590668,0.01114165410399437
0.03719999949680641,0.2183169424533844,0.01140573900192976
0.037599998904624954,0.2183077037334442,0.011669800616800785
0.037999998312443495,0.21829825639724731,0.01193383801728487
0.03840000135824084,0.2182886153459549,0.012197851203382015
0.038800000766059384,0.21827875077724457,0.01246184017509222
0.039200000173877925,0.21826867759227753,0.01272580400109291
0.039599999581696466,0.21825838088989258,0.012989741750061512
0.03999999898951501,0.2182478904724121,0.013253655284643173
0.04039999839733355,0.21823717653751373,0.013517542742192745
0.040800001443130895,0.21822626888751984,0.013781404122710228
0.041200000850949436,0.21821513772010803,0.014045239426195621
0.04160000025876798,0.21820378303527832,0.014309048652648926
0.04199999966658652,0.2181922346353531,0.014572830870747566
0.04239999907440506,0.21818047761917114,0.014836586080491543
0.0427999984822236,0.2181684970855713,0.015100314281880856
0.04320000152802095,0.21815630793571472,0.015364015474915504
0.04360000093583949,0.21814391016960144,0.01562768779695034
0.04400000034365803,0.21813130378723145,0.015891334041953087
0.04439999975147657,0.21811848878860474,0.016154950484633446
0.04479999915929511,0.2181054651737213,0.016418538987636566
0.04519999856711365,0.21809221804141998,0.016682099550962448
0.045600001612911,0.21807876229286194,0.016945630311965942
0.04600000102072954,0.21806511282920837,0.01720913127064705
0.04640000042854808,0.2180512398481369,0.017472604289650917
0.046799999836366624,0.21803715825080872,0.017736045643687248
0.047199999244185165,0.21802285313606262,0.01799945905804634
0.047599998652003706,0.218008354306221,0.018262840807437897
0.048000001697801054,0.2179936319589615,0.018526192754507065
0.048400001105619594,0.21797871589660645,0.018789513036608696
0.048800000513438135,0.2179635763168335,0.01905280351638794
0.049199999921256676,0.21794822812080383,0.019316062331199646
0.04959999932907522,0.21793267130851746,0.019579289481043816
0.04999999873689376,0.27171605825424194,0.019864412024617195
0.050400001782691106,0.32549917697906494,0.020236067473888397
0.05080000119050965,0.3254828155040741,0.020629610866308212
0.05120000059832819,0.3254661560058594,0.021023117005825043
0.05160000000614673,0.3254491686820984,0.02141658216714859
0.05199999941396527,0.3254318833351135,0.021810006350278854
0.05239999882178381,0.3254142999649048,0.022203391417860985
0.05279999822960235,0.3253963589668274,0.02259673736989498
0.0532000012753997,0.3253781199455261,0.022990040481090546
0.05360000068321824,0.325359582901001,0.023383302614092827
0.05400000009103678,0.32534071803092957,0.023776523768901825
0.05439999949885532,0.3253215253353119,0.02416970208287239
0.054799998906673864,0.32530203461647034,0.024562837556004524
0.055199998314492404,0.3252822458744049,0.024955930188298225
0.05560000136028975,0.3252621293067932,0.025348979979753494
0.05600000076810829,0.32524168491363525,0.02574198693037033
0.056400000175926834,0.3252209424972534,0.026134949177503586
0.056799999583745375,0.3251998722553253,0.02652786672115326
0.057199998991563916,0.32517847418785095,0.02692073956131935
0.05759999839938246,0.3251567780971527,0.02731356769800186
0.058000001445179805,0.3251347839832306,0.02770634926855564
0.058400000852998346,0.3251124620437622,0.02809908613562584
0.05880000026081689,0.32508981227874756,0.028491776436567307
0.05919999966863543,0.32506686449050903,0.028884420171380043
0.05959999907645397,0.32504361867904663,0.02927701734006405
0.05999999848427251,0.32502004504203796,0.029669566079974174
0.06040000153006986,0.32499614357948303,0.03006206639111042
0.0608000009378884,0.3249719440937042,0.030454520136117935
0.06120000034570694,0.32494741678237915,0.03084692545235157
0.06160000339150429,0.3249225914478302,0.031239280477166176
0.06199999916134402,0.324897438287735,0.03163158521056175
0.06240000220714137,0.3248719871044159,0.0320238433778286
0.0627999979769811,0.32484620809555054,0.032416049391031265
0.06320000102277845,0.3248201012611389,0.03280820697546005
0.06359999679261819,0.3247936964035034,0.03320031240582466
0.06399999983841553,0.32476699352264404,0.03359236568212509
0.06440000288421288,0.3247399628162384,0.03398436680436134
0.06479999865405262,0.3247126042842865,0.03437631577253342
0.06520000169984996,0.3246849477291107,0.03476821631193161
0.0655999974696897,0.32465699315071106,0.03516006097197533
0.06600000051548705,0.32462871074676514,0.035551853477954865
0.0664000035612844,0.32460010051727295,0.035943593829870224
0.06679999933112413,0.3245711922645569,0.03633527830243111
0.06720000237692147,0.32454195618629456,0.03672690689563751
0.06759999814676121,0.32451242208480835,0.03711848333477974
0.06800000119255856,0.32448258996009827,0.03751000389456749
0.06839999696239829,0.3244524300098419,0.03790147230029106
0.06880000000819564,0.3244219422340393,0.03829288110136986
0.06920000305399299,0.3243911564350128,0.03868423402309418
0.06959999882383272,0.32436004281044006,0.03907553106546402
0.07000000186963007,0.37709733843803406,0.039487868547439575
0.0703999976394698,0.429834246635437,0.03998587653040886
0.07080000068526715,0.4298020601272583,0.04050491750240326
0.07119999645510688,0.42976945638656616,0.041023895144462585
0.07159999950090423,0.4297364056110382,0.04154280573129654
0.07200000254670158,0.4297029674053192,0.04206164926290512
0.07239999831654131,0.4296691119670868,0.04258042946457863
0.07280000136233866,0.42963483929634094,0.043099142611026764
0.0731999971321784,0.42960014939308167,0.04361778870224953
0.07360000017797574,0.42956507205963135,0.04413636773824692
0.07400000322377309,0.4295295476913452,0.044654879719018936
0.07439999899361283,0.42949360609054565,0.045173320919275284
0.07480000203941017,0.42945727705955505,0.04569169506430626
0.07519999780924991,0.42942050099372864,0.046209998428821564
0.07560000085504726,0.4293833374977112,0.046728234738111496
0.07599999662488699,0.4293457269668579,0.04724639654159546
0.07639999967068434,0.4293077290058136,0.04776449128985405
0.07680000271648169,0.42926931381225586,0.04828251153230667
0.07719999848632142,0.4292304813861847,0.04880046099424362
0.07760000153211877,0.4291912317276001,0.0493183359503746
0.0779999973019585,0.4291515648365021,0.049836140125989914
0.07840000034775585,0.429111510515213,0.050353873521089554
0.0788000033935532,0.42907100915908813,0.050871528685092926
0.07919999916339293,0.42903009057044983,0.05138911306858063
0.07960000220919028,0.4289887845516205,0.05190661922097206
0.07999999797903001,0.4289470613002777,0.052424050867557526
0.08040000102482736,0.4289049208164215,0.05294140800833702
0.0807999967946671,0.4288623631000519,0.05345868691802025
0.08119999984046444,0.4288193881511688,0.05397588759660721
0.08160000288626179,0.42877599596977234,0.0544930137693882
0.08199999865610152,0.4287321865558624,0.05501006171107292
0.08240000170189887,0.4286879897117615,0.05552703142166138
0.0827999974717386,0.4286433458328247,0.056043919175863266
0.08320000051753595,0.4285983145236969,0.056560732424259186
0.0836000035633333,0.42855286598205566,0.05707746371626854
0.08399999933317304,0.4285069704055786,0.05759411305189133
0.08440000237897038,0.4284606873989105,0.05811068043112755
0.08479999814881012,0.4284140169620514,0.0586271695792675
0.08520000119460747,0.42836689949035645,0.05914357677102089
0.0855999969644472,0.42831936478614807,0.05965989828109741
0.08600000001024455,0.42827144265174866,0.06017614156007767
0.0864000030560419,0.4282231032848358,0.06069229915738106
0.08679999882588163,0.42817434668540955,0.061208371073007584
0.08720000187167898,0.42812517285346985,0.06172436103224754
0.08759999764151871,0.4280755817890167,0.06224026530981064
0.08800000068731606,0.42802557349205017,0.06275608390569687
0.0883999964571558,0.4279751777648926,0.06327182054519653
0.08879999950295314,0.42792433500289917,0.06378746777772903
0.08920000254875049,0.4278731048107147,0.06430302560329437
0.08959999831859022,0.42782145738601685,0.06481849402189255
0.09000000136438757,0.4794450104236603,0.0653541088104248
0.0903999971342273,0.5310680866241455,0.06597445160150528
0.09080000018002465,0.5310150384902954,0.06661491841077805
0.091200003225822,0.5309615135192871,0.06725529581308365
0.09159999899566174,0.5309074521064758,0.06789557635784149
0.09200000204145908,0.5308529138565063,0.06853576004505157
0.09239999781129882,0.5307977795600891,0.0691758468747139
0.09280000085709617,0.5307422280311584,0.06981583684682846
0.0931999966269359,0.53068608045578,0.07045572996139526
0.09359999967273325,0.5306294560432434,0.07109551876783371
0.0940000027185306,0.5305723547935486,0.0717352032661438
0.09439999848837033,0.5305147171020508,0.07237479835748672
0.09480000153416768,0.53045654296875,0.0730142816901207
0.09519999730400741,0.530397891998291,0.07365366816520691
0.09560000034980476,0.530338704586029,0.07429295778274536
0.09600000339560211,0.5302789807319641,0.07493213564157486
0.09639999916544184,0.530218780040741,0.0755712166428566
0.09680000221123919,0.5301581025123596,0.07621018588542938
0.09719999798107892,0.5300968885421753,0.0768490582704544
0.09760000102687627,0.530035138130188,0.07748781889677048
0.097999996796716,0.5299729108810425,0.07812647521495819
0.09839999984251335,0.529910147190094,0.07876502722501755
0.0988000028883107,0.5298468470573425,0.07940346747636795
0.09919999865815043,0.5297830700874329,0.08004180341959
0.09960000170394778,0.529718816280365,0.08068002760410309
0.09999999747378752,0.5296540260314941,0.08131814748048782
0.10040000051958486,0.5295886993408203,0.0819561555981636
0.10080000356538221,0.5295228958129883,0.08259405195713043
0.10119999933522195,0.5294565558433533,0.0832318365573883
0.1016000023810193,0.5293897390365601,0.08386950939893723
0.10199999815085903,0.5293223857879639,0.08450707048177719
0.10240000119665638,0.5292544960975647,0.0851445198059082
0.10279999696649611,0.5291861295700073,0.08578185737133026
0.10320000001229346,0.5291172862052917,0.08641907572746277
0.1036000030580908,0.5290478467941284,0.08705618977546692
0.10399999882793054,0.5289779901504517,0.08769317716360092
0.10440000187372789,0.5289075374603271,0.08833005279302597
0.10479999764356762,0.5288366675376892,0.08896680921316147
0.10520000068936497,0.5287652015686035,0.08960345387458801
0.1055999964592047,0.5286932587623596,0.090239979326725
0.10599999950500205,0.5286208391189575,0.09087638556957245
0.1064000025507994,0.5285478830337524,0.09151267260313034
0.10679999832063913,0.5284743905067444,0.09214884042739868
0.10720000136643648,0.5284004211425781,0.09278488159179688
0.10759999713627622,0.5283259749412537,0.09342081099748611
0.10800000018207356,0.5282509922981262,0.0940566137433052
0.10840000322787091,0.5281754732131958,0.09469229727983475
0.10879999899771065,0.5280994772911072,0.09532786160707474
0.109200002043508,0.5280229449272156,0.09596329927444458
0.10959999781334773,0.5279459357261658,0.09659861028194427
0.11000000085914508,0.578352689743042,0.09725310653448105
0.11039999662898481,0.6287589073181152,0.09799124300479889
0.11079999967478216,0.6286801695823669,0.09874855726957321
0.1112000027205795,0.6286008954048157,0.09950573742389679
0.11159999849041924,0.6285209655761719,0.10026279091835022
0.11200000153621659,0.6284404397010803,0.10101970285177231
0.11239999730605632,0.6283593773841858,0.10177648812532425
0.11280000035185367,0.628277599811554,0.10253313183784485
0.11320000339765102,0.6281952857971191,0.1032896414399147
0.11359999916749075,0.6281123757362366,0.10404600948095322
0.1140000022132881,0.6280288100242615,0.10480225086212158
0.11439999798312783,0.6279447078704834,0.10555834323167801
0.11480000102892518,0.6278599500656128,0.10631430149078369
0.11519999679876491,0.6277745962142944,0.10707011818885803
0.11559999984456226,0.6276886463165283,0.10782579332590103
0.11600000289035961,0.6276020407676697,0.10858133435249329
0.11639999866019934,0.6275148987770081,0.1093367263674736
0.11680000170599669,0.6274271011352539,0.11009197682142258
0.11719999747583643,0.6273387670516968,0.11084708571434021
0.11760000052163377,0.6272497773170471,0.1116020530462265
0.11800000356743112,0.6271601915359497,0.11235687136650085
0.11839999933727086,0.6270700097084045,0.11311154067516327
0.1188000023830682,0.6269791722297668,0.11386606842279434
0.11919999815290794,0.6268877983093262,0.11462045460939407
0.11960000119870529,0.6267958283424377,0.11537468433380127
0.11999999696854502,0.6267032027244568,0.11612876504659653
0.12040000001434237,0.6266099810600281,0.11688269674777985
0.12080000306013972,0.6265161633491516,0.11763648688793182
0.12119999882997945,0.6264218091964722,0.11839012056589127
0.1216000018757768,0.6263267397880554,0.11914360523223877
0.12199999764561653,0.6262311339378357,0.11989693343639374
0.12240000069141388,0.6261349320411682,0.12065011262893677
0.12280000373721123,0.626038134098053,0.12140313535928726
0.12320000678300858,0.6259406805038452,0.12215600907802582
0.1235999952768907,0.6258426308631897,0.12290872633457184
0.12399999832268804,0.6257440447807312,0.12366128712892532
0.12440000136848539,0.6256448030471802,0.12441368401050568
0.12480000441428274,0.6255449652671814,0.1251659393310547
0.12519999290816486,0.6254445314407349,0.12591801583766937
0.1255999959539622,0.6253435015678406,0.1266699582338333
0.12599999899975955,0.6252418756484985,0.12742172181606293
0.1264000020455569,0.6251396536827087,0.1281733363866806
0.12680000509135425,0.6250367760658264,0.12892478704452515
0.12719999358523637,0.6249333620071411,0.12967607378959656
0.12759999663103372,0.6248292922973633,0.13042719662189484
0.12799999967683107,0.6247246861457825,0.13117815554141998
0.12840000272262841,0.6246194243431091,0.1319289654493332
0.12880000576842576,0.624513566493988,0.13267959654331207
0.12919999426230788,0.6244071125984192,0.13343006372451782
0.12959999730810523,0.6243000626564026,0.13418036699295044
0.13000000035390258,0.6739161014556885,0.1349492371082306
0.13040000339969993,0.7235315442085266,0.1358010172843933
0.13080000644549727,0.7234225273132324,0.13667136430740356
0.1311999949393794,0.7233128547668457,0.1375415176153183
0.13159999798517674,0.7232024669647217,0.1384115070104599
0.1320000010309741,0.7230913639068604,0.13928131759166718
0.13240000407677144,0.7229796051979065,0.14015094935894012
0.1328000071225688,0.7228671312332153,0.14102040231227875
0.1331999956164509,0.7227540016174316,0.14188967645168304
0.13359999866224825,0.7226400971412659,0.14275877177715302
0.1340000017080456,0.7225255370140076,0.14362768828868866
0.13440000475384295,0.7224103212356567,0.14449642598628998
0.13479999324772507,0.7222943902015686,0.14536496996879578
0.13519999629352242,0.7221777439117432,0.14623335003852844
0.13559999933931977,0.7220603823661804,0.1471015363931656
0.1360000023851171,0.7219423651695251,0.14796952903270721
0.13640000543091446,0.7218236327171326,0.14883734285831451
0.13679999392479658,0.7217042446136475,0.1497049778699875
0.13719999697059393,0.721584141254425,0.15057241916656494
0.13760000001639128,0.7214633226394653,0.15143966674804688
0.13800000306218863,0.7213417887687683,0.15230673551559448
0.13840000610798597,0.7212195992469788,0.15317361056804657
