time[s],iL[A],v out[V]
0.0,0.0,0.0
0.00040000000467443897,0.0,0.0
0.0008000000093488779,0.0,0.0
0.0012000000424450263,0.0,0.0
0.0016000000186977559,0.0,0.0
0.0019999999949504854,0.0,0.0
0.0024000000848900527,0.0,0.0
0.0027999999474559445,0.0,0.0
0.0032000000373955118,0.0,0.0
0.0035999998999614036,0.0,0.0
0.003999999989900971,0.0,0.0
0.004399999852466863,0.0,0.0
0.004800000169780105,0.0,0.0
0.005200000032345997,0.0,0.0
0.005599999894911889,0.0,0.0
0.006000000212225132,0.0,0.0
0.0064000000747910235,0.0,0.0
0.006799999937356915,0.0,0.0
0.007199999799922807,0.0,0.0
0.00760000011723605,0.0,0.0
0.007999999979801942,0.0,0.0
0.008400000297115184,0.0,0.0
0.008799999704933725,0.0,0.0
0.009200000022246968,0.0,0.0
0.00960000033956021,0.02461652271449566,4.590683147398522e-06
0.009999999747378752,0.10461649298667908,8.291200356325135e-05
0.010400000064691994,0.184616357088089,0.00025819678558036685
0.010800000382005237,0.20923258364200592,0.0005072030471637845
0.011199999789823778,0.20923207700252533,0.0007607872830703855
0.01160000010713702,0.20923136174678802,0.0010143584804609418
0.012000000424450263,0.2092304527759552,0.0012679164065048099
0.012399999832268804,0.20922933518886566,0.001521460828371346
0.012800000149582047,0.2092280238866806,0.0017749913968145847
0.013199999557400588,0.20922648906707764,0.002028508111834526
0.01359999987471383,0.20922477543354034,0.002282010391354561
0.014000000192027073,0.20922283828258514,0.002535498235374689
0.014399999599845614,0.20922072231769562,0.002788971411064267
0.014799999917158857,0.20921838283538818,0.0030424294527620077
0.0152000002344721,0.20921584963798523,0.0032958723604679108
0.015600000551785342,0.20921310782432556,0.003549299668520689
0.015999999959603883,0.20921017229557037,0.0038027113769203424
0.016399999367422424,0.20920702815055847,0.00405610678717494
0.01680000059423037,0.20920367538928986,0.004309486597776413
0.01720000000204891,0.20920012891292572,0.004562849644571543
0.01759999940986745,0.20919637382030487,0.0048161959275603294
0.018000000636675395,0.2091924250125885,0.005069524981081486
0.018400000044493936,0.20918826758861542,0.005322837270796299
0.018799999452312477,0.20918390154838562,0.0055761318653821945
0.01920000067912042,0.2091793417930603,0.005829408764839172
0.019600000086938962,0.20917457342147827,0.0060826679691672325
0.019999999494757503,0.20916961133480072,0.006335909012705088
0.020400000721565448,0.20916444063186646,0.0065891314297914505
0.02080000012938399,0.20915906131267548,0.006842335220426321
0.02119999953720253,0.20915348827838898,0.007095520384609699
0.021600000764010474,0.20914772152900696,0.0073486859910190105
0.022000000171829015,0.20914173126220703,0.007601832505315542
0.022399999579647556,0.20913554728031158,0.00785495899617672
0.0228000008064555,0.20912916958332062,0.008108065463602543
0.02320000021427404,0.20912258327007294,0.0083611523732543
0.023599999622092582,0.20911578834056854,0.008614218793809414
0.024000000848900527,0.20910879969596863,0.008867264725267887
0.024400000256719068,0.209101602435112,0.009120289236307144
0.02479999966453761,0.20909421145915985,0.00937329325824976
0.025200000891345553,0.209086611866951,0.009626274928450584
0.025600000299164094,0.2090788036584854,0.009879236109554768
0.025999999706982635,0.20907080173492432,0.01013217493891716
0.026399999114801176,0.2090625911951065,0.010385091416537762
0.02680000034160912,0.20905418694019318,0.010637986473739147
0.02719999974942766,0.20904557406902313,0.010890858247876167
0.027599999157246202,0.20903675258159637,0.011143706738948822
0.028000000384054147,0.2090277373790741,0.011396532878279686
0.028399999791872688,0.2090185284614563,0.011649335734546185
0.02879999919969123,0.2090090960264206,0.011902115307748318
0.029200000426499173,0.20899948477745056,0.012154870666563511
0.029599999834317714,0.2285643368959427,0.01241050474345684
0.029999999242136255,0.3085542917251587,0.012735421769320965
0.0304000004689442,0.3885439336299896,0.013157278299331665
0.030800001695752144,0.4081079065799713,0.013648408465087414
0.031200001103570685,0.4080967903137207,0.014142404310405254
0.031600000511389226,0.40808528661727905,0.01463636290282011
0.03199999991920777,0.408073365688324,0.015130282379686832
0.03239999932702631,0.40806105732917786,0.015624163672327995
0.03279999873484485,0.4080483615398407,0.0161180067807436
0.0332000017806422,0.4080352783203125,0.01661180891096592
0.03360000118846074,0.4080217778682709,0.017105571925640106
0.03400000059627928,0.4080079197883606,0.01759929396212101
0.03440000000409782,0.4079936146736145,0.01809297502040863
0.03479999941191636,0.40797895193099976,0.018586615100502968
0.0351999988197349,0.40796390175819397,0.019080212339758873
0.03559999822755344,0.40794843435287476,0.019573766738176346
0.03600000127335079,0.4079325795173645,0.020067280158400536
0.03640000068116933,0.4079163074493408,0.020560748875141144
0.03680000008898787,0.4078996777534485,0.02105417475104332
0.03719999949680641,0.4078826308250427,0.021547554060816765
0.037599998904624954,0.4078651964664459,0.022040890529751778
0.037999998312443495,0.4078473746776581,0.02253418229520321
0.03840000135824084,0.4078291356563568,0.02302742563188076
0.038800000766059384,0.4078105390071869,0.02352062426507473
0.039200000173877925,0.40779152512550354,0.02401377633213997
0.039599999581696466,0.40777209401130676,0.024506881833076477
0.03999999898951501,0.40775230526924133,0.024999938905239105
0.04039999839733355,0.4077320992946625,0.025492947548627853
0.040800001443130895,0.4077115058898926,0.02598590776324272
0.041200000850949436,0.40769052505493164,0.02647881954908371
0.04160000025876798,0.40766915678977966,0.02697168104350567
0.04199999966658652,0.40764737129211426,0.0274644922465086
0.04239999907440506,0.4076251983642578,0.0279572531580925
0.0427999984822236,0.4076026380062103,0.02844996377825737
0.04320000152802095,0.4075796902179718,0.028942622244358063
0.04360000093583949,0.40755632519721985,0.029435228556394577
0.04400000034365803,0.40753260254859924,0.029927782714366913
0.04439999975147657,0.4075084626674652,0.03042028471827507
0.04479999915929511,0.40748390555381775,0.0309127327054739
0.04519999856711365,0.40745899081230164,0.03140512481331825
0.045600001612911,0.4074336588382721,0.031897466629743576
0.04600000102072954,0.4074079692363739,0.03238975256681442
0.04640000042854808,0.4073818325996399,0.03288198262453079
0.046799999836366624,0.40735533833503723,0.033374156802892685
0.047199999244185165,0.40732845664024353,0.0338662713766098
0.047599998652003706,0.4073011577129364,0.03435833379626274
0.048000001697801054,0.40727347135543823,0.034850336611270905
0.048400001105619594,0.407245397567749,0.03534228354692459
0.048800000513438135,0.4072169363498688,0.0358341708779335
0.049199999921256676,0.4071880578994751,0.036326002329587936
0.04959999932907522,0.42302125692367554,0.03681967779994011
0.04999999873689376,0.5029915571212769,0.037379100918769836
0.050400001782691106,0.5829614400863647,0.038035426288843155
0.05080000119050965,0.5987931489944458,0.038757484406232834
0.05120000059832819,0.5987618565559387,0.039481379091739655
0.05160000000614673,0.5987299680709839,0.040205199271440506
0.05199999941396527,0.5986975431442261,0.04092894867062569
0.05239999882178381,0.5986645221710205,0.0416526198387146
0.05279999822960235,0.5986309051513672,0.04237621650099754
0.0532000012753997,0.5985966920852661,0.04309973865747452
0.05360000068321824,0.5985619425773621,0.043823178857564926
0.05400000009103678,0.5985265970230103,0.044546544551849365
0.05439999949885532,0.5984906554222107,0.045269835740327835
0.054799998906673864,0.5984541177749634,0.04599304124712944
0.055199998314492404,0.5984170436859131,0.046716172248125076
0.05560000136028975,0.598379373550415,0.047439221292734146
0.05600000076810829,0.598341166973114,0.04816218838095665
0.056400000175926834,0.5983023643493652,0.04888507351279259
0.056799999583745375,0.5982629656791687,0.04960787668824196
0.057199998991563916,0.5982229709625244,0.050330597907304764
0.05759999839938246,0.5981824398040771,0.051053233444690704
0.058000001445179805,0.5981412529945374,0.05177578702569008
0.058400000852998346,0.5980995893478394,0.05249825119972229
0.05880000026081689,0.5980572700500488,0.053220633417367935
0.05919999966863543,0.5980144143104553,0.05394292622804642
0.05959999907645397,0.5979709625244141,0.054665133357048035
0.05999999848427251,0.5979269742965698,0.05538725480437279
0.06040000153006986,0.5978823900222778,0.05610928311944008
0.0608000009378884,0.5978372097015381,0.056831225752830505
0.06120000034570694,0.5977914333343506,0.05755307525396347
0.06160000339150429,0.5977451205253601,0.05827483534812927
0.06199999916134402,0.5976982116699219,0.05899650231003761
0.06240000220714137,0.5976507067680359,0.05971807986497879
0.0627999979769811,0.5976026654243469,0.060439564287662506
0.06320000102277845,0.5975540280342102,0.06116095185279846
0.06359999679261819,0.5975047945976257,0.061882246285676956
0.06399999983841553,0.5974550247192383,0.06260345131158829
0.06440000288421288,0.5974046587944031,0.06332455575466156
0.06479999865405262,0.5973536968231201,0.06404556334018707
0.06520000169984996,0.5973021388053894,0.06476647406816483
0.0655999974696897,0.5972500443458557,0.06548728793859482
0.06600000051548705,0.5971973538398743,0.06620799750089645
0.0664000035612844,0.5971441268920898,0.06692861765623093
0.06679999933112413,0.5970903038978577,0.06764913350343704
0.06720000237692147,0.5970358848571777,0.0683695450425148
0.06759999814676121,0.5969809293746948,0.0690898597240448
0.06800000119255856,0.5969253182411194,0.06981007754802704
0.06839999696239829,0.5968692302703857,0.07053018361330032
0.06880000000819564,0.5968124866485596,0.07125019282102585
0.06920000305399299,0.5967552065849304,0.07197009027004242
0.06959999882383272,0.6119970083236694,0.0726916640996933
0.07000000186963007,0.6919385194778442,0.07347838580608368
0.0703999976394698,0.7718794345855713,0.07436196506023407
0.07080000068526715,0.7871192097663879,0.07531068474054337
0.07119999645510688,0.7870585918426514,0.07626105844974518
0.07159999950090423,0.7869971990585327,0.07721130549907684
0.07200000254670158,0.786935031414032,0.07816144078969955
0.07239999831654131,0.786872148513794,0.07911144942045212
0.07280000136233866,0.7868084907531738,0.08006133884191513
0.0731999971321784,0.7867440581321716,0.081011101603508
0.07360000017797574,0.7866788506507874,0.08196073770523071
0.07400000322377309,0.786612868309021,0.08291025459766388
0.07439999899361283,0.7865461707115173,0.0838596373796463
0.07480000203941017,0.7864786982536316,0.08480890095233917
0.07519999780924991,0.7864105105400085,0.0857580304145813
0.07560000085504726,0.7863414883613586,0.08670703321695328
0.07599999662488699,0.7862717509269714,0.08765590190887451
0.07639999967068434,0.7862012386322021,0.0886046439409256
0.07680000271648169,0.7861300110816956,0.08955325186252594
0.07719999848632142,0.7860579490661621,0.09050173312425613
0.07760000153211877,0.7859851717948914,0.09145007282495499
0.0779999973019585,0.7859116792678833,0.0923982784152031
0.07840000034775585,0.7858373522758484,0.09334635734558105
0.0788000033935532,0.7857623100280762,0.09429428726434708
0.07919999916339293,0.7856864929199219,0.09524209052324295
0.07960000220919028,0.7856099009513855,0.09618974477052689
0.07999999797903001,0.7855325937271118,0.09713727235794067
0.08040000102482736,0.785454511642456,0.09808465093374252
0.0807999967946671,0.7853756546974182,0.09903189539909363
0.08119999984046444,0.7852960824966431,0.0999789908528328
0.08160000288626179,0.7852156758308411,0.10092594474554062
0.08199999865610152,0.7851345539093018,0.1018727570772171
0.08240000170189887,0.7850527167320251,0.10281942039728165
0.0827999974717386,0.7849700450897217,0.10376594215631485
0.08320000051753595,0.7848866581916809,0.10471232235431671
0.0836000035633333,0.7848024964332581,0.10565854609012604
0.08399999933317304,0.7847176194190979,0.10660462081432343
0.08440000237897038,0.7846319675445557,0.10755055397748947
0.08479999814881012,0.7845455408096313,0.10849633067846298
0.08520000119460747,0.784458339214325,0.10944195836782455
0.0855999969644472,0.7843704223632812,0.11038743704557419
0.08600000001024455,0.7842817306518555,0.11133275926113129
0.0864000030560419,0.7841923236846924,0.11227793246507645
0.08679999882588163,0.7841020822525024,0.11322294175624847
0.08720000187167898,0.7840111255645752,0.11416780203580856
0.08759999764151871,0.7839194536209106,0.11511250585317612
0.08800000068731606,0.7838269472122192,0.11605705320835114
0.0883999964571558,0.7837337255477905,0.11700143665075302
0.08879999950295314,0.7836397290229797,0.11794566363096237
0.08920000254875049,0.7835450172424316,0.11888973414897919
0.08959999831859022,0.7960653901100159,0.11983484774827957
0.09000000136438757,0.8759691119194031,0.12084236741065979
0.0903999971342273,0.9558719992637634,0.12194668501615524
0.09080000018002465,0.9683898091316223,0.12311340868473053
0.091200003225822,0.9682908654212952,0.1242811530828476
0.09159999899566174,0.9681909680366516,0.12544873356819153
0.09200000204145908,0.9680901169776917,0.12661612033843994
0.09239999781129882,0.9679883718490601,0.12778332829475403
0.09280000085709617,0.9678856730461121,0.12895037233829498
0.0931999966269359,0.9677820801734924,0.13011722266674042
0.09359999967273325,0.9676775336265564,0.13128389418125153
0.0940000027185306,0.967572033405304,0.13245037198066711
0.09439999848837033,0.9674655795097351,0.13361667096614838
0.09480000153416768,0.9673582315444946,0.1347827911376953
0.09519999730400741,0.9672499299049377,0.13594871759414673
0.09560000034980476,0.9671407341957092,0.13711445033550262
0.09600000339560211,0.9670305252075195,0.1382800042629242
0.09639999916544184,0.966919481754303,0.13944536447525024
0.09680000221123919,0.9668074250221252,0.14061053097248077
0.09719999798107892,0.9666944742202759,0.14177550375461578
0.09760000102687627,0.9665805697441101,0.14294028282165527
0.097999996796716,0.9664657711982727,0.14410486817359924
0.09839999984251335,0.9663500189781189,0.1452692449092865
0.0988000028883107,0.9662333726882935,0.14643344283103943
0.09919999865815043,0.9661157131195068,0.14759743213653564
0.09960000170394778,0.9659972190856934,0.14876122772693634
0.09999999747378752,0.9658777117729187,0.14992481470108032
0.10040000051958486,0.9657573103904724,0.15108820796012878
0.10080000356538221,0.9656359553337097,0.15225139260292053
0.10119999933522195,0.9655137062072754,0.15341438353061676
0.1016000023810193,0.9653905034065247,0.15457715094089508
0.10199999815085903,0.9652664065361023,0.15573972463607788
0.10240000119665638,0.9651412963867188,0.15690208971500397
0.10279999696649611,0.9650153517723083,0.15806424617767334
0.10320000001229346,0.9648883938789368,0.159226194024086
0.1036000030580908,0.9647606015205383,0.16038793325424194
0.10399999882793054,0.9646317958831787,0.16154946386814117
0.10440000187372789,0.9645020961761475,0.1627107709646225
0.10479999764356762,0.9643714427947998,0.1638718694448471
0.10520000068936497,0.9642398953437805,0.1650327444076538
0.1055999964592047,0.9641073942184448,0.1661934107542038
0.10599999950500205,0.9639739990234375,0.16735386848449707
0.1064000025507994,0.9638396501541138,0.16851408779621124
0.10679999832063913,0.9637043476104736,0.1696740984916687
0.10720000136643648,0.9635681509971619,0.17083388566970825
0.10759999713627622,0.9634310603141785,0.1719934642314911
0.10800000018207356,0.9632929563522339,0.17315280437469482
0.10840000322787091,0.9631540179252625,0.17431192100048065
0.10879999899771065,0.9630140662193298,0.17547081410884857
0.109200002043508,0.9628732204437256,0.17662948369979858
0.10959999781334773,0.9727368950843811,0.17778868973255157
0.11000000085914508,1.0525941848754883,0.17900751531124115
0.11039999662898481,1.1324504613876343,0.18032306432724
0.11079999967478216,1.1423109769821167,0.1816982477903366
0.1112000027205795,1.1421650648117065,0.18307392299175262
0.11159999849041924,1.1420180797576904,0.18444937467575073
0.11200000153621659,1.1418700218200684,0.18582457304000854
0.11239999730605632,1.1417207717895508,0.18719951808452606
0.11280000035185367,1.1415704488754272,0.18857422471046448
0.11320000339765102,1.1414190530776978,0.1899486780166626
0.11359999916749075,1.1412665843963623,0.19132287800312042
0.1140000022132881,1.1411129236221313,0.19269683957099915
0.11439999798312783,1.1409581899642944,0.19407053291797638
0.11480000102892518,1.1408023834228516,0.19544397294521332
0.11519999679876491,1.1406455039978027,0.19681715965270996
0.11559999984456226,1.140487551689148,0.1981900930404663
0.11600000289035961,1.1403284072875977,0.19956275820732117
0.11639999866019934,1.1401681900024414,0.20093517005443573
0.11680000170599669,1.1400068998336792,0.2023073136806488
0.11719999747583643,1.139844536781311,0.20367920398712158
0.11760000052163377,1.139681100845337,0.20505082607269287
0.11800000356743112,1.1395164728164673,0.20642217993736267
0.11839999933727086,1.1393507719039917,0.20779328048229218
0.1188000023830682,1.1391839981079102,0.209164097905159
0.11919999815290794,1.1390161514282227,0.21053464710712433
0.11960000119870529,1.1388471126556396,0.21190492808818817
0.11999999696854502,1.1386770009994507,0.21327494084835052
0.12040000001434237,1.1385058164596558,0.2146446853876114
0.12080000306013972,1.1383335590362549,0.21601414680480957
0.12119999882997945,1.138160228729248,0.21738332509994507
0.1216000018757768,1.1379857063293457,0.21875223517417908
0.12199999764561653,1.137810230255127,0.2201208621263504
0.12240000069141388,1.1376335620880127,0.22148922085762024
0.12280000373721123,1.1374558210372925,0.2228572964668274
0.12320000678300858,1.1372770071029663,0.22422507405281067
0.1235999952768907,1.1370971202850342,0.22559258341789246
0.12399999832268804,1.1369160413742065,0.22695979475975037
0.12440000136848539,1.136733889579773,0.2283267378807068
0.12480000441428274,1.1365506649017334,0.22969338297843933
0.12519999290816486,1.136366367340088,0.231059730052948
0.1255999959539622,1.1361809968948364,0.23242579400539398
0.12599999899975955,1.135994553565979,0.23379157483577728
0.1264000020455569,1.135806918144226,0.2351570576429367
0.12680000509135425,1.1356183290481567,0.23652224242687225
0.12719999358523637,1.135428547859192,0.23788712918758392
0.12759999663103372,1.135237693786621,0.2392517328262329
0.12799999967683107,1.1350457668304443,0.24061602354049683
0.12840000272262841,1.134852647781372,0.24198001623153687
0.12880000576842576,1.1346585750579834,0.24334371089935303
0.12919999426230788,1.1344633102416992,0.2447071075439453
0.12959999730810523,1.1420624256134033,0.24607065320014954
0.13000000035390258,1.221864938735962,0.24749137461185455
0.13040000339969993,1.3016663789749146,0.24900875985622406
0.13080000644549727,1.3092619180679321,0.250583291053772
0.1311999949393794,1.30906081199646,0.25215795636177063
0.13159999798517674,1.3088585138320923,0.2537323236465454
0.1320000010309741,1.3086549043655396,0.2553063631057739
0.13240000407677144,1.3084499835968018,0.2568800449371338
0.1328000071225688,1.3082438707351685,0.2584534287452698
0.1331999956164509,1.30803644657135,0.2600264847278595
0.13359999866224825,1.3078278303146362,0.26159921288490295
0.1340000017080456,1.3076179027557373,0.26317161321640015
0.13440000475384295,1.3074067831039429,0.2647436857223511
0.13479999324772507,1.3071943521499634,0.26631543040275574
0.13519999629352242,1.3069806098937988,0.26788681745529175
0.13559999933931977,1.3067656755447388,0.2694578766822815
0.1360000023851171,1.3065495491027832,0.271028608083725
0.13640000543091446,1.306331992149353,0.2725989818572998
0.13679999392479658,1.306113362312317,0.27416902780532837
0.13719999697059393,1.3058934211730957,0.27573874592781067
0.13760000001639128,1.3056721687316895,0.2773081064224243
0.13800000306218863,1.3054497241973877,0.2788771092891693
0.13840000610798597,1.3052259683609009,0.28044578433036804
0.1387999946018681,1.3050010204315186,0.2820141017436981
0.13919999764766544,1.3047747611999512,0.28358206152915955
