time[s],iL[A],v out[V]
0.0,0.0,0.0
0.00040000000467443897,0.0,0.0
0.0008000000093488779,0.0,0.0
0.0012000000424450263,0.0,0.0
0.0016000000186977559,0.0,0.0
0.0019999999949504854,0.0,0.0
0.0024000000848900527,0.0,0.0
0.0027999999474559445,0.0,0.0
0.0032000000373955118,0.0,0.0
0.0035999998999614036,0.0,0.0
0.003999999989900971,0.0,0.0
0.004399999852466863,0.0,0.0
0.004800000169780105,0.0,0.0
0.005200000032345997,0.0,0.0
0.005599999894911889,0.0,0.0
0.006000000212225132,0.0,0.0
0.0064000000747910235,0.0,0.0
0.006799999937356915,0.0,0.0
0.007199999799922807,0.0,0.0
0.00760000011723605,0.0,0.0
0.007999999979801942,0.03160497918725014,7.567185093648732e-06
0.008400000297115184,0.11160494387149811,9.435900574317202e-05
0.008799999704933725,0.19160480797290802,0.00027811387553811073
0.009200000022246968,0.2716044783592224,0.0005588268977589905
0.00960000033956021,0.3516038954257965,0.0009364931029267609
0.009999999747378752,0.43160295486450195,0.0014111074851825833
0.010400000064691994,0.5116016268730164,0.0019826646894216537
0.010800000382005237,0.5915997624397278,0.0026511596515774727
0.011199999789823778,0.6715973615646362,0.003416587132960558
0.01160000010713702,0.7515942454338074,0.004278941545635462
0.012000000424450263,0.831590473651886,0.005238216836005449
0.012399999832268804,0.8631908297538757,0.006276665721088648
0.012800000149582047,0.8631854057312012,0.007322624325752258
0.013199999557400588,0.8631791472434998,0.00836852565407753
0.01359999987471383,0.8631719946861267,0.0094143683090806
0.014000000192027073,0.8631640672683716,0.010460150428116322
0.014399999599845614,0.8631552457809448,0.011505872011184692
0.014799999917158857,0.863145649433136,0.012551532126963139
0.0152000002344721,0.8631352186203003,0.013597128912806511
0.015600000551785342,0.863123893737793,0.01464266236871481
0.015999999959603883,0.8631117343902588,0.015688130632042885
0.016399999367422424,0.8630988001823425,0.016733532771468163
0.01680000059423037,0.8630849719047546,0.017778867855668068
0.01720000000204891,0.8630703687667847,0.0188241358846426
0.01759999940986745,0.8630548715591431,0.019869334995746613
0.018000000636675395,0.8630385398864746,0.020914463326334953
0.018400000044493936,0.8630214333534241,0.021959520876407623
0.018799999452312477,0.8630034327507019,0.023004505783319473
0.01920000067912042,0.8629845976829529,0.024049419909715652
0.019600000086938962,0.862964928150177,0.025094257667660713
0.019999999494757503,0.8629444241523743,0.026139020919799805
0.020400000721565448,0.8629230856895447,0.027183707803487778
0.02080000012938399,0.8629009127616882,0.02822832018136978
0.02119999953720253,0.8628779053688049,0.02927285246551037
0.021600000764010474,0.8628541231155396,0.030317306518554688
0.022000000171829015,0.8628294467926025,0.03136168047785759
0.022399999579647556,0.8628039360046387,0.032405972480773926
0.0228000008064555,0.862777590751648,0.033450182527303696
0.02320000021427404,0.8627504110336304,0.0344943106174469
0.023599999622092582,0.8627223968505859,0.03553835302591324
0.024000000848900527,0.8626935482025146,0.03658231347799301
0.024400000256719068,0.8626638650894165,0.03762618452310562
0.02479999966453761,0.8626333475112915,0.03866996988654137
0.025200000891345553,0.8626019954681396,0.03971366584300995
0.025600000299164094,0.8625698089599609,0.04075727239251137
0.025999999706982635,0.8625367879867554,0.04180079326033592
0.026399999114801176,0.862502932548523,0.04284421727061272
0.02680000034160912,0.8624682426452637,0.04388755187392235
0.02719999974942766,0.8624326586723328,0.04493079334497452
0.027599999157246202,0.8623962998390198,0.045973941683769226
0.028000000384054147,0.8623591065406799,0.047016993165016174
0.028399999791872688,0.9344998598098755,0.048099417239427567
0.02879999919969123,1.0144609212875366,0.049278244376182556
0.029200000426499173,1.0944210290908813,0.05055393651127815
0.029599999834317714,1.1743800640106201,0.05192648246884346
0.029999999242136255,1.2543379068374634,0.05339587852358818
0.0304000004689442,1.3342945575714111,0.054962120950222015
0.030800001695752144,1.4142498970031738,0.05662520229816437
0.031200001103570685,1.4942039251327515,0.05838511511683464
0.031600000511389226,1.5741565227508545,0.06024185195565224
0.03199999991920777,1.6462862491607666,0.06219494342803955
0.03239999932702631,1.646235704421997,0.06418734788894653
0.03279999873484485,1.6461836099624634,0.06617959588766098
0.0332000017806422,1.646129846572876,0.0681716799736023
0.03360000118846074,1.6460745334625244,0.07016360014677048
0.03400000059627928,1.6460175514221191,0.07215535640716553
0.03440000000409782,1.6459590196609497,0.07414694875478745
0.03479999941191636,1.6458989381790161,0.07613836973905563
0.0351999988197349,1.6458371877670288,0.07812961935997009
0.03559999822755344,1.6457738876342773,0.08012070506811142
0.03600000127335079,1.6457090377807617,0.08211160451173782
0.03640000068116933,1.6456425189971924,0.0841023400425911
0.03680000008898787,1.6455744504928589,0.08609288930892944
0.03719999949680641,1.6455048322677612,0.08808325976133347
0.037599998904624954,1.6454335451126099,0.09007345139980316
0.037999998312443495,1.6453607082366943,0.09206345677375793
0.03840000135824084,1.645286202430725,0.09405327588319778
0.038800000766059384,1.6452102661132812,0.09604290872812271
0.039200000173877925,1.6451325416564941,0.09803234785795212
0.039599999581696466,1.6450533866882324,0.1000216007232666
0.03999999898951501,1.644972562789917,0.10201065987348557
0.04039999839733355,1.6448901891708374,0.10399952530860901
0.040800001443130895,1.644806146621704,0.10598818957805634
0.041200000850949436,1.6447205543518066,0.10797665268182755
0.04160000025876798,1.644633412361145,0.10996491461992264
0.04199999966658652,1.6445446014404297,0.11195297539234161
0.04239999907440506,1.6444542407989502,0.11394083499908447
0.0427999984822236,1.6443623304367065,0.11592848598957062
0.04320000152802095,1.6442687511444092,0.11791592836380005
0.04360000093583949,1.6441736221313477,0.11990315467119217
0.04400000034365803,1.644076943397522,0.12189017236232758
0.04439999975147657,1.6439785957336426,0.12387697398662567
0.04479999915929511,1.643878698348999,0.12586356699466705
0.04519999856711365,1.6437772512435913,0.12784993648529053
0.045600001612911,1.6436741352081299,0.1298360824584961
0.04600000102072954,1.6435694694519043,0.13182200491428375
0.04640000042854808,1.6434632539749146,0.1338077038526535
0.046799999836366624,1.643355369567871,0.13579317927360535
0.047199999244185165,1.643246054649353,0.13777843117713928
0.047599998652003706,1.6431349515914917,0.13976344466209412
0.048000001697801054,1.6430224180221558,0.14174823462963104
0.048400001105619594,1.6837927103042603,0.14374545216560364
0.048800000513438135,1.7636768817901611,0.14582780003547668
0.049199999921256676,1.8435593843460083,0.1480068862438202
0.04959999932907522,1.9234400987625122,0.15028268098831177
0.04999999873689376,2.0033187866210938,0.1526551991701126
0.050400001782691106,2.083195686340332,0.15512441098690033
0.05080000119050965,2.1630706787109375,0.15769033133983612
0.05120000059832819,2.242943525314331,0.1603529304265976
0.05160000000614673,2.3228139877319336,0.16311220824718475
0.05199999941396527,2.3635671138763428,0.16595658659934998
0.05239999882178381,2.3634331226348877,0.1688133180141449
0.05279999822960235,2.3632969856262207,0.17166975140571594
0.0532000012753997,2.3631584644317627,0.17452587187290192
0.05360000068321824,2.3630175590515137,0.177381694316864
0.05400000009103678,2.3628745079040527,0.18023720383644104
0.05439999949885532,2.36272931098938,0.1830923855304718
0.054799998906673864,2.362581729888916,0.1859472692012787
0.055199998314492404,2.362431764602661,0.1888018250465393
0.05560000136028975,2.3622796535491943,0.19165606796741486
0.05600000076810829,2.3621251583099365,0.19450998306274414
0.056400000175926834,2.3619682788848877,0.19736357033252716
0.056799999583745375,2.361809253692627,0.20021682977676392
0.057199998991563916,2.3616480827331543,0.2030697464942932
0.05759999839938246,2.3614845275878906,0.20592233538627625
0.058000001445179805,2.361318588256836,0.208774596452713
0.058400000852998346,2.3611505031585693,0.21162649989128113
0.05880000026081689,2.3609800338745117,0.21447807550430298
0.05919999966863543,2.360807180404663,0.21732929348945618
0.05959999907645397,2.3606321811676025,0.22018016874790192
0.05999999848427251,2.36045503616333,0.223030686378479
0.06040000153006986,2.3602755069732666,0.22588084638118744
0.0608000009378884,2.360093593597412,0.22873066365718842
0.06120000034570694,2.3599095344543457,0.23158010840415955
0.06160000339150429,2.3597230911254883,0.23442919552326202
0.06199999916134402,2.359534502029419,0.23727792501449585
0.06240000220714137,2.3593435287475586,0.24012626707553864
0.0627999979769811,2.3591501712799072,0.24297425150871277
0.06320000102277845,2.358954668045044,0.24582186341285706
0.06359999679261819,2.3587567806243896,0.2486690878868103
0.06399999983841553,2.3585567474365234,0.2515159547328949
0.06440000288421288,2.3583545684814453,0.25436240434646606
0.06479999865405262,2.358149766921997,0.2572084963321686
0.06520000169984996,2.357943058013916,0.26005420088768005
0.0655999974696897,2.357733726501465,0.2628995180130005
0.06600000051548705,2.3575222492218018,0.2657444179058075
0.0664000035612844,2.3573086261749268,0.26858893036842346
0.06679999933112413,2.3570926189422607,0.2714330554008484
0.06720000237692147,2.3568742275238037,0.2742767930030823
0.06759999814676121,2.3566536903381348,0.27712011337280273
0.06800000119255856,2.356430768966675,0.27996301651000977
0.06839999696239829,2.4151363372802734,0.2828318178653717
0.06880000000819564,2.4949088096618652,0.28579381108283997
0.06920000305399299,2.574678897857666,0.28885236382484436
0.06959999882383272,2.654446601867676,0.2920074462890625
0.07000000186963007,2.7342116832733154,0.2952590882778168
0.0703999976394698,2.813974142074585,0.29860720038414
0.07080000068526715,2.8937339782714844,0.3020518720149994
0.07119999645510688,2.9734909534454346,0.3055930435657501
0.07159999950090423,3.0532448291778564,0.3092306852340698
0.07200000254670158,3.111926555633545,0.31296148896217346
0.07239999831654131,3.1116745471954346,0.31671810150146484
0.07280000136233866,3.111419677734375,0.320474237203598
0.0731999971321784,3.111161947250366,0.3242298662662506
0.07360000017797574,3.11090087890625,0.3279849886894226
0.07400000322377309,3.1106371879577637,0.3317396342754364
0.07439999899361283,3.11037015914917,0.3354937732219696
0.07480000203941017,3.110100269317627,0.3392474055290222
0.07519999780924991,3.1098272800445557,0.34300050139427185
0.07560000085504726,3.109551429748535,0.3467530906200409
0.07599999662488699,3.1092724800109863,0.35050517320632935
0.07639999967068434,3.1089906692504883,0.3542567491531372
0.07680000271648169,3.108705759048462,0.3580077886581421
0.07719999848632142,3.1084179878234863,0.361758291721344
0.07760000153211877,3.1081268787384033,0.3655082583427429
0.0779999973019585,3.10783314704895,0.36925768852233887
0.07840000034775585,3.1075360774993896,0.37300658226013184
0.0788000033935532,3.10723614692688,0.3767549395561218
0.07919999916339293,3.106933355331421,0.38050276041030884
0.07960000220919028,3.1066274642944336,0.3842500150203705
0.07999999797903001,3.106318473815918,0.38799670338630676
0.08040000102482736,3.106006622314453,0.39174285531044006
0.0807999967946671,3.10569167137146,0.395488440990448
0.08119999984046444,3.1053738594055176,0.3992334306240082
0.08160000288626179,3.105052947998047,0.4029778838157654
0.08199999865610152,3.104728937149048,0.4067217707633972
0.08240000170189887,3.1044020652770996,0.4104650616645813
0.0827999974717386,3.104072332382202,0.41420778632164
0.08320000051753595,3.1037395000457764,0.417949914932251
0.0836000035633333,3.1034035682678223,0.4216914772987366
0.08399999933317304,3.103064775466919,0.4254324436187744
0.08440000237897038,3.1027228832244873,0.4291728138923645
0.08479999814881012,3.1023781299591064,0.43291255831718445
0.08520000119460747,3.1020302772521973,0.43665173649787903
0.0855999969644472,3.1016793251037598,0.44039028882980347
0.08600000001024455,3.101325511932373,0.44412824511528015
0.0864000030560419,3.100968837738037,0.4478656053543091
0.08679999882588163,3.100609064102173,0.4516023099422455
0.08720000187167898,3.1002461910247803,0.45533841848373413
0.08759999764151871,3.0998804569244385,0.45907390117645264
0.08800000068731606,3.0995116233825684,0.4628087878227234
0.0883999964571558,3.1668009757995605,0.4665776789188385
0.08879999950295314,3.2464263439178467,0.4704417884349823
0.08920000254875049,3.3260483741760254,0.47440218925476074
0.08959999831859022,3.405667304992676,0.4784589111804962
0.09000000136438757,3.4852826595306396,0.4826119542121887
0.0903999971342273,3.564894914627075,0.48686128854751587
0.09080000018002465,3.6445038318634033,0.49120691418647766
0.091200003225822,3.724108934402466,0.4956488013267517
0.09159999899566174,3.803710699081421,0.5001869797706604
0.09200000204145908,3.870969772338867,0.5048202872276306
0.09239999781129882,3.8705639839172363,0.509487509727478
0.09280000085709617,3.870154619216919,0.5141540765762329
0.0931999966269359,3.869741439819336,0.5188198685646057
0.09359999967273325,3.8693244457244873,0.5234849452972412
0.0940000027185306,3.868903875350952,0.5281492471694946
0.09439999848837033,3.8684794902801514,0.5328128933906555
0.09480000153416768,3.868051290512085,0.5374757051467896
0.09519999730400741,3.867619514465332,0.542137861251831
0.09560000034980476,3.8671839237213135,0.5467991828918457
0.09600000339560211,3.8667445182800293,0.551459789276123
0.09639999916544184,3.8663015365600586,0.5561196804046631
0.09680000221123919,3.8658547401428223,0.5607787370681763
0.09719999798107892,3.8654043674468994,0.5654370188713074
0.09760000102687627,3.864950180053711,0.5700945854187012
0.097999996796716,3.864492177963257,0.5747513175010681
0.09839999984251335,3.864030599594116,0.5794073343276978
0.0988000028883107,3.86356520652771,0.5840625166893005
0.09919999865815043,3.863095998764038,0.5887169241905212
0.09960000170394778,3.8626232147216797,0.5933704972267151
0.09999999747378752,3.8621466159820557,0.5980232954025269
0.10040000051958486,3.861666440963745,0.6026752591133118
0.10080000356538221,3.861182451248169,0.6073264479637146
0.10119999933522195,3.860694646835327,0.6119768619537354
0.1016000023810193,3.860203266143799,0.6166263818740845
0.10199999815085903,3.859708070755005,0.6212751269340515
0.10240000119665638,3.8592090606689453,0.6259229779243469
0.10279999696649611,3.858706474304199,0.6305700540542603
0.10320000001229346,3.8582003116607666,0.6352162957191467
0.1036000030580908,3.8576900959014893,0.6398617029190063
0.10399999882793054,3.8571765422821045,0.6445062160491943
0.10440000187372789,3.856658935546875,0.6491498947143555
0.10479999764356762,3.856137752532959,0.6537927389144897
0.10520000068936497,3.8556129932403564,0.6584347486495972
0.1055999964592047,3.8550844192504883,0.663075864315033
0.10599999950500205,3.8545520305633545,0.6677160859107971
0.1064000025507994,3.854016065597534,0.6723554730415344
0.10679999832063913,3.8534762859344482,0.6769939661026001
0.10720000136643648,3.8529326915740967,0.6816315650939941
0.10759999713627622,3.8523855209350586,0.6862683296203613
0.10800000018207356,3.851834774017334,0.6909041404724121
0.10840000322787091,3.928696632385254,0.6955844759941101
0.10879999899771065,4.008138179779053,0.7003608345985413
0.109200002043508,4.087575912475586,0.7052332758903503
0.10959999781334773,4.1670098304748535,0.7102017402648926
0.11000000085914508,4.2464399337768555,0.715266227722168
0.11039999662898481,4.325865268707275,0.7204267978668213
0.11079999967478216,4.40528678894043,0.725683331489563
0.1112000027205795,4.484704494476318,0.7310358881950378
0.11159999849041924,4.564117431640625,0.7364844679832458
0.11200000153621659,4.640942573547363,0.7420289516448975
0.11239999730605632,4.640346527099609,0.7476178407669067
0.11280000035185367,4.639746189117432,0.7532057762145996
0.11320000339765102,4.63914155960083,0.7587926983833313
0.11359999916749075,4.6385321617126465,0.7643786072731018
0.1140000022132881,4.637918472290039,0.7699635028839111
0.11439999798312783,4.637300491333008,0.7755473852157593
0.11480000102892518,4.6366777420043945,0.7811301946640015
0.11519999679876491,4.636050701141357,0.7867120504379272
0.11559999984456226,4.635418891906738,0.7922928333282471
0.11600000289035961,4.634782791137695,0.7978726029396057
0.11639999866019934,4.6341423988342285,0.8034512996673584
0.11680000170599669,4.63349723815918,0.8090289831161499
0.11719999747583643,4.632847785949707,0.8146055936813354
0.11760000052163377,4.6321940422058105,0.820181131362915
0.11800000356743112,4.631535530090332,0.8257555961608887
0.11839999933727086,4.63087272644043,0.8313289880752563
0.1188000023830682,4.6302056312561035,0.8369013667106628
0.11919999815290794,4.629533767700195,0.8424726128578186
0.11960000119870529,4.628857612609863,0.8480427861213684
0.11999999696854502,4.628176689147949,0.8536118268966675
0.12040000001434237,4.627491474151611,0.8591797947883606
0.12080000306013972,4.62680196762085,0.8647466897964478
0.12119999882997945,4.626108169555664,0.8703124523162842
0.1216000018757768,4.6254096031188965,0.8758770823478699
0.12199999764561653,4.624706745147705,0.8814406394958496
0.12240000069141388,4.623999118804932,0.8870030045509338
0.12280000373721123,4.623287200927734,0.8925642967224121
0.12320000678300858,4.622570991516113,0.8981244564056396
0.1235999952768907,4.621850490570068,0.9036834239959717
0.12399999832268804,4.621125221252441,0.909241259098053
0.12440000136848539,4.620395660400391,0.9147980213165283
0.12480000441428274,4.619661331176758,0.9203535318374634
0.12519999290816486,4.618923187255859,0.9259079098701477
0.1255999959539622,4.618180274963379,0.9314611554145813
0.12599999899975955,4.617432594299316,0.9370132088661194
0.1264000020455569,4.61668062210083,0.942564070224762
0.12680000509135425,4.61592435836792,0.948113739490509
0.12719999358523637,4.615163803100586,0.9536622166633606
0.12759999663103372,4.614398956298828,0.9592095613479614
0.12799999967683107,4.6139750480651855,0.964755654335022
0.12840000272262841,4.693201065063477,0.9703494310379028
0.12880000576842576,4.7724223136901855,0.9760389924049377
0.12919999426230788,4.851639270782471,0.9818242788314819
0.12959999730810523,4.930851459503174,0.9877053499221802
0.13000000035390258,5.010058879852295,0.9936820864677429
0.13040000339969993,5.089261531829834,0.9997545480728149
0.13080000644549727,5.168458938598633,1.005922794342041
0.1311999949393794,5.247652053833008,1.0121866464614868
0.13159999798517674,5.326839447021484,1.018546223640442
0.1320000010309741,5.406022071838379,1.0250014066696167
0.13240000407677144,5.405545234680176,1.0315042734146118
0.1328000071225688,5.404717445373535,1.0380057096481323
0.1331999956164509,5.403884410858154,1.0445059537887573
0.13359999866224825,5.403046131134033,1.0510047674179077
0.1340000017080456,5.40220308303833,1.057502269744873
0.13440000475384295,5.4013543128967285,1.0639984607696533
0.13479999324772507,5.400500774383545,1.0704933404922485
0.13519999629352242,5.399641513824463,1.0769867897033691
0.13559999933931977,5.398777484893799,1.0834789276123047
0.1360000023851171,5.3979082107543945,1.0899696350097656
0.13640000543091446,5.397033214569092,1.0964590311050415
0.13679999392479658,5.396153450012207,1.1029469966888428
0.13719999697059393,5.39526891708374,1.109433650970459
0.13760000001639128,5.394378662109375,1.1159188747406006
0.13800000306218863,5.3934831619262695,1.1224027872085571
0.13840000610798597,5.392582893371582,1.1288851499557495
0.1387999946018681,5.391676902770996,1.1353662014007568
0.13919999764766544,5.390766143798828,1.1418458223342896
0.1396000006934628,5.38985013961792,1.1483240127563477
0.14000000373926014,5.3889288902282715,1.1548007726669312
0.14040000678505749,5.388002395629883,1.16127610206604
0.1407999952789396,5.387070655822754,1.1677500009536743
0.14119999832473695,5.386134147644043,1.174222469329834
