time[s],iL[A],v out[V]
0.0,0.0,0.0
0.00040000000467443897,0.0,0.0
0.0008000000093488779,0.0,0.0
0.0012000000424450263,0.0,0.0
0.0016000000186977559,0.0,0.0
0.0019999999949504854,0.0,0.0
0.0024000000848900527,0.0,0.0
0.0027999999474559445,0.0,0.0
0.0032000000373955118,0.0,0.0
0.0035999998999614036,0.0,0.0
0.003999999989900971,0.0,0.0
0.004399999852466863,0.0,0.0
0.004800000169780105,0.0,0.0
0.005200000032345997,0.0,0.0
0.005599999894911889,0.0,0.0
0.006000000212225132,0.0,0.0
0.0064000000747910235,0.0,0.0
0.006799999937356915,0.0,0.0
0.007199999799922807,0.0,0.0
0.00760000011723605,0.0,0.0
0.007999999979801942,0.04550740495324135,1.56886744662188e-05
0.008400000297115184,0.12550735473632812,0.00011933111090911552
0.008799999704933725,0.20550718903541565,0.00031993575976230204
0.009200000022246968,0.28550681471824646,0.0006174976588226855
0.00960000033956021,0.3655061721801758,0.0010120118968188763
0.009999999747378752,0.44550517201423645,0.0015034733805805445
0.010400000064691994,0.5255037546157837,0.002091876929625869
0.010800000382005237,0.6055018305778503,0.002777217188850045
0.011199999789823778,0.6854992508888245,0.0035594890359789133
0.01160000010713702,0.7654960751533508,0.004438686650246382
0.012000000424450263,0.8454921245574951,0.00541480490937829
0.012399999832268804,0.8909947872161865,0.006478824652731419
0.012800000149582047,0.8909891843795776,0.007558474782854319
0.013199999557400588,0.8909826874732971,0.008638065308332443
0.01359999987471383,0.8909753561019897,0.00971759483218193
0.014000000192027073,0.8909671306610107,0.010797062888741493
0.014399999599845614,0.8909580707550049,0.011876467615365982
0.014799999917158857,0.8909481763839722,0.012955809012055397
0.0152000002344721,0.8909373879432678,0.014035085216164589
0.015600000551785342,0.8909257054328918,0.015114296227693558
0.015999999959603883,0.890913188457489,0.016193440183997154
0.016399999367422424,0.8908997774124146,0.01727251522243023
0.01680000059423037,0.8908855319023132,0.018351521342992783
0.01720000000204891,0.8908704519271851,0.019430456683039665
0.01759999940986745,0.8908544778823853,0.020509323105216026
0.018000000636675395,0.8908376097679138,0.021588115021586418
0.018400000044493936,0.8908199071884155,0.02266683429479599
0.018799999452312477,0.8908013701438904,0.023745480924844742
0.01920000067912042,0.8907819390296936,0.024824051186442375
0.019600000086938962,0.8907616138458252,0.02590254507958889
0.019999999494757503,0.8907404541969299,0.026980960741639137
0.020400000721565448,0.8907184600830078,0.028059298172593117
0.02080000012938399,0.8906955718994141,0.02913755737245083
0.02119999953720253,0.8906717896461487,0.030215734615921974
0.021600000764010474,0.8906472325325012,0.0312938317656517
0.022000000171829015,0.8906217217445374,0.032371845096349716
0.022399999579647556,0.8905954360961914,0.033449772745370865
0.0228000008064555,0.8905682563781738,0.03452761843800545
0.02320000021427404,0.8905401825904846,0.035605378448963165
0.023599999622092582,0.8905112743377686,0.03668305277824402
0.024000000848900527,0.8904814720153809,0.03776063770055771
0.024400000256719068,0.8904508352279663,0.038838133215904236
0.02479999966453761,0.8904193639755249,0.0399155393242836
0.025200000891345553,0.8903869986534119,0.0409928560256958
0.025600000299164094,0.8903537392616272,0.04207007959485054
0.025999999706982635,0.8903196454048157,0.04314720630645752
0.026399999114801176,0.8902847170829773,0.044224243611097336
0.02680000034160912,0.8902488946914673,0.04530118405818939
0.02719999974942766,0.8902122378349304,0.04637803137302399
0.027599999157246202,0.8901746869087219,0.04745477810502052
0.028000000384054147,0.8901363015174866,0.0485314279794693
0.028399999791872688,0.917356550693512,0.04961360618472099
0.02879999919969123,0.9973164200782776,0.05077158287167549
0.029200000426499173,1.077275276184082,0.05202641710639
0.029599999834317714,1.1572331190109253,0.053378112614154816
0.029999999242136255,1.2371898889541626,0.054826654493808746
0.0304000004689442,1.3171454668045044,0.05637204274535179
0.030800001695752144,1.3970996141433716,0.058014266192913055
0.031200001103570685,1.4770525693893433,0.05975332111120224
0.031600000511389226,1.5570039749145508,0.06158920377492905
0.03199999991920777,1.5842134952545166,0.06350082904100418
0.03239999932702631,1.5841619968414307,0.06541793048381805
0.03279999873484485,1.584108829498291,0.06733487546443939
0.0332000017806422,1.5840542316436768,0.0692516639828682
0.03360000118846074,1.5839980840682983,0.07116829603910446
0.03400000059627928,1.5839403867721558,0.073084756731987
0.03440000000409782,1.583881139755249,0.075001060962677
0.03479999941191636,1.5838203430175781,0.07691720128059387
0.0351999988197349,1.583757996559143,0.07883317023515701
0.03559999822755344,1.5836942195892334,0.08074896782636642
0.03600000127335079,1.5836288928985596,0.0826645940542221
0.03640000068116933,1.583561897277832,0.08458004891872406
0.03680000008898787,1.5834934711456299,0.08649533241987228
0.03719999949680641,1.5834234952926636,0.08841043710708618
0.037599998904624954,1.5833520889282227,0.09032536298036575
0.037999998312443495,1.583279013633728,0.0922401025891304
0.03840000135824084,1.5832045078277588,0.09415466338396072
0.038800000766059384,1.5831283330917358,0.09606904536485672
0.039200000173877925,1.5830507278442383,0.0979832336306572
0.039599999581696466,1.5829715728759766,0.09989724308252335
0.03999999898951501,1.5828909873962402,0.10181105881929398
0.04039999839733355,1.5828087329864502,0.10372468084096909
0.040800001443130895,1.5827250480651855,0.10563810914754868
0.041200000850949436,1.5826396942138672,0.10755134373903275
0.04160000025876798,1.5825529098510742,0.1094643846154213
0.04199999966658652,1.582464575767517,0.11137722432613373
0.04239999907440506,1.5823746919631958,0.11328986287117004
0.0427999984822236,1.5822833776474,0.11520230025053024
0.04320000152802095,1.5821903944015503,0.11711452901363373
0.04360000093583949,1.582095980644226,0.1190265566110611
0.04400000034365803,1.5820000171661377,0.12093836814165115
0.04439999975147657,1.5819025039672852,0.1228499785065651
0.04479999915929511,1.5818034410476685,0.12476137280464172
0.04519999856711365,1.5817028284072876,0.12667255103588104
0.045600001612911,1.5816007852554321,0.12858352065086365
0.04600000102072954,1.581497073173523,0.13049426674842834
0.04640000042854808,1.5813919305801392,0.13240478932857513
0.046799999836366624,1.5812852382659912,0.1343151032924652
0.047199999244185165,1.581176996231079,0.13622519373893738
0.047599998652003706,1.5810673236846924,0.13813504576683044
0.048000001697801054,1.580955982208252,0.1400446891784668
0.048400001105619594,1.580843210220337,0.14195409417152405
0.048800000513438135,1.6204862594604492,0.14387524127960205
0.049199999921256676,1.70037043094635,0.14588086307048798
0.04959999932907522,1.7802528142929077,0.14798320829868317
0.04999999873689376,1.8601335287094116,0.15018227696418762
0.050400001782691106,1.9400125741958618,0.15247805416584015
0.05080000119050965,2.0198895931243896,0.15487053990364075
0.05120000059832819,2.099764823913574,0.15735973417758942
0.05160000000614673,2.139395236968994,0.15993335843086243
0.05199999941396527,2.1392662525177,0.1625186651945114
0.05239999882178381,2.1391351222991943,0.16510368883609772
0.05279999822960235,2.1390020847320557,0.16768842935562134
0.0532000012753997,2.138866901397705,0.17027288675308228
0.05360000068321824,2.1387295722961426,0.17285704612731934
0.05400000009103678,2.1385903358459473,0.1754409223794937
0.05439999949885532,2.13844895362854,0.1780245006084442
0.054799998906673864,2.138305425643921,0.18060778081417084
0.055199998314492404,2.138159990310669,0.18319076299667358
0.05560000136028975,2.138012409210205,0.18577343225479126
0.05600000076810829,2.1378626823425293,0.18835580348968506
0.056400000175926834,2.1377110481262207,0.1909378618001938
0.056799999583745375,2.1375572681427,0.19351962208747864
0.057199998991563916,2.1374013423919678,0.19610105454921722
0.05759999839938246,2.1372435092926025,0.19868217408657074
0.058000001445179805,2.1370835304260254,0.20126298069953918
0.058400000852998346,2.1369214057922363,0.20384347438812256
0.05880000026081689,2.1367573738098145,0.20642362534999847
0.05919999966863543,2.1365911960601807,0.20900346338748932
0.05959999907645397,2.136422872543335,0.2115829735994339
0.05999999848427251,2.1362526416778564,0.21416215598583221
0.06040000153006986,2.136080265045166,0.21674099564552307
0.0608000009378884,2.1359057426452637,0.21931950747966766
0.06120000034570694,2.1357293128967285,0.221897691488266
0.06160000339150429,2.1355507373809814,0.22447551786899567
0.06199999916134402,2.1353702545166016,0.22705301642417908
0.06240000220714137,2.1351876258850098,0.22963015735149384
0.0627999979769811,2.135002851486206,0.23220695555210114
0.06320000102277845,2.1348159313201904,0.23478341102600098
0.06359999679261819,2.134627103805542,0.23735949397087097
0.06399999983841553,2.1344361305236816,0.2399352341890335
0.06440000288421288,2.1342432498931885,0.2425106316804886
0.06479999865405262,2.1340482234954834,0.24508564174175262
0.06520000169984996,2.1338510513305664,0.2476603090763092
0.0655999974696897,2.1336519718170166,0.25023460388183594
0.06600000051548705,2.133450746536255,0.252808541059494
0.0664000035612844,2.1332473754882812,0.25538209080696106
0.06679999933112413,2.133042097091675,0.25795528292655945
0.06720000237692147,2.1328346729278564,0.2605280876159668
0.06759999814676121,2.1326253414154053,0.2631005048751831
0.06800000119255856,2.132413864135742,0.26567256450653076
0.06839999696239829,2.132200241088867,0.2682442367076874
0.06880000000819564,2.1474623680114746,0.2708173394203186
0.06920000305399299,2.2272446155548096,0.27345550060272217
0.06959999882383272,2.3070247173309326,0.27619022130966187
0.07000000186963007,2.3868026733398438,0.2790215015411377
0.0703999976394698,2.466578245162964,0.28194934129714966
0.07080000068526715,2.546351671218872,0.28497374057769775
0.07119999645510688,2.62612247467041,0.2880946695804596
0.07159999950090423,2.6413683891296387,0.2912806272506714
0.07200000254670158,2.641134023666382,0.2944679260253906
0.07239999831654131,2.640897274017334,0.29765480756759644
0.07280000136233866,2.640657901763916,0.30084124207496643
0.0731999971321784,2.640415906906128,0.3040272295475006
0.07360000017797574,2.640171527862549,0.307212769985199
0.07400000322377309,2.6399242877960205,0.3103978633880615
0.07439999899361283,2.639674663543701,0.31358247995376587
0.07480000203941017,2.639422655105591,0.3167666494846344
0.07519999780924991,2.6391680240631104,0.3199503719806671
0.07560000085504726,2.6389107704162598,0.3231336176395416
0.07599999662488699,2.638650894165039,0.32631638646125793
0.07639999967068434,2.6383886337280273,0.3294987082481384
0.07680000271648169,2.6381237506866455,0.33268052339553833
0.07719999848632142,2.6378562450408936,0.3358618915081024
0.07760000153211877,2.6375863552093506,0.3390427529811859
0.0779999973019585,2.6373138427734375,0.3422231674194336
0.07840000034775585,2.6370387077331543,0.3454030752182007
0.0788000033935532,2.63676118850708,0.3485824763774872
0.07919999916339293,2.6364810466766357,0.3517614006996155
0.07960000220919028,2.6361982822418213,0.35493984818458557
0.07999999797903001,2.635913133621216,0.3581177890300751
0.08040000102482736,2.6356253623962402,0.361295223236084
0.0807999967946671,2.6353349685668945,0.3644721508026123
0.08119999984046444,2.635042190551758,0.36764857172966003
0.08160000288626179,2.634746789932251,0.3708244860172272
0.08199999865610152,2.634449005126953,0.37399986386299133
0.08240000170189887,2.634148359298706,0.3771747648715973
0.0827999974717386,2.633845329284668,0.3803490996360779
0.08320000051753595,2.633539915084839,0.38352295756340027
0.0836000035633333,2.6332318782806396,0.3866962492465973
0.08399999933317304,2.6329212188720703,0.3898690342903137
0.08440000237897038,2.632607936859131,0.3930412828922272
0.08479999814881012,2.6322922706604004,0.39621299505233765
0.08520000119460747,2.6319739818573,0.39938420057296753
0.0855999969644472,2.631653308868408,0.40255481004714966
0.08600000001024455,2.6313300132751465,0.4057249128818512
0.0864000030560419,2.6310040950775146,0.40889444947242737
0.08679999882588163,2.630675792694092,0.41206344962120056
0.08720000187167898,2.630344867706299,0.4152318835258484
0.08759999764151871,2.6300113201141357,0.41839978098869324
0.08800000068731606,2.6296753883361816,0.4215671122074127
0.0883999964571558,2.6293368339538574,0.42473387718200684
0.08879999950295314,2.628995895385742,0.4279000759124756
0.08920000254875049,2.695146322250366,0.43109920620918274
0.08959999831859022,2.7748003005981445,0.43439334630966187
0.09000000136438757,2.8544514179229736,0.4377838671207428
0.0903999971342273,2.9340996742248535,0.44127076864242554
0.09080000018002465,3.0137453079223633,0.4448540508747101
0.091200003225822,3.0798821449279785,0.4485322833061218
0.09159999899566174,3.079521894454956,0.4522434175014496
0.09200000204145908,3.0791585445404053,0.4559539556503296
0.09239999781129882,3.0787923336029053,0.45966383814811707
0.09280000085709617,3.078423023223877,0.4633730947971344
0.0931999966269359,3.0780508518218994,0.467081755399704
0.09359999967273325,3.0776758193969727,0.47078976035118103
0.0940000027185306,3.0772976875305176,0.47449713945388794
0.09439999848837033,3.076916456222534,0.4782038629055023
0.09480000153416768,3.0765326023101807,0.48190993070602417
0.09519999730400741,3.0761454105377197,0.4856153726577759
0.09560000034980476,3.0757555961608887,0.48932018876075745
0.09600000339560211,3.0753626823425293,0.4930243194103241
0.09639999916544184,3.0749666690826416,0.4967277944087982
0.09680000221123919,3.0745677947998047,0.5004305839538574
0.09719999798107892,3.0741660594940186,0.5041327476501465
0.09760000102687627,3.073761224746704,0.507834255695343
0.097999996796716,3.0733535289764404,0.5115350484848022
0.09839999984251335,3.0729427337646484,0.515235185623169
0.0988000028883107,3.0725290775299072,0.5189346671104431
0.09919999865815043,3.072112560272217,0.52263343334198
0.09960000170394778,3.071692943572998,0.5263315439224243
0.09999999747378752,3.071270227432251,0.5300289392471313
0.10040000051958486,3.0708446502685547,0.5337256193161011
0.10080000356538221,3.070416212081909,0.5374216437339783
0.10119999933522195,3.0699849128723145,0.5411169528961182
0.1016000023810193,3.0695505142211914,0.5448115468025208
0.10199999815085903,3.069113254547119,0.5485054850578308
0.10240000119665638,3.0686728954315186,0.5521986484527588
0.10279999696649611,3.0682296752929688,0.5558910965919495
0.10320000001229346,3.0677833557128906,0.5595828890800476
0.1036000030580908,3.0673344135284424,0.5632739067077637
0.10399999882793054,3.0668821334838867,0.5669642090797424
0.10440000187372789,3.066427230834961,0.5706537961959839
0.10479999764356762,3.065969228744507,0.574342668056488
0.10520000068936497,3.0655081272125244,0.5780307650566101
0.1055999964592047,3.065044403076172,0.5817181468009949
0.10599999950500205,3.064577579498291,0.5854047536849976
0.1064000025507994,3.064107656478882,0.5890906453132629
0.10679999832063913,3.0636348724365234,0.5927757620811462
0.10720000136643648,3.063159227371216,0.5964601635932922
0.10759999713627622,3.06268048286438,0.6001437902450562
0.10800000018207356,3.0621988773345947,0.603826642036438
0.10840000322787091,3.0617144107818604,0.6075087189674377
0.10879999899771065,3.0612270832061768,0.6111900806427002
0.109200002043508,3.0970399379730225,0.6148806214332581
0.10959999781334773,3.176546573638916,0.618652880191803
0.11000000085914508,3.2560501098632812,0.6225213408470154
0.11039999662898481,3.335550308227539,0.6264859437942505
0.11079999967478216,3.4150476455688477,0.6305467486381531
0.1112000027205795,3.4508447647094727,0.6346892714500427
0.11159999849041924,3.4503355026245117,0.638840913772583
0.11200000153621659,3.4498226642608643,0.6429917812347412
0.11239999730605632,3.4493064880371094,0.6471417546272278
0.11280000035185367,3.448787212371826,0.6512909531593323
0.11320000339765102,3.4482645988464355,0.6554393172264099
0.11359999916749075,3.4477386474609375,0.6595868468284607
0.1140000022132881,3.447209119796753,0.6637334823608398
0.11439999798312783,3.44667649269104,0.6678793430328369
0.11480000102892518,3.4461405277252197,0.6720243096351624
0.11519999679876491,3.445601224899292,0.6761684417724609
0.11559999984456226,3.445058822631836,0.6803117394447327
0.11600000289035961,3.4445128440856934,0.6844541430473328
0.11639999866019934,3.4439635276794434,0.6885956525802612
0.11680000170599669,3.443411111831665,0.6927363872528076
0.11719999747583643,3.4428551197052,0.6968761682510376
0.11760000052163377,3.442296028137207,0.7010151147842407
0.11800000356743112,3.4417335987091064,0.7051531672477722
0.11839999933727086,3.4411678314208984,0.7092903256416321
0.1188000023830682,3.440598726272583,0.7134265899658203
0.11919999815290794,3.44002628326416,0.7175619602203369
0.11960000119870529,3.439450740814209,0.7216964364051819
0.11999999696854502,3.4388716220855713,0.725830078125
0.12040000001434237,3.4382894039154053,0.7299627661705017
0.12080000306013972,3.4377036094665527,0.7340945601463318
0.12119999882997945,3.437114715576172,0.7382254004478455
0.1216000018757768,3.4365224838256836,0.7423553466796875
0.12199999764561653,3.435926914215088,0.7464843988418579
0.12240000069141388,3.435328245162964,0.7506124973297119
0.12280000373721123,3.4347259998321533,0.7547396421432495
0.12320000678300858,3.4341206550598145,0.7588658928871155
0.1235999952768907,3.433511734008789,0.762991189956665
0.12399999832268804,3.4328997135162354,0.767115592956543
0.12440000136848539,3.432284355163574,0.7712389826774597
0.12480000441428274,3.4316658973693848,0.7753614783287048
0.12519999290816486,3.431043863296509,0.7794830203056335
0.1255999959539622,3.4304187297821045,0.7836035490036011
0.12599999899975955,3.4297900199890137,0.787723183631897
0.1264000020455569,3.4291582107543945,0.7918418049812317
0.12680000509135425,3.428523063659668,0.7959595322608948
0.12719999358523637,3.427884817123413,0.8000762462615967
0.12759999663103372,3.4272429943084717,0.8041919469833374
0.12799999967683107,3.426598072052002,0.8083066940307617
0.12840000272262841,3.425949811935425,0.8124204874038696
0.12880000576842576,3.4252982139587402,0.8165332674980164
0.12919999426230788,3.4399216175079346,0.8206468224525452
0.12959999730810523,3.519263505935669,0.8248246312141418
0.13000000035390258,3.598602056503296,0.8290984034538269
0.13040000339969993,3.6779370307922363,0.8334680795669556
0.13080000644549727,3.7572684288024902,0.8379337787628174
0.1311999949393794,3.7718746662139893,0.8424636125564575
0.13159999798517674,3.7711989879608154,0.8469942212104797
0.1320000010309741,3.770519495010376,0.8515238165855408
0.13240000407677144,3.76983642578125,0.8560523390769958
0.1328000071225688,3.7691497802734375,0.860579788684845
0.1331999956164509,3.7684595584869385,0.8651062250137329
0.13359999866224825,3.767765522003174,0.8696315288543701
0.1340000017080456,3.7670681476593018,0.8741558194160461
0.13440000475384295,3.766366958618164,0.878679096698761
0.13479999324772507,3.76566219329834,0.8832012414932251
0.13519999629352242,3.764953851699829,0.8877223134040833
0.13559999933931977,3.764241933822632,0.8922423124313354
0.1360000023851171,3.763526201248169,0.8967612385749817
0.13640000543091446,3.7628071308135986,0.9012790322303772
0.13679999392479658,3.7620842456817627,0.9057957530021667
0.13719999697059393,3.7613577842712402,0.9103114008903503
0.13760000001639128,3.7606277465820312,0.9148259162902832
0.13800000306218863,3.7598941326141357,0.9193393588066101
0.13840000610798597,3.7591567039489746,0.9238516688346863
0.1387999946018681,3.758415937423706,0.9283629059791565
0.13919999764766544,3.757671356201172,0.9328729510307312
0.1396000006934628,3.756923198699951,0.9373819231987
0.14000000373926014,3.756171464920044,0.941889762878418
0.14040000678505749,3.75541615486145,0.9463964700698853
0.1407999952789396,3.75465726852417,0.9509020447731018
