time[s],iL[A],v out[V]
0.0,0.0,0.0
0.00040000000467443897,0.0,0.0
0.0008000000093488779,0.0,0.0
0.0012000000424450263,0.0,0.0
0.0016000000186977559,0.0,0.0
0.0019999999949504854,0.0,0.0
0.0024000000848900527,0.0,0.0
0.0027999999474559445,0.0,0.0
0.0032000000373955118,0.0,0.0
0.0035999998999614036,0.0,0.0
0.003999999989900971,0.0,0.0
0.004399999852466863,0.0,0.0
0.004800000169780105,0.0,0.0
0.005200000032345997,0.0,0.0
0.005599999894911889,0.0,0.0
0.006000000212225132,0.0,0.0
0.0064000000747910235,0.0,0.0
0.006799999937356915,0.0,0.0
0.007199999799922807,0.0,0.0
0.00760000011723605,0.0,0.0
0.007999999979801942,0.0,0.0
0.008400000297115184,0.0,0.0
0.008799999704933725,0.0,0.0
0.009200000022246968,0.0,0.0
0.00960000033956021,0.0,0.0
0.009999999747378752,0.028635621070861816,6.212076186784543e-06
0.010400000064691994,0.057271212339401245,6.941791798453778e-05
0.010800000382005237,0.05727113038301468,0.0001388324744766578
0.011199999789823778,0.057270992547273636,0.00020824353850912303
0.01160000010713702,0.05727079510688782,0.0002776510373223573
0.012000000424450263,0.05727054551243782,0.00034705488360486925
0.012399999832268804,0.05727024003863335,0.0004164550337009132
0.012800000149582047,0.057269878685474396,0.0004858514294028282
0.013199999557400588,0.057269465178251266,0.000555243983399123
0.01359999987471383,0.05726899206638336,0.0006246326374821365
0.014000000192027073,0.05726846307516098,0.0006940173334442079
0.014399999599845614,0.05726788192987442,0.0007633979548700154
0.014799999917158857,0.05726724490523338,0.0008327745017595589
0.0152000002344721,0.05726654827594757,0.0009021468576975167
0.015600000551785342,0.05726579949259758,0.0009715149644762278
0.015999999959603883,0.05726499482989311,0.0010408788220956922
0.016399999367422424,0.05726413428783417,0.0011102382559329271
0.01680000059423037,0.057263217866420746,0.0011795932659879327
0.01720000000204891,0.05726224556565285,0.001248943735845387
0.01759999940986745,0.05726122111082077,0.00131828966550529
0.018000000636675395,0.05726013705134392,0.00138763093855232
0.018400000044493936,0.05725900083780289,0.001456967554986477
0.018799999452312477,0.05725780501961708,0.0015262993983924389
0.01920000067912042,0.057256557047367096,0.0015956263523548841
0.019600000086938962,0.057255253195762634,0.0016649484168738127
0.019999999494757503,0.057253893464803696,0.0017342654755339026
0.020400000721565448,0.05725247785449028,0.001803577528335154
0.02080000012938399,0.05725100636482239,0.001872884458862245
0.02119999953720253,0.05724948272109032,0.001942186150699854
0.021600000764010474,0.05724789947271347,0.0020114826038479805
0.022000000171829015,0.057246264070272446,0.0020807739347219467
0.022399999579647556,0.057244572788476944,0.0021500596776604652
0.0228000008064555,0.05724282190203667,0.0022193400654941797
0.02320000021427404,0.05724101886153221,0.00228861509822309
0.023599999622092582,0.05723915994167328,0.0023578843101859093
0.024000000848900527,0.05723724886775017,0.0024271479342132807
0.024400000256719068,0.05723527818918228,0.0024964059703052044
0.02479999966453761,0.05723325163125992,0.002565657952800393
0.025200000891345553,0.057231172919273376,0.002634904347360134
0.025600000299164094,0.05722903832793236,0.00270414468832314
0.025999999706982635,0.05722684785723686,0.002773379208520055
0.026399999114801176,0.05722460150718689,0.002842607442289591
0.02680000034160912,0.05722229927778244,0.0029118298552930355
0.02719999974942766,0.057219941169023514,0.002981045749038458
0.027599999157246202,0.05721752718091011,0.0030502555891871452
0.028000000384054147,0.05721506103873253,0.003119459142908454
0.028399999791872688,0.05721253901720047,0.003188656410202384
0.02879999919969123,0.057209957391023636,0.0032578471582382917
0.029200000426499173,0.05720732361078262,0.0033270311541855335
0.029599999834317714,0.057204633951187134,0.0033962088637053967
0.029999999242136255,0.08586135506629944,0.0034716022200882435
0.0304000004689442,0.11451798677444458,0.003604019759222865
0.030800001695752144,0.11451505124568939,0.0037426494527608156
0.031200001103570685,0.11451199650764465,0.0038812689017504454
0.031600000511389226,0.11450883746147156,0.004019877873361111
0.03199999991920777,0.11450556665658951,0.004158476367592812
0.03239999932702631,0.1145021840929985,0.004297064151614904
0.03279999873484485,0.11449868977069855,0.004435640759766102
0.0332000017806422,0.11449509114027023,0.004574206192046404
0.03360000118846074,0.11449137330055237,0.004712760914117098
0.03400000059627928,0.11448755115270615,0.004851303994655609
0.03440000000409782,0.11448360979557037,0.004989835899323225
0.03479999941191636,0.11447956413030624,0.005128356162458658
0.0351999988197349,0.11447540670633316,0.005266864784061909
0.03559999822755344,0.11447113752365112,0.0054053617641329765
0.03600000127335079,0.11446675658226013,0.005543846637010574
0.03640000068116933,0.11446226388216019,0.005682319402694702
0.03680000008898787,0.11445766687393188,0.005820779595524073
0.03719999949680641,0.11445295065641403,0.005959227681159973
0.037599998904624954,0.11444813013076782,0.006097663659602404
0.037999998312443495,0.11444319784641266,0.0062360865995287895
0.03840000135824084,0.11443815380334854,0.006374496966600418
0.038800000766059384,0.11443299800157547,0.006512894295156002
0.039200000173877925,0.11442773044109344,0.006651278585195541
0.039599999581696466,0.11442235857248306,0.006789649836719036
0.03999999898951501,0.11441686749458313,0.006928007584065199
0.04039999839733355,0.11441127210855484,0.00706635182723403
0.040800001443130895,0.1144055649638176,0.007204683031886816
0.041200000850949436,0.1143997386097908,0.007343000266700983
0.04160000025876798,0.11439381539821625,0.007481303531676531
0.04199999966658652,0.11438777297735214,0.007619592826813459
0.04239999907440506,0.11438161879777908,0.007757868152111769
0.0427999984822236,0.11437536031007767,0.007896129041910172
0.04320000152802095,0.1143689900636673,0.008034376427531242
0.04360000093583949,0.11436250805854797,0.00817260891199112
0.04400000034365803,0.1143559142947197,0.008310826495289803
0.04439999975147657,0.11434920877218246,0.008449029177427292
0.04479999915929511,0.11434239149093628,0.008587216958403587
0.04519999856711365,0.11433546990156174,0.008725389838218689
0.045600001612911,0.11432842910289764,0.008863547816872597
0.04600000102072954,0.1143212839961052,0.009001689963042736
0.04640000042854808,0.11431402713060379,0.009139817208051682
0.046799999836366624,0.11430666595697403,0.009277928620576859
0.047199999244185165,0.11429918557405472,0.009416024200618267
0.047599998652003706,0.11429159343242645,0.009554104879498482
0.048000001697801054,0.11428389698266983,0.009692168794572353
0.048400001105619594,0.11427608877420425,0.009830216877162457
0.048800000513438135,0.11426816880702972,0.009968248195946217
0.049199999921256676,0.11426013708114624,0.010106263682246208
0.04959999932907522,0.1142520010471344,0.010244262404739857
0.04999999873689376,0.14345788955688477,0.010388710536062717
0.050400001782691106,0.1726636439561844,0.010591031052172184
0.05080000119050965,0.17265509068965912,0.01079979632049799
0.05120000059832819,0.17264637351036072,0.011008541099727154
0.05160000000614673,0.172637477517128,0.011217265389859676
0.05199999941396527,0.17262841761112213,0.011425968259572983
0.05239999882178381,0.17261919379234314,0.011634650640189648
0.05279999822960235,0.17260980606079102,0.011843310669064522
0.0532000012753997,0.17260023951530457,0.012051950208842754
0.05360000068321824,0.17259052395820618,0.012260567396879196
0.05400000009103678,0.17258062958717346,0.012469162233173847
0.05439999949885532,0.17257057130336761,0.012677734717726707
0.054799998906673864,0.17256034910678864,0.012886285781860352
0.055199998314492404,0.17254994809627533,0.01309481356292963
0.05560000136028975,0.17253939807415009,0.013303318992257118
0.05600000076810829,0.17252866923809052,0.01351180113852024
0.056400000175926834,0.1725177764892578,0.013720260001718998
0.056799999583745375,0.17250671982765198,0.01392869558185339
0.057199998991563916,0.17249548435211182,0.014137106947600842
0.05759999839938246,0.17248409986495972,0.014345495030283928
0.058000001445179805,0.1724725365638733,0.014553858898580074
0.058400000852998346,0.17246080935001373,0.014762199483811855
0.05880000026081689,0.17244891822338104,0.014970513992011547
0.05919999966863543,0.17243684828281403,0.015178805217146873
0.05959999907645397,0.17242462933063507,0.015387071296572685
0.05999999848427251,0.1724122315645218,0.015595312230288982
0.06040000153006986,0.17239966988563538,0.01580352708697319
0.0608000009378884,0.17238694429397583,0.016011718660593033
0.06120000034570694,0.17237405478954315,0.016219882294535637
0.06160000339150429,0.17236100137233734,0.0164280217140913
0.06199999916134402,0.1723477691411972,0.016636135056614876
0.06240000220714137,0.17233437299728394,0.01684422232210636
0.0627999979769811,0.17232081294059753,0.01705228164792061
0.06320000102277845,0.172307088971138,0.017260314896702766
0.06359999679261819,0.17229320108890533,0.017468322068452835
0.06399999983841553,0.17227914929389954,0.017676301300525665
0.06440000288421288,0.1722649186849594,0.017884254455566406
0.06479999865405262,0.17225052416324615,0.01809217967092991
0.06520000169984996,0.17223596572875977,0.018300076946616173
0.0655999974696897,0.17222124338150024,0.0185079462826252
0.06600000051548705,0.1722063571214676,0.018715787678956985
0.0664000035612844,0.1721913069486618,0.018923601135611534
0.06679999933112413,0.1721760779619217,0.019131386652588844
0.06720000237692147,0.17216069996356964,0.019339142367243767
0.06759999814676121,0.17214514315128326,0.01954687014222145
0.06800000119255856,0.17212942242622375,0.019754568114876747
0.06839999696239829,0.1721135377883911,0.019962238147854805
0.06880000000819564,0.17209747433662415,0.020169878378510475
0.06920000305399299,0.17208126187324524,0.020377488806843758
0.06959999882383272,0.172064870595932,0.020585069432854652
0.07000000186963007,0.20135723054409027,0.020799126476049423
0.0703999976394698,0.2306494116783142,0.021071190014481544
0.07080000068526715,0.23063243925571442,0.021349726244807243
0.07119999645510688,0.23061524331569672,0.021628227084875107
0.07159999950090423,0.2305978387594223,0.021906696259975433
0.07200000254670158,0.2305801957845688,0.022185128182172775
0.07239999831654131,0.23056234419345856,0.02246352657675743
0.07280000136233866,0.23054425418376923,0.02274188958108425
0.0731999971321784,0.23052595555782318,0.023020215332508087
0.07360000017797574,0.23050741851329803,0.023298507556319237
0.07400000322377309,0.23048867285251617,0.0235767625272274
0.07439999899361283,0.2304697036743164,0.02385498210787773
0.07480000203941017,0.23045051097869873,0.024133164435625076
0.07519999780924991,0.23043107986450195,0.024411309510469437
0.07560000085504726,0.23041144013404846,0.024689417332410812
0.07599999662488699,0.23039157688617706,0.024967487901449203
0.07639999967068434,0.23037150502204895,0.02524552121758461
0.07680000271648169,0.23035119473934174,0.025523517280817032
0.07719999848632142,0.2303306609392166,0.02580147422850132
0.07760000153211877,0.23030990362167358,0.026079392060637474
0.0779999973019585,0.23028893768787384,0.026357270777225494
0.07840000034775585,0.230267733335495,0.02663511224091053
0.0788000033935532,0.23024632036685944,0.026912912726402283
0.07919999916339293,0.23022466897964478,0.02719067595899105
0.07960000220919028,0.2302028089761734,0.027468396350741386
0.07999999797903001,0.23018072545528412,0.027746079489588737
0.08040000102482736,0.23015841841697693,0.028023721650242805
0.0807999967946671,0.23013588786125183,0.02830132097005844
0.08119999984046444,0.23011313378810883,0.028578881174325943
0.08160000288626179,0.2300901561975479,0.028856400400400162
0.08199999865610152,0.23006696999073029,0.029133876785635948
0.08240000170189887,0.23004354536533356,0.0294113140553236
0.0827999974717386,0.23001991212368011,0.029688706621527672
0.08320000051753595,0.22999604046344757,0.02996605820953846
0.0836000035633333,0.2299719601869583,0.030243366956710815
0.08399999933317304,0.22994765639305115,0.03052063286304474
0.08440000237897038,0.22992312908172607,0.03079785592854023
0.08479999814881012,0.2298983782529831,0.03107503615319729
0.08520000119460747,0.2298734039068222,0.031352173537015915
0.0855999969644472,0.2298482209444046,0.03162926435470581
0.08600000001024455,0.2298227995634079,0.03190631419420242
0.0864000030560419,0.22979716956615448,0.032183315604925156
0.08679999882588163,0.22977130115032196,0.032460276037454605
0.08720000187167898,0.22974522411823273,0.03273719176650047
0.08759999764151871,0.22971892356872559,0.03301405906677246
0.08800000068731606,0.22969239950180054,0.03329088166356087
0.0883999964571558,0.22966566681861877,0.03356766328215599
0.08879999950295314,0.2296386957168579,0.033844392746686935
0.08920000254875049,0.22961151599884033,0.0341210812330246
0.08959999831859022,0.22958409786224365,0.03439771756529808
0.09000000136438757,0.2588031589984894,0.034680791199207306
0.0903999971342273,0.288021981716156,0.03502175584435463
0.09080000018002465,0.28799381852149963,0.0353691503405571
0.091200003225822,0.2879653871059418,0.03571649268269539
0.09159999899566174,0.28793665766716003,0.0360637828707695
0.09200000204145908,0.2879076898097992,0.03641102463006973
0.09239999781129882,0.2878784239292145,0.03675821051001549
0.09280000085709617,0.2878488600254059,0.03710534796118736
0.0931999966269359,0.2878190577030182,0.03745242953300476
0.09359999967273325,0.28778892755508423,0.03779945895075798
0.0940000027185306,0.28775855898857117,0.03814643248915672
0.09439999848837033,0.2877279222011566,0.03849335387349129
0.09480000153416768,0.2876969873905182,0.03884022310376167
0.09519999730400741,0.2876657545566559,0.03918703645467758
0.09560000034980476,0.2876342833042145,0.039533793926239014
0.09600000339560211,0.2876025140285492,0.03988049924373627
0.09639999916544184,0.2875704765319824,0.040227144956588745
0.09680000221123919,0.2875381410121918,0.040573738515377045
0.09719999798107892,0.28750553727149963,0.04092027246952057
0.09760000102687627,0.287472665309906,0.041266750544309616
0.097999996796716,0.2874395251274109,0.041613176465034485
0.09839999984251335,0.2874060869216919,0.04195953905582428
0.0988000028883107,0.2873723804950714,0.042305849492549896
0.09919999865815043,0.28733840584754944,0.04265209659934044
0.09960000170394778,0.2873041331768036,0.042998287826776505
0.09999999747378752,0.28726959228515625,0.04334442317485809
0.10040000051958486,0.2872347831726074,0.04369049891829491
0.10080000356538221,0.2871996760368347,0.044036511331796646
0.10119999933522195,0.2871643304824829,0.04438246786594391
0.1016000023810193,0.2871286869049072,0.044728364795446396
0.10199999815085903,0.28709274530410767,0.04507420212030411
0.10240000119665638,0.287056565284729,0.045419976115226746
0.10279999696649611,0.28702008724212646,0.04576569050550461
0.10320000001229346,0.28698334097862244,0.046111345291137695
0.1036000030580908,0.28694629669189453,0.04645693674683571
0.10399999882793054,0.2869090139865875,0.04680246859788895
0.10440000187372789,0.28687143325805664,0.04714793711900711
0.10479999764356762,0.2868335545063019,0.0474933423101902
0.10520000068936497,0.286795437335968,0.04783868417143822
0.1055999964592047,0.2867570221424103,0.04818396270275116
0.10599999950500205,0.28671833872795105,0.04852918162941933
0.1064000025507994,0.28667938709259033,0.04887433350086212
0.10679999832063913,0.28664013743400574,0.04921942204236984
0.10720000136643648,0.28660061955451965,0.04956444352865219
0.10759999713627622,0.2865608334541321,0.049909405410289764
0.10800000018207356,0.286520779132843,0.05025429651141167
0.10840000322787091,0.2864804267883301,0.050599128007888794
0.10879999899771065,0.28643980622291565,0.05094388872385025
0.109200002043508,0.28639891743659973,0.05128858610987663
0.10959999781334773,0.2863577604293823,0.05163321644067764
0.11000000085914508,0.3157139718532562,0.05198432505130768
0.11039999662898481,0.34506988525390625,0.05239354074001312
0.11079999967478216,0.3450278043746948,0.052809230983257294
0.1112000027205795,0.34498539566993713,0.053224850445985794
0.11159999849041924,0.3449426591396332,0.053640399128198624
0.11200000153621659,0.34489956498146057,0.054055873304605484
0.11239999730605632,0.3448561429977417,0.054471276700496674
0.11280000035185367,0.34481242299079895,0.054886605590581894
0.11320000339765102,0.34476834535598755,0.055301863700151443
0.11359999916749075,0.3447239398956299,0.055717047303915024
0.1140000022132881,0.34467920660972595,0.056132156401872635
0.11439999798312783,0.34463411569595337,0.05654718726873398
0.11480000102892518,0.3445887267589569,0.05696214735507965
0.11519999679876491,0.3445429801940918,0.057377032935619354
0.11559999984456226,0.3444969058036804,0.05779184028506279
0.11600000289035961,0.3444505035877228,0.058206573128700256
0.11639999866019934,0.34440377354621887,0.058621227741241455
0.11680000170599669,0.3443567156791687,0.059035804122686386
0.11719999747583643,0.34430932998657227,0.05945030599832535
0.11760000052163377,0.3442615866661072,0.05986472964286804
0.11800000356743112,0.3442135453224182,0.06027907505631447
0.11839999933727086,0.3441651463508606,0.06069334223866463
0.1188000023830682,0.3441164195537567,0.06110752746462822
0.11919999815290794,0.34406739473342896,0.06152163818478584
0.11960000119870529,0.34401801228523254,0.0619356669485569
0.11999999696854502,0.3439682722091675,0.06234961375594139
0.12040000001434237,0.34391823410987854,0.06276348233222961
0.12080000306013972,0.34386783838272095,0.06317726522684097
0.12119999882997945,0.3438171446323395,0.06359097361564636
0.1216000018757768,0.34376609325408936,0.06400460004806519
0.12199999764561653,0.34371474385261536,0.06441813707351685
0.12240000069141388,0.3436630368232727,0.06483159959316254
0.12280000373721123,0.3436110019683838,0.06524497270584106
0.12320000678300858,0.3435586392879486,0.06565827131271362
0.1235999952768907,0.34350594878196716,0.06607148051261902
0.12399999832268804,0.34345293045043945,0.06648460030555725
0.12440000136848539,0.3433995842933655,0.06689764559268951
0.12480000441428274,0.34334588050842285,0.06731060147285461
0.12519999290816486,0.34329187870025635,0.06772346794605255
0.1255999959539622,0.3432375490665436,0.06813625246286392
0.12599999899975955,0.34318286180496216,0.06854895502328873
0.1264000020455569,0.3431278467178345,0.06896156817674637
0.12680000509135425,0.3430725336074829,0.06937409192323685
0.12719999358523637,0.3430168628692627,0.06978653371334076
0.12759999663103372,0.3429608643054962,0.07019887864589691
0.12799999967683107,0.34290453791618347,0.0706111416220665
0.12840000272262841,0.34284788370132446,0.07102331519126892
0.12880000576842576,0.3427909016609192,0.07143539935350418
0.12919999426230788,0.34273359179496765,0.07184740155935287
0.12959999730810523,0.34267595410346985,0.07225930690765381
0.13000000035390258,0.3720446228981018,0.07267767935991287
0.13040000339969993,0.4014129042625427,0.07315418124198914
0.13080000644549727,0.40135419368743896,0.07363715022802353
0.1311999949393794,0.40129509568214417,0.07412002235651016
0.13159999798517674,0.4012356102466583,0.07460279762744904
0.1320000010309741,0.40117573738098145,0.07508547604084015
0.13240000407677144,0.4011154770851135,0.0755680650472641
0.1328000071225688,0.40105482935905457,0.07605054974555969
0.1331999956164509,0.40099379420280457,0.07653294503688812
0.13359999866224825,0.4009323716163635,0.0770152360200882
0.1340000017080456,0.40087056159973145,0.07749743014574051
0.13440000475384295,0.4008083641529083,0.07797952741384506
0.13479999324772507,0.40074580907821655,0.07846152782440186
0.13519999629352242,0.40068283677101135,0.07894342392683029
0.13559999933931977,0.4006194770336151,0.07942522317171097
0.1360000023851171,0.4005557596683502,0.07990692555904388
0.13640000543091446,0.4004916250705719,0.08038852363824844
0.13679999392479658,0.4004271328449249,0.08087001740932465
