time[s],iL[A],v out[V]
0.0,0.0,0.0
0.00040000000467443897,0.0,0.0
0.0008000000093488779,0.0,0.0
0.0012000000424450263,0.0,0.0
0.0016000000186977559,0.0,0.0
0.0019999999949504854,0.0,0.0
0.0024000000848900527,0.0,0.0
0.0027999999474559445,0.0,0.0
0.0032000000373955118,0.0,0.0
0.0035999998999614036,0.0,0.0
0.003999999989900971,0.0,0.0
0.004399999852466863,0.0,0.0
0.004800000169780105,0.0,0.0
0.005200000032345997,0.0,0.0
0.005599999894911889,0.0,0.0
0.006000000212225132,0.0,0.0
0.0064000000747910235,0.0,0.0
0.006799999937356915,0.0,0.0
0.007199999799922807,0.0,0.0
0.00760000011723605,0.0,0.0
0.007999999979801942,0.0,0.0
0.008400000297115184,0.0,0.0
0.008799999704933725,0.0,0.0
0.009200000022246968,0.0,0.0
0.00960000033956021,0.015489323064684868,1.817563543227152e-06
0.009999999747378752,0.09548930078744888,6.907601346028969e-05
0.010400000064691994,0.17548918724060059,0.0002332984731765464
0.010800000382005237,0.19097822904586792,0.0004629530303645879
0.011199999789823778,0.1909777671098709,0.000694413494784385
0.01160000010713702,0.19097712635993958,0.0009258619975298643
0.012000000424450263,0.19097629189491272,0.0011572984512895346
0.012399999832268804,0.19097526371479034,0.0013887225650250912
0.012800000149582047,0.19097407162189484,0.0016201341059058905
0.013199999557400588,0.19097267091274261,0.0018515328411012888
0.01359999987471383,0.19097110629081726,0.0020829185377806425
0.014000000192027073,0.1909693479537964,0.002314290963113308
0.014399999599845614,0.19096739590168,0.002545650117099285
0.014799999917158857,0.19096526503562927,0.002776995301246643
0.0152000002344721,0.19096295535564423,0.0030083267483860254
0.015600000551785342,0.19096045196056366,0.003239643992856145
0.015999999959603883,0.19095776975154877,0.0034709470346570015
0.016399999367422424,0.19095490872859955,0.003702235408127308
0.01680000059423037,0.1909518539905548,0.0039335088804364204
0.01720000000204891,0.19094860553741455,0.004164767451584339
0.01759999940986745,0.19094519317150116,0.004396010655909777
0.018000000636675395,0.19094157218933105,0.004627238493412733
0.018400000044493936,0.19093778729438782,0.004858450498431921
0.018799999452312477,0.19093380868434906,0.0050896466709673405
0.01920000067912042,0.19092963635921478,0.0053208270110189915
0.019600000086938962,0.19092528522014618,0.005551990587264299
0.019999999494757503,0.19092075526714325,0.005783137399703264
0.020400000721565448,0.1909160315990448,0.006014267448335886
0.02080000012938399,0.19091112911701202,0.006245380733162165
0.02119999953720253,0.19090604782104492,0.006476476788520813
0.021600000764010474,0.1909007728099823,0.006707555148750544
0.022000000171829015,0.19089531898498535,0.006938616279512644
0.022399999579647556,0.19088967144489288,0.007169658783823252
0.0228000008064555,0.1908838450908661,0.007400683593004942
0.02320000021427404,0.19087782502174377,0.00763168977573514
0.023599999622092582,0.19087162613868713,0.007862677797675133
0.024000000848900527,0.19086524844169617,0.008093646727502346
0.024400000256719068,0.19085867702960968,0.008324596099555492
0.02479999966453761,0.19085192680358887,0.008555526845157146
0.025200000891345553,0.19084499776363373,0.008786438032984734
0.025600000299164094,0.19083787500858307,0.009017329663038254
0.025999999706982635,0.1908305585384369,0.009248200803995132
0.026399999114801176,0.19082307815551758,0.009479052387177944
0.02680000034160912,0.19081538915634155,0.00970988254994154
0.02719999974942766,0.1908075362443924,0.009940693154931068
0.027599999157246202,0.19079948961734772,0.010171482339501381
0.028000000384054147,0.1907912641763687,0.010402251034975052
0.028399999791872688,0.1907828450202942,0.010632998310029507
0.02879999919969123,0.19077424705028534,0.01086372323334217
0.029200000426499173,0.19076547026634216,0.011094427667558193
0.029599999834317714,0.20534877479076385,0.011326722800731659
0.029999999242136255,0.2853395938873291,0.011623553931713104
0.0304000004689442,0.36533015966415405,0.012017326429486275
0.030800001695752144,0.3799126148223877,0.012475625611841679
0.031200001103570685,0.3799024522304535,0.012935503385961056
0.031600000511389226,0.37989193201065063,0.013395346701145172
0.03199999991920777,0.37988102436065674,0.013855154626071453
0.03239999932702631,0.3798697590827942,0.014314926229417324
0.03279999873484485,0.379858136177063,0.01477466244250536
0.0332000017806422,0.37984612584114075,0.015234362334012985
0.03360000118846074,0.37983375787734985,0.01569402404129505
0.03400000059627928,0.3798210024833679,0.016153648495674133
0.03440000000409782,0.37980788946151733,0.01661323569715023
0.03479999941191636,0.3797944188117981,0.017072783783078194
0.0351999988197349,0.3797805905342102,0.017532294616103172
0.03559999822755344,0.3797663748264313,0.017991764470934868
0.03600000127335079,0.3797518014907837,0.01845119521021843
0.03640000068116933,0.37973684072494507,0.018910584971308708
0.03680000008898787,0.3797215521335602,0.019369935616850853
0.03719999949680641,0.37970587611198425,0.019829243421554565
0.037599998904624954,0.3796898126602173,0.020288512110710144
0.037999998312443495,0.37967339158058167,0.02074773609638214
0.03840000135824084,0.3796566128730774,0.021206919103860855
0.038800000766059384,0.37963947653770447,0.021666059270501137
0.039200000173877925,0.3796219527721405,0.022125156596302986
0.039599999581696466,0.3796040713787079,0.022584209218621254
0.03999999898951501,0.3795858323574066,0.02304321900010109
0.04039999839733355,0.3795672059059143,0.023502184078097343
0.040800001443130895,0.37954822182655334,0.023961102589964867
0.041200000850949436,0.37952888011932373,0.02441997639834881
0.04160000025876798,0.3795091509819031,0.02487880550324917
0.04199999966658652,0.37948906421661377,0.02533758617937565
0.04239999907440506,0.3794686198234558,0.025796320289373398
0.0427999984822236,0.3794477880001068,0.026255007833242416
0.04320000152802095,0.37942659854888916,0.026713648810982704
0.04360000093583949,0.37940505146980286,0.027172239497303963
0.04400000034365803,0.3793831467628479,0.02763078361749649
0.04439999975147657,0.3793608546257019,0.02808927744626999
0.04479999915929511,0.37933820486068726,0.02854772098362446
0.04519999856711365,0.37931516766548157,0.029006116092205048
0.045600001612911,0.3792917728424072,0.029464460909366608
0.04600000102072954,0.37926802039146423,0.02992275543510914
0.04640000042854808,0.3792439103126526,0.03038099594414234
0.046799999836366624,0.3792194128036499,0.030839188024401665
0.047199999244185165,0.37919455766677856,0.03129732608795166
0.047599998652003706,0.3791693449020386,0.03175541013479233
0.048000001697801054,0.37914374470710754,0.032213445752859116
0.048400001105619594,0.37911778688430786,0.032671425491571426
0.048800000513438135,0.3790914714336395,0.03312934935092926
0.049199999921256676,0.37906479835510254,0.033587221056222916
0.04959999932907522,0.39003613591194153,0.034045953303575516
0.04999999873689376,0.4700087010860443,0.034565530717372894
0.050400001782691106,0.5499808192253113,0.03518201410770416
0.05080000119050965,0.5609508156776428,0.03585933521389961
0.05120000059832819,0.560921847820282,0.03653750196099281
0.05160000000614673,0.5608923435211182,0.03721560165286064
0.05199999941396527,0.5608623027801514,0.0378936342895031
0.05239999882178381,0.5608317255973816,0.038571592420339584
0.05279999822960235,0.5608006119728088,0.0392494834959507
0.0532000012753997,0.5607689023017883,0.03992730379104614
0.05360000068321824,0.5607367157936096,0.040605053305625916
0.05400000009103678,0.5607039332389832,0.04128272831439972
0.05439999949885532,0.5606706738471985,0.04196033254265785
0.054799998906673864,0.5606368184089661,0.042637862265110016
0.055199998314492404,0.5606024265289307,0.04331531748175621
0.05560000136028975,0.5605674982070923,0.043992698192596436
0.05600000076810829,0.5605320334434509,0.04467000067234039
0.056400000175926834,0.5604960322380066,0.04534722864627838
0.056799999583745375,0.5604594945907593,0.0460243821144104
0.057199998991563916,0.560422420501709,0.04670145735144615
0.05759999839938246,0.5603847503662109,0.047378454357385635
0.058000001445179805,0.5603466033935547,0.04805536940693855
0.058400000852998346,0.5603078603744507,0.0487322099506855
0.05880000026081689,0.5602686405181885,0.04940896853804588
0.05919999966863543,0.5602288246154785,0.0500856451690197
0.05959999907645397,0.5601884722709656,0.05076223984360695
0.05999999848427251,0.5601475834846497,0.05143875628709793
0.06040000153006986,0.5601061582565308,0.05211518704891205
0.0608000009378884,0.5600641965866089,0.0527915358543396
0.06120000034570694,0.560021698474884,0.053467798978090286
0.06160000339150429,0.5599786639213562,0.05414398014545441
0.06199999916134402,0.5599350929260254,0.054820071905851364
0.06240000220714137,0.5598909258842468,0.055496081709861755
0.0627999979769811,0.5598462820053101,0.056172002106904984
0.06320000102277845,0.5598010420799255,0.05684783682227135
0.06359999679261819,0.5597553253173828,0.05752358213067055
0.06399999983841553,0.5597090125083923,0.05819924175739288
0.06440000288421288,0.5596622228622437,0.05887480825185776
0.06479999865405262,0.5596148371696472,0.05955028906464577
0.06520000169984996,0.5595669150352478,0.060225676745176315
0.0655999974696897,0.5595184564590454,0.0609009750187397
0.06600000051548705,0.55946946144104,0.061576180160045624
0.0664000035612844,0.5594199299812317,0.062251292169094086
0.06679999933112413,0.5593698620796204,0.06292631477117538
0.06720000237692147,0.559319257736206,0.06360124051570892
0.06759999814676121,0.5592681169509888,0.0642760694026947
0.06800000119255856,0.5592164397239685,0.06495080888271332
0.06839999696239829,0.5591641664505005,0.06562545150518417
0.06880000000819564,0.5591114163398743,0.06629998981952667
0.06920000305399299,0.5590581297874451,0.06697443872690201
0.06959999882383272,0.5688429474830627,0.06764952093362808
0.07000000186963007,0.6487885117530823,0.06838418543338776
0.0703999976394698,0.728733479976654,0.06921571493148804
0.07080000068526715,0.7385164499282837,0.07010680437088013
0.07119999645510688,0.7384600043296814,0.07099851965904236
0.07159999950090423,0.7384028434753418,0.07189013063907623
0.07200000254670158,0.7383449673652649,0.07278162240982056
0.07239999831654131,0.7382864356040955,0.07367299497127533
0.07280000136233866,0.738227128982544,0.07456426322460175
0.0731999971321784,0.7381671071052551,0.07545540481805801
0.07360000017797574,0.738106369972229,0.07634644210338593
0.07400000322377309,0.7380449771881104,0.07723735272884369
0.07439999899361283,0.7379828095436096,0.0781281515955925
0.07480000203941017,0.7379199266433716,0.07901882380247116
0.07519999780924991,0.737856388092041,0.07990938425064087
0.07560000085504726,0.7377920746803284,0.08079981803894043
0.07599999662488699,0.7377271056175232,0.08169013261795044
0.07639999967068434,0.7376613616943359,0.0825803279876709
0.07680000271648169,0.7375949621200562,0.08347039669752121
0.07719999848632142,0.7375278472900391,0.08436033874750137
0.07760000153211877,0.7374600172042847,0.08525016158819199
0.0779999973019585,0.7373914122581482,0.08613985776901245
0.07840000034775585,0.7373221516609192,0.08702942728996277
0.0788000033935532,0.7372521758079529,0.08791886270046234
0.07919999916339293,0.7371814846992493,0.08880817890167236
0.07960000220919028,0.7371100783348083,0.08969736099243164
0.07999999797903001,0.7370379567146301,0.09058640897274017
0.08040000102482736,0.7369651198387146,0.09147533029317856
0.0807999967946671,0.7368915677070618,0.0923641175031662
0.08119999984046444,0.7368173599243164,0.09325277805328369
0.08160000288626179,0.736742377281189,0.09414130449295044
0.08199999865610152,0.736666738986969,0.09502968937158585
0.08240000170189887,0.7365903258323669,0.0959179475903511
0.0827999974717386,0.7365132570266724,0.09680606424808502
0.08320000051753595,0.7364354729652405,0.0976940467953682
0.0836000035633333,0.7363569736480713,0.09858188778162003
0.08399999933317304,0.73627769947052,0.09946959465742111
0.08440000237897038,0.7361977696418762,0.10035715997219086
0.08479999814881012,0.7361171245574951,0.10124458372592926
0.08520000119460747,0.7360358238220215,0.10213186591863632
0.0855999969644472,0.7359537482261658,0.10301900655031204
0.08600000001024455,0.7358709573745728,0.10390600562095642
0.0864000030560419,0.7357875108718872,0.10479286313056946
0.08679999882588163,0.7357032895088196,0.10567957162857056
0.08720000187167898,0.7356184124946594,0.10656613856554031
0.08759999764151871,0.735532820224762,0.10745255649089813
0.08800000068731606,0.7354464530944824,0.10833882540464401
0.0883999964571558,0.7353594303131104,0.10922495275735855
0.08879999950295314,0.735271692276001,0.11011092364788055
0.08920000254875049,0.7351832985877991,0.11099674552679062
0.08959999831859022,0.7437736988067627,0.11188299208879471
0.09000000136438757,0.8236837983131409,0.11282751709222794
0.0903999971342273,0.903593122959137,0.11386886239051819
0.09080000018002465,0.9121811389923096,0.11496847122907639
0.091200003225822,0.9120887517929077,0.11606848984956741
0.09159999899566174,0.9119954109191895,0.11716833710670471
0.09200000204145908,0.9119012355804443,0.11826802790164948
0.09239999781129882,0.9118062257766724,0.11936753988265991
0.09280000085709617,0.911710262298584,0.12046688795089722
0.0931999966269359,0.9116134643554688,0.12156606465578079
0.09359999967273325,0.9115157723426819,0.12266506999731064
0.0940000027185306,0.9114171862602234,0.12376390397548676
0.09439999848837033,0.911317765712738,0.12486256659030914
0.09480000153416768,0.9112173914909363,0.1259610503911972
0.09519999730400741,0.9111161828041077,0.12705937027931213
0.09560000034980476,0.9110141396522522,0.12815749645233154
0.09600000339560211,0.9109111428260803,0.12925545871257782
0.09639999916544184,0.9108073115348816,0.13035322725772858
0.09680000221123919,0.9107025861740112,0.1314508318901062
0.09719999798107892,0.9105969667434692,0.1325482428073883
0.09760000102687627,0.9104905128479004,0.13364548981189728
0.097999996796716,0.9103831648826599,0.13474254310131073
0.09839999984251335,0.9102749228477478,0.13583940267562866
0.0988000028883107,0.9101657867431641,0.13693609833717346
0.09919999865815043,0.9100558161735535,0.13803260028362274
0.09960000170394778,0.9099449515342712,0.1391289085149765
0.09999999747378752,0.9098331928253174,0.14022502303123474
0.10040000051958486,0.9097205996513367,0.14132095873355865
0.10080000356538221,0.9096070528030396,0.14241670072078705
0.10119999933522195,0.9094927310943604,0.14351224899291992
0.1016000023810193,0.9093774557113647,0.14460761845111847
0.10199999815085903,0.9092613458633423,0.1457027792930603
0.10240000119665638,0.9091443419456482,0.1467977613210678
0.10279999696649611,0.9090264439582825,0.1478925347328186
0.10320000001229346,0.9089077115058899,0.14898711442947388
0.1036000030580908,0.9087880849838257,0.15008150041103363
0.10399999882793054,0.9086675643920898,0.15117567777633667
0.10440000187372789,0.9085462093353271,0.15226967632770538
0.10479999764356762,0.9084239602088928,0.1533634513616562
0.10520000068936497,0.9083008170127869,0.15445703268051147
0.1055999964592047,0.908176839351654,0.15555042028427124
0.10599999950500205,0.9080519080162048,0.1566435992717743
0.1064000025507994,0.9079262018203735,0.15773656964302063
0.10679999832063913,0.9077995419502258,0.15882933139801025
0.10720000136643648,0.9076720476150513,0.15992188453674316
0.10759999713627622,0.9075436592102051,0.16101424396038055
0.10800000018207356,0.907414436340332,0.16210637986660004
0.10840000322787091,0.9072843194007874,0.1631983071565628
0.10879999899771065,0.907153308391571,0.16429004073143005
0.109200002043508,0.9070214629173279,0.1653815358877182
0.10959999781334773,0.9144219756126404,0.16647326946258545
0.11000000085914508,0.9942883849143982,0.16762195527553558
0.11039999662898481,1.0741537809371948,0.16886740922927856
0.11079999967478216,1.081551432609558,0.17016981542110443
0.1112000027205795,1.081414818763733,0.17147241532802582
0.11159999849041924,1.0812771320343018,0.1727747917175293
0.11200000153621659,1.0811383724212646,0.17407694458961487
0.11239999730605632,1.0809985399246216,0.17537885904312134
0.11280000035185367,1.080857753753662,0.1766805350780487
0.11320000339765102,1.0807158946990967,0.17798198759555817
0.11359999916749075,1.0805729627609253,0.17928320169448853
0.1140000022132881,1.0804290771484375,0.1805841624736786
0.11439999798312783,1.0802839994430542,0.18188489973545074
0.11480000102892518,1.0801379680633545,0.1831853985786438
0.11519999679876491,1.0799909830093384,0.18448565900325775
0.11559999984456226,1.0798428058624268,0.1857856661081314
0.11600000289035961,1.0796936750411987,0.18708544969558716
0.11639999866019934,1.0795434713363647,0.18838496506214142
0.11680000170599669,1.0793923139572144,0.18968425691127777
0.11719999747583643,1.0792399644851685,0.19098328053951263
0.11760000052163377,1.0790866613388062,0.1922820657491684
0.11800000356743112,1.0789324045181274,0.19358061254024506
0.11839999933727086,1.0787769556045532,0.19487889111042023
0.1188000023830682,1.0786205530166626,0.1961769312620163
0.11919999815290794,1.078463077545166,0.19747470319271088
0.11960000119870529,1.078304648399353,0.19877223670482635
0.11999999696854502,1.0781450271606445,0.20006950199604034
0.12040000001434237,1.0779844522476196,0.20136651396751404
0.12080000306013972,1.0778228044509888,0.20266327261924744
0.12119999882997945,1.0776602029800415,0.20395976305007935
0.1216000018757768,1.0774965286254883,0.20525600016117096
0.12199999764561653,1.077331781387329,0.20655196905136108
0.12240000069141388,1.0771660804748535,0.2078476846218109
0.12280000373721123,1.0769991874694824,0.20914313197135925
0.12320000678300858,1.076831340789795,0.2104383111000061
0.1235999952768907,1.076662540435791,0.21173322200775146
0.12399999832268804,1.0764926671981812,0.21302786469459534
0.12440000136848539,1.0763217210769653,0.2143222540616989
0.12480000441428274,1.0761497020721436,0.2156163454055786
0.12519999290816486,1.0759767293930054,0.21691018342971802
0.1255999959539622,1.0758026838302612,0.21820375323295593
0.12599999899975955,1.0756275653839111,0.21949703991413116
0.1264000020455569,1.0754514932632446,0.2207900434732437
0.12680000509135425,1.0752743482589722,0.22208277881145477
0.12719999358523637,1.0750961303710938,0.22337523102760315
0.12759999663103372,1.074916958808899,0.22466741502285004
0.12799999967683107,1.0747365951538086,0.22595930099487305
0.12840000272262841,1.0745553970336914,0.22725091874599457
0.12880000576842576,1.0743730068206787,0.2285422533750534
0.12919999426230788,1.0741896629333496,0.22983330488204956
0.12959999730810523,1.0811333656311035,0.23112444579601288
0.13000000035390258,1.1609480381011963,0.23247204720973969
0.13040000339969993,1.240761399269104,0.23391632735729218
0.13080000644549727,1.2477017641067505,0.23541703820228577
0.1311999949393794,1.2475128173828125,0.23691783845424652
0.13159999798517674,1.2473227977752686,0.2384183406829834
0.1320000010309741,1.24713134765625,0.2399185299873352
0.13240000407677144,1.2469388246536255,0.24141842126846313
0.1328000071225688,1.2467451095581055,0.242917999625206
0.1331999956164509,1.24655020236969,0.24441727995872498
0.13359999866224825,1.246354103088379,0.2459162473678589
0.1340000017080456,1.2461566925048828,0.24741488695144653
0.13440000475384295,1.2459582090377808,0.2489132285118103
0.13479999324772507,1.2457585334777832,0.2504112720489502
0.13519999629352242,1.2455575466156006,0.25190895795822144
0.13559999933931977,1.2453553676605225,0.2534063756465912
0.1360000023851171,1.2451521158218384,0.2549034357070923
0.13640000543091446,1.2449475526809692,0.2564001977443695
0.13679999392479658,1.2447419166564941,0.25789663195610046
0.13719999697059393,1.244534969329834,0.25939273834228516
0.13760000001639128,1.2443268299102783,0.26088854670524597
0.13800000306218863,1.2441174983978271,0.26238399744033813
0.13840000610798597,1.2439069747924805,0.26387912034988403
0.1387999946018681,1.2436952590942383,0.26537394523620605
0.13919999764766544,1.2434824705123901,0.2668684124946594
