time[s],iL[A],v out[V]
0.0,0.0,0.0
0.00040000000467443897,0.0,0.0
0.0008000000093488779,0.0,0.0
0.0012000000424450263,0.0,0.0
0.0016000000186977559,0.0,0.0
0.0019999999949504854,0.0,0.0
0.0024000000848900527,0.0,0.0
0.0027999999474559445,0.0,0.0
0.0032000000373955118,0.0,0.0
0.0035999998999614036,0.0,0.0
0.003999999989900971,0.0,0.0
0.004399999852466863,0.0,0.0
0.004800000169780105,0.0,0.0
0.005200000032345997,0.0,0.0
0.005599999894911889,0.0,0.0
0.006000000212225132,0.0,0.0
0.0064000000747910235,0.0,0.0
0.006799999937356915,0.0,0.0
0.007199999799922807,0.0,0.0
0.00760000011723605,0.0,0.0
0.007999999979801942,0.0,0.0
0.008400000297115184,0.0,0.0
0.008799999704933725,0.0,0.0
0.009200000022246968,0.0,0.0
0.00960000033956021,0.014617068693041801,1.6186216953428811e-06
0.009999999747378752,0.09461704641580582,6.781982665415853e-05
0.010400000064691994,0.17461693286895752,0.000230985097005032
0.010800000382005237,0.18923373520374298,0.0004587241855915636
0.011199999789823778,0.18923327326774597,0.0006880703731440008
0.01160000010713702,0.18923263251781464,0.0009174047154374421
0.012000000424450263,0.18923179805278778,0.001146727125160396
0.012399999832268804,0.1892307847738266,0.0013760372530668974
0.012800000149582047,0.1892295926809311,0.0016053349245339632
0.013199999557400588,0.18922822177410126,0.0018346199067309499
0.01359999987471383,0.1892266571521759,0.0020638920832425356
0.014000000192027073,0.18922492861747742,0.002293150871992111
0.014399999599845614,0.18922299146652222,0.002522396622225642
0.014799999917158857,0.18922089040279388,0.0027516286354511976
0.0152000002344721,0.18921859562397003,0.002980847144499421
0.015600000551785342,0.18921612203121185,0.0032100514508783817
0.015999999959603883,0.18921345472335815,0.003439241321757436
0.016399999367422424,0.18921060860157013,0.003668416989967227
0.01680000059423037,0.18920758366584778,0.003897577989846468
0.01720000000204891,0.1892043799161911,0.0041267238557338715
0.01759999940986745,0.1892009824514389,0.004355854820460081
0.018000000636675395,0.18919740617275238,0.004584970884025097
0.018400000044493936,0.18919365108013153,0.004814070649445057
0.018799999452312477,0.18918970227241516,0.005043155048042536
0.01920000067912042,0.18918557465076447,0.005272223148494959
0.019600000086938962,0.18918126821517944,0.0055012754164636135
0.019999999494757503,0.1891767829656601,0.005730310920625925
0.020400000721565448,0.18917210400104523,0.005959330126643181
0.02080000012938399,0.18916724622249603,0.006188332103192806
0.02119999953720253,0.1891622096300125,0.006417316850274801
0.021600000764010474,0.18915697932243347,0.006646284833550453
0.022000000171829015,0.1891515702009201,0.0068752346560359
0.022399999579647556,0.1891459822654724,0.007104167249053717
0.0228000008064555,0.1891402006149292,0.007333081681281328
0.02320000021427404,0.18913424015045166,0.007561977952718735
0.023599999622092582,0.1891281008720398,0.007790855597704649
0.024000000848900527,0.1891217827796936,0.008019714616239071
0.024400000256719068,0.1891152709722519,0.008248554542660713
0.02479999966453761,0.18910858035087585,0.008477375842630863
0.025200000891345553,0.1891017109155655,0.008706177584826946
0.025600000299164094,0.1890946477651596,0.008934959769248962
0.025999999706982635,0.1890874207019806,0.009163722395896912
0.026399999114801176,0.18907998502254486,0.009392465464770794
0.02680000034160912,0.189072385430336,0.00962118711322546
0.02719999974942766,0.18906459212303162,0.00984988920390606
0.027599999157246202,0.1890566200017929,0.010078570805490017
0.028000000384054147,0.18904846906661987,0.010307230986654758
0.028399999791872688,0.1890401393175125,0.010535870678722858
0.02879999919969123,0.18903161585330963,0.010764488019049168
0.029200000426499173,0.18902291357517242,0.010993084870278835
0.029599999834317714,0.20109014213085175,0.01122276484966278
0.029999999242136255,0.28108105063438416,0.011514438316226006
0.0304000004689442,0.36107170581817627,0.011903055012226105
0.030800001695752144,0.3731381297111511,0.012353656813502312
0.031200001103570685,0.3731280565261841,0.012805329635739326
0.031600000511389226,0.3731176257133484,0.01325696799904108
0.03199999991920777,0.37310683727264404,0.013708570972084999
0.03239999932702631,0.37309569120407104,0.014160139486193657
0.03279999873484485,0.3730841875076294,0.01461167261004448
0.0332000017806422,0.3730723261833191,0.015063169412314892
0.03360000118846074,0.37306007742881775,0.01551462896168232
0.03400000059627928,0.37304750084877014,0.015966052189469337
0.03440000000409782,0.3730345368385315,0.01641743816435337
0.03479999941191636,0.3730212152004242,0.01686878688633442
0.0351999988197349,0.37300756573677063,0.017320096492767334
0.03559999822755344,0.372993528842926,0.017771366983652115
0.03600000127335079,0.3729791045188904,0.01822260022163391
0.03640000068116933,0.37296435236930847,0.018673792481422424
0.03680000008898787,0.3729492425918579,0.019124945625662804
0.03719999949680641,0.3729337453842163,0.0195760577917099
0.037599998904624954,0.37291792035102844,0.020027128979563713
0.037999998312443495,0.37290170788764954,0.020478157326579094
0.03840000135824084,0.37288516759872437,0.02092914655804634
0.038800000766059384,0.37286823987960815,0.021380092948675156
0.039200000173877925,0.3728509545326233,0.021830996498465538
0.039599999581696466,0.3728333115577698,0.022281857207417488
0.03999999898951501,0.3728152811527252,0.022732673212885857
0.04039999839733355,0.3727969229221344,0.023183446377515793
0.040800001443130895,0.37277817726135254,0.023634174838662148
0.041200000850949436,0.3727591037750244,0.02408485859632492
0.04160000025876798,0.37273964285850525,0.024535497650504112
0.04199999966658652,0.3727198541164398,0.024986090138554573
0.04239999907440506,0.37269967794418335,0.025436637923121452
0.0427999984822236,0.3726791441440582,0.0258871391415596
0.04320000152802095,0.37265825271606445,0.02633759193122387
0.04360000093583949,0.372637003660202,0.026787998154759407
0.04400000034365803,0.37261539697647095,0.027238357812166214
0.04439999975147657,0.3725934326648712,0.02768866717815399
0.04479999915929511,0.37257108092308044,0.02813892811536789
0.04519999856711365,0.3725484013557434,0.028589140623807907
0.045600001612911,0.3725253641605377,0.029039304703474045
0.04600000102072954,0.372501939535141,0.029489416629076004
0.04640000042854808,0.3724781572818756,0.029939478263258934
0.046799999836366624,0.37245404720306396,0.030389491468667984
0.047199999244185165,0.3724295496940613,0.030839450657367706
0.047599998652003706,0.37240469455718994,0.03128935769200325
0.048000001697801054,0.37237948179244995,0.031739216297864914
0.048400001105619594,0.3723539113998413,0.0321890190243721
0.048800000513438135,0.372327983379364,0.03263876959681511
0.049199999921256676,0.37230169773101807,0.03308846801519394
0.04959999932907522,0.38164904713630676,0.03353877738118172
0.04999999873689376,0.4616219997406006,0.034048210829496384
0.050400001782691106,0.5415945649147034,0.03465455770492554
0.05080000119050965,0.5509405732154846,0.035320017486810684
0.05120000059832819,0.5509120225906372,0.03598608076572418
0.05160000000614673,0.5508829951286316,0.03665207326412201
0.05199999941396527,0.5508533716201782,0.037317998707294464
0.05239999882178381,0.5508232712745667,0.03798385709524155
0.05279999822960235,0.5507926344871521,0.03864964470267296
0.0532000012753997,0.5507614016532898,0.039315365254879
0.05360000068321824,0.5507296919822693,0.03998101130127907
0.05400000009103678,0.5506974458694458,0.040646590292453766
0.05439999949885532,0.5506646633148193,0.041312094777822495
0.054799998906673864,0.5506313443183899,0.04197752848267555
0.055199998314492404,0.5505974888801575,0.04264288768172264
0.05560000136028975,0.5505631566047668,0.04330817237496376
0.05600000076810829,0.5505282282829285,0.04397338628768921
0.056400000175926834,0.5504927635192871,0.04463852196931839
0.056799999583745375,0.5504568219184875,0.0453035868704319
0.057199998991563916,0.5504202842712402,0.045968569815158844
0.05759999839938246,0.5503832697868347,0.04663347825407982
0.058000001445179805,0.5503456592559814,0.047298312187194824
0.058400000852998346,0.55030757188797,0.047963064163923264
0.05880000026081689,0.5502689480781555,0.048627737909555435
0.05919999966863543,0.5502297878265381,0.04929233342409134
0.05959999907645397,0.5501900911331177,0.049956850707530975
0.05999999848427251,0.5501498579978943,0.05062128230929375
0.06040000153006986,0.5501090884208679,0.05128563567996025
0.0608000009378884,0.5500677824020386,0.05194990709424019
0.06120000034570694,0.550025999546051,0.05261409655213356
0.06160000339150429,0.5499836206436157,0.05327820032835007
0.06199999916134402,0.5499407052993774,0.05394222214818001
0.06240000220714137,0.549897313117981,0.054606158286333084
0.0627999979769811,0.5498533844947815,0.055270012468099594
0.06320000102277845,0.5498088598251343,0.05593377724289894
0.06359999679261819,0.5497638583183289,0.05659745633602142
0.06399999983841553,0.5497183203697205,0.05726104974746704
0.06440000288421288,0.5496722459793091,0.057924553751945496
0.06479999865405262,0.5496256351470947,0.058587972074747086
0.06520000169984996,0.5495784878730774,0.05925130099058151
0.0655999974696897,0.5495308637619019,0.05991453677415848
0.06600000051548705,0.5494826436042786,0.06057768687605858
0.0664000035612844,0.5494339466094971,0.06124074384570122
0.06679999933112413,0.5493846535682678,0.061903707683086395
0.06720000237692147,0.5493348836898804,0.06256657838821411
0.06759999814676121,0.5492845773696899,0.06322935968637466
0.06800000119255856,0.5492336750030518,0.06389205157756805
0.06839999696239829,0.5491823554039001,0.06455463916063309
0.06880000000819564,0.5491304397583008,0.06521713733673096
0.06920000305399299,0.5490779876708984,0.06587953865528107
0.06959999882383272,0.5574718713760376,0.06654238700866699
0.07000000186963007,0.6374183297157288,0.06726332008838654
0.0703999976394698,0.7173641920089722,0.06808111816644669
0.07080000068526715,0.7257562875747681,0.06895699352025986
0.07119999645510688,0.7257007360458374,0.06983330100774765
0.07159999950090423,0.7256445288658142,0.07070949673652649
0.07200000254670158,0.7255876064300537,0.07158558815717697
0.07239999831654131,0.7255299687385559,0.0724615603685379
0.07280000136233866,0.7254716753959656,0.07333742082118988
0.0731999971321784,0.7254126667976379,0.07421316206455231
0.07360000017797574,0.725352942943573,0.07508879899978638
0.07400000322377309,0.7252925038337708,0.0759643167257309
0.07439999899361283,0.725231409072876,0.07683971524238586
0.07480000203941017,0.7251695394515991,0.07771500200033188
0.07519999780924991,0.7251070141792297,0.07859016954898834
0.07560000085504726,0.7250438332557678,0.07946521788835526
0.07599999662488699,0.7249798774719238,0.08034013956785202
0.07639999967068434,0.7249152660369873,0.08121494948863983
0.07680000271648169,0.7248499393463135,0.08208964020013809
0.07719999848632142,0.7247839570045471,0.0829642042517662
0.07760000153211877,0.7247171998023987,0.08383864164352417
0.0779999973019585,0.7246497869491577,0.08471295982599258
0.07840000034775585,0.7245816588401794,0.08558715879917145
0.0788000033935532,0.7245128750801086,0.08646122366189957
0.07919999916339293,0.7244433164596558,0.08733516931533813
0.07960000220919028,0.7243731021881104,0.08820898085832596
0.07999999797903001,0.7243021726608276,0.08908266574144363
0.08040000102482736,0.7242305278778076,0.08995622396469116
0.0807999967946671,0.7241582274436951,0.09082965552806854
0.08119999984046444,0.7240852117538452,0.09170295298099518
0.08160000288626179,0.7240115404129028,0.09257611632347107
0.08199999865610152,0.7239370942115784,0.09344915300607681
0.08240000170189887,0.7238619923591614,0.09432205557823181
0.0827999974717386,0.7237861752510071,0.09519482403993607
0.08320000051753595,0.7237097024917603,0.09606745839118958
0.0836000035633333,0.7236325144767761,0.09693995863199234
0.08399999933317304,0.7235546112060547,0.09781231731176376
0.08440000237897038,0.723475992679596,0.09868454188108444
0.08479999814881012,0.7233966588973999,0.09955663233995438
0.08520000119460747,0.7233166694641113,0.10042857378721237
0.0855999969644472,0.7232360243797302,0.10130038857460022
0.08600000001024455,0.723154604434967,0.10217205435037613
0.0864000030560419,0.7230725288391113,0.1030435785651207
0.08679999882588163,0.7229897379875183,0.10391496121883392
0.08720000187167898,0.7229062914848328,0.10478620231151581
0.08759999764151871,0.7228220701217651,0.10565730184316635
0.08800000068731606,0.722737193107605,0.10652825236320496
0.0883999964571558,0.7226516604423523,0.10739906132221222
0.08879999950295314,0.7225653529167175,0.10826972126960754
0.08920000254875049,0.7224783897399902,0.10914023965597153
0.08959999831859022,0.7304467558860779,0.11001109331846237
0.09000000136438757,0.8103584051132202,0.11093956232070923
0.0903999971342273,0.8902692198753357,0.11196483671665192
0.09080000018002465,0.8982352614402771,0.11304771900177002
0.091200003225822,0.8981444239616394,0.11413092166185379
0.09159999899566174,0.8980526328086853,0.11521396785974503
0.09200000204145908,0.8979600667953491,0.11629685014486313
0.09239999781129882,0.8978666067123413,0.1173795685172081
0.09280000085709617,0.8977722525596619,0.11846211552619934
0.0931999966269359,0.8976770639419556,0.11954449862241745
0.09359999967273325,0.8975809812545776,0.12062671035528183
0.0940000027185306,0.8974840641021729,0.12170875072479248
0.09439999848837033,0.8973862528800964,0.12279062718153
0.09480000153416768,0.8972876071929932,0.12387232482433319
0.09519999730400741,0.8971880674362183,0.12495385110378265
0.09560000034980476,0.8970876336097717,0.12603521347045898
0.09600000339560211,0.8969863653182983,0.127116397023201
0.09639999916544184,0.8968842625617981,0.12819740176200867
0.09680000221123919,0.8967812657356262,0.12927822768688202
0.09719999798107892,0.8966774344444275,0.13035887479782104
0.09760000102687627,0.8965727090835571,0.13143934309482574
0.097999996796716,0.8964671492576599,0.13251963257789612
0.09839999984251335,0.8963606953620911,0.13359974324703217
0.0988000028883107,0.8962533473968506,0.1346796751022339
0.09919999865815043,0.8961451649665833,0.13575942814350128
0.09960000170394778,0.8960361480712891,0.13683898746967316
0.09999999747378752,0.8959262371063232,0.1379183679819107
0.10040000051958486,0.8958154916763306,0.13899755477905273
0.10080000356538221,0.8957038521766663,0.14007656276226044
0.10119999933522195,0.8955913186073303,0.14115537703037262
0.1016000023810193,0.8954780101776123,0.14223401248455048
0.10199999815085903,0.8953637480735779,0.14331243932247162
0.10240000119665638,0.8952487111091614,0.14439068734645844
0.10279999696649611,0.8951327204704285,0.14546874165534973
0.10320000001229346,0.8950159549713135,0.1465466022491455
0.1036000030580908,0.8948982954025269,0.14762426912784576
0.10399999882793054,0.8947797417640686,0.1487017273902893
0.10440000187372789,0.8946603536605835,0.14977900683879852
0.10479999764356762,0.8945400714874268,0.15085607767105103
0.10520000068936497,0.8944189548492432,0.151932954788208
0.1055999964592047,0.8942970037460327,0.15300963819026947
0.10599999950500205,0.8941741585731506,0.15408611297607422
0.1064000025507994,0.8940504789352417,0.15516239404678345
0.10679999832063913,0.8939259052276611,0.15623846650123596
0.10720000136643648,0.8938004970550537,0.15731433033943176
0.10759999713627622,0.8936741948127747,0.15839000046253204
0.10800000018207356,0.8935470581054688,0.1594654619693756
0.10840000322787091,0.893419086933136,0.16054071485996246
0.10879999899771065,0.8932902216911316,0.1616157591342926
0.109200002043508,0.8931604623794556,0.16269059479236603
0.10959999781334773,0.900799036026001,0.16376566886901855
0.11000000085914508,0.9806675910949707,0.16489799320697784
0.11039999662898481,1.060535192489624,0.1661270558834076
0.11079999967478216,1.0681709051132202,0.1674133539199829
0.1112000027205795,1.068036437034607,0.16869987547397614
0.11159999849041924,1.0679010152816772,0.16998617351055145
0.11200000153621659,1.0677645206451416,0.17127223312854767
0.11239999730605632,1.067626953125,0.17255808413028717
0.11280000035185367,1.067488431930542,0.17384369671344757
0.11320000339765102,1.067348837852478,0.17512907087802887
0.11359999916749075,1.067208170890808,0.17641422152519226
0.1140000022132881,1.0670665502548218,0.17769913375377655
0.11439999798312783,1.0669238567352295,0.17898382246494293
0.11480000102892518,1.0667802095413208,0.18026825785636902
0.11519999679876491,1.0666354894638062,0.1815524697303772
0.11559999984456226,1.0664896965026855,0.18283644318580627
0.11600000289035961,1.0663429498672485,0.18412016332149506
0.11639999866019934,1.0661951303482056,0.18540365993976593
0.11680000170599669,1.0660462379455566,0.1866869032382965
0.11719999747583643,1.0658963918685913,0.18796990811824799
0.11760000052163377,1.06574547290802,0.18925267457962036
0.11800000356743112,1.0655936002731323,0.19053518772125244
0.11839999933727086,1.0654406547546387,0.19181744754314423
0.1188000023830682,1.065286636352539,0.1930994689464569
0.11919999815290794,1.065131664276123,0.1943812370300293
0.11960000119870529,1.064975619316101,0.1956627517938614
0.11999999696854502,1.0648186206817627,0.19694402813911438
0.12040000001434237,1.0646605491638184,0.19822503626346588
0.12080000306013972,1.064501404762268,0.19950580596923828
0.12119999882997945,1.0643413066864014,0.2007863074541092
0.1216000018757768,1.0641802549362183,0.2020665556192398
0.12199999764561653,1.0640180110931396,0.20334653556346893
0.12240000069141388,1.0638548135757446,0.20462627708911896
0.12280000373721123,1.0636906623840332,0.2059057354927063
0.12320000678300858,1.0635254383087158,0.20718494057655334
0.1235999952768907,1.0633591413497925,0.2084638923406601
0.12399999832268804,1.0631918907165527,0.20974257588386536
0.12440000136848539,1.063023567199707,0.21102099120616913
0.12480000441428274,1.0628541707992554,0.2122991383075714
0.12519999290816486,1.0626838207244873,0.2135770171880722
0.1255999959539622,1.0625125169754028,0.2148546278476715
0.12599999899975955,1.0623401403427124,0.21613197028636932
0.1264000020455569,1.062166690826416,0.21740904450416565
0.12680000509135425,1.0619922876358032,0.2186858355998993
0.12719999358523637,1.0618168115615845,0.21996235847473145
0.12759999663103372,1.0616402626037598,0.2212386131286621
0.12799999967683107,1.0614627599716187,0.2225145846605301
0.12840000272262841,1.0612843036651611,0.2237902730703354
0.12880000576842576,1.0611047744750977,0.2250656932592392
0.12919999426230788,1.0609241724014282,0.22634083032608032
0.12959999730810523,1.0684788227081299,0.22761613130569458
0.13000000035390258,1.1482961177825928,0.22894856333732605
0.13040000339969993,1.2281124591827393,0.2303776741027832
0.13080000644549727,1.2356637716293335,0.23186390101909637
0.1311999949393794,1.2354776859283447,0.23335029184818268
0.13159999798517674,1.2352904081344604,0.2348363697528839
0.1320000010309741,1.2351019382476807,0.23632216453552246
0.13240000407677144,1.2349122762680054,0.23780764639377594
0.1328000071225688,1.2347214221954346,0.23929283022880554
0.1331999956164509,1.2345293760299683,0.24077770113945007
0.13359999866224825,1.2343361377716064,0.24226227402687073
0.1340000017080456,1.2341418266296387,0.2437465339899063
0.13440000475384295,1.2339462041854858,0.24523049592971802
0.13479999324772507,1.2337493896484375,0.24671414494514465
0.13519999629352242,1.2335513830184937,0.24819748103618622
0.13559999933931977,1.2333523035049438,0.2496805042028427
0.1360000023851171,1.233151912689209,0.25116321444511414
0.13640000543091446,1.2329504489898682,0.2526456117630005
0.13679999392479658,1.2327476739883423,0.2541276812553406
0.13719999697059393,1.2325438261032104,0.2556094527244568
0.13760000001639128,1.232338786125183,0.25709089636802673
0.13800000306218863,1.2321324348449707,0.2585720121860504
0.13840000610798597,1.2319250106811523,0.26005280017852783
0.1387999946018681,1.2317163944244385,0.261533260345459
0.13919999764766544,1.231506586074829,0.26301342248916626
