time[s],iL[A],v out[V]
0.0,0.0,0.0
0.00040000000467443897,0.0,0.0
0.0008000000093488779,0.0,0.0
0.0012000000424450263,0.0,0.0
0.0016000000186977559,0.0,0.0
0.0019999999949504854,0.0,0.0
0.0024000000848900527,0.0,0.0
0.0027999999474559445,0.0,0.0
0.0032000000373955118,0.0,0.0
0.0035999998999614036,0.0,0.0
0.003999999989900971,0.0,0.0
0.004399999852466863,0.0,0.0
0.004800000169780105,0.0,0.0
0.005200000032345997,0.0,0.0
0.005599999894911889,0.0,0.0
0.006000000212225132,0.0,0.0
0.0064000000747910235,0.0,0.0
0.006799999937356915,0.0,0.0
0.007199999799922807,0.0,0.0
0.00760000011723605,0.0,0.0
0.007999999979801942,0.0,0.0
0.008400000297115184,0.0,0.0
0.008799999704933725,0.0,0.0
0.009200000022246968,0.0,0.0
0.00960000033956021,0.009040040895342827,6.191075385686418e-07
0.009999999747378752,0.08904002606868744,6.006049443385564e-05
0.010400000064691994,0.16903991997241974,0.00021646628738380969
0.010800000382005237,0.17807969450950623,0.0004316858248785138
0.011199999789823778,0.1780792623758316,0.0006475136033259332
0.01160000010713702,0.17807866632938385,0.0008633303223177791
0.012000000424450263,0.17807789146900177,0.0010791356908157468
0.012399999832268804,0.17807693779468536,0.0012949295341968536
0.012800000149582047,0.17807582020759583,0.0015107117360457778
0.013199999557400588,0.17807452380657196,0.0017264819471165538
0.01359999987471383,0.17807304859161377,0.0019422400509938598
0.014000000192027073,0.17807140946388245,0.0021579856984317303
0.014399999599845614,0.178069606423378,0.0023737188894301653
0.014799999917158857,0.17806760966777802,0.002589439507573843
0.0152000002344721,0.1780654639005661,0.0028051468543708324
0.015600000551785342,0.17806312441825867,0.0030208411626517773
0.015999999959603883,0.1780606210231781,0.00323652196675539
0.016399999367422424,0.1780579537153244,0.003452189266681671
0.01680000059423037,0.17805510759353638,0.0036678428295999765
0.01720000000204891,0.17805208265781403,0.0038834824226796627
0.01759999940986745,0.17804889380931854,0.004099107813090086
0.018000000636675395,0.17804552614688873,0.004314718302339315
0.018400000044493936,0.1780419796705246,0.004530314821749926
0.018799999452312477,0.17803826928138733,0.004745895974338055
0.01920000067912042,0.17803439497947693,0.00496146222576499
0.019600000086938962,0.1780303418636322,0.005177013576030731
0.019999999494757503,0.17802610993385315,0.005392549093812704
0.020400000721565448,0.17802171409130096,0.0056080687791109085
0.02080000012938399,0.17801713943481445,0.005823573097586632
0.02119999953720253,0.17801238596439362,0.006039061117917299
0.021600000764010474,0.17800746858119965,0.006254532374441624
0.022000000171829015,0.17800238728523254,0.00646998779848218
0.022399999579647556,0.17799712717533112,0.006685425993055105
0.0228000008064555,0.17799168825149536,0.006900847423821688
0.02320000021427404,0.17798608541488647,0.00711625162512064
0.023599999622092582,0.17798030376434326,0.0073316385969519615
0.024000000848900527,0.17797434329986572,0.007547008339315653
0.024400000256719068,0.17796823382377625,0.007762359920889139
0.02479999966453761,0.17796193063259125,0.00797769334167242
0.025200000891345553,0.17795546352863312,0.008193008601665497
0.025600000299164094,0.17794881761074066,0.008408306166529655
0.025999999706982635,0.17794200778007507,0.008623585104942322
0.026399999114801176,0.17793501913547516,0.008838844485580921
0.02680000034160912,0.1779278665781021,0.009054085239768028
0.02719999974942766,0.17792053520679474,0.009269306436181068
0.027599999157246202,0.17791303992271423,0.009484509006142616
0.028000000384054147,0.1779053658246994,0.009699691087007523
0.028399999791872688,0.17789751291275024,0.009914853610098362
0.02879999919969123,0.17788949608802795,0.010129996575415134
0.029200000426499173,0.17788131535053253,0.010345119051635265
0.029599999834317714,0.1865537464618683,0.01056079100817442
0.029999999242136255,0.26654520630836487,0.01083487831056118
0.0304000004689442,0.34653639793395996,0.011205908842384815
0.030800001695752144,0.35520806908607483,0.01163534540683031
0.031200001103570685,0.35519856214523315,0.012065320275723934
0.031600000511389226,0.3551887571811676,0.012495262548327446
0.03199999991920777,0.3551785945892334,0.012925172224640846
0.03239999932702631,0.35516807436943054,0.01335504837334156
0.03279999873484485,0.3551572263240814,0.013784890994429588
0.0332000017806422,0.35514602065086365,0.014214698225259781
0.03360000118846074,0.3551344573497772,0.014644471928477287
0.03400000059627928,0.3551225960254669,0.015074210241436958
0.03440000000409782,0.3551103472709656,0.015503913164138794
0.03479999941191636,0.35509777069091797,0.015933580696582794
0.0351999988197349,0.3550848662853241,0.01636321097612381
0.03559999822755344,0.3550716042518616,0.01679280586540699
0.03600000127335079,0.3550579845905304,0.017222361639142036
0.03640000068116933,0.35504403710365295,0.017651882022619247
0.03680000008898787,0.35502976179122925,0.018081363290548325
0.03719999949680641,0.3550150990486145,0.018510807305574417
0.037599998904624954,0.3550001382827759,0.018940210342407227
0.037999998312443495,0.3549848198890686,0.01936957612633705
0.03840000135824084,0.3549691438674927,0.019798900932073593
0.038800000766059384,0.3549531400203705,0.020228186622262
0.039200000173877925,0.35493677854537964,0.020657433196902275
0.039599999581696466,0.35492008924484253,0.021086636930704117
0.03999999898951501,0.35490304231643677,0.021515799686312675
0.04039999839733355,0.35488566756248474,0.02194492146372795
0.040800001443130895,0.35486793518066406,0.022374000400304794
0.041200000850949436,0.35484984517097473,0.022803036496043205
0.04160000025876798,0.3548314571380615,0.023232031613588333
0.04199999966658652,0.3548126816749573,0.02366098202764988
0.04239999907440506,0.35479357838630676,0.024089887738227844
0.0427999984822236,0.35477414727211,0.024518750607967377
0.04320000152802095,0.35475435853004456,0.024947568774223328
0.04360000093583949,0.35473424196243286,0.025376342236995697
0.04400000034365803,0.3547137677669525,0.025805070996284485
0.04439999975147657,0.3546929359436035,0.026233751326799393
0.04479999915929511,0.35467177629470825,0.026662388816475868
0.04519999856711365,0.3546502888202667,0.027090977877378464
0.045600001612911,0.35462844371795654,0.02751951850950718
0.04600000102072954,0.3546062409877777,0.027948014438152313
0.04640000042854808,0.3545837104320526,0.028376460075378418
0.046799999836366624,0.35456085205078125,0.028804859146475792
0.047199999244185165,0.35453763604164124,0.029233207926154137
0.047599998652003706,0.35451406240463257,0.0296615082770586
0.048000001697801054,0.35449016094207764,0.030089760199189186
0.048400001105619594,0.35446593165397644,0.03051796182990074
0.048800000513438135,0.3544413447380066,0.03094611130654812
0.049199999921256676,0.3544164299964905,0.031374212354421616
0.04959999932907522,0.36214807629585266,0.031802717596292496
0.04999999873689376,0.4421224594116211,0.032288599759340286
0.050400001782691106,0.5220963954925537,0.032871395349502563
0.05080000119050965,0.5298267602920532,0.033511560410261154
0.05120000059832819,0.5297996997833252,0.03415212035179138
0.05160000000614673,0.5297721028327942,0.03479261323809624
0.05199999941396527,0.529744029045105,0.03543303906917572
0.05239999882178381,0.5297154188156128,0.03607340529561043
0.05279999822960235,0.5296863317489624,0.036713700741529465
0.0532000012753997,0.529656708240509,0.03735393285751343
0.05360000068321824,0.5296265482902527,0.03799409419298172
0.05400000009103678,0.5295959115028381,0.03863419219851494
0.05439999949885532,0.5295647382736206,0.03927421569824219
0.054799998906673864,0.5295330882072449,0.03991417586803436
0.055199998314492404,0.5295009016990662,0.04055406153202057
0.05560000136028975,0.5294681787490845,0.0411938801407814
0.05600000076810829,0.5294349789619446,0.041833627969026566
0.056400000175926834,0.5294012427330017,0.04247330129146576
0.056799999583745375,0.5293670296669006,0.04311290755867958
0.057199998991563916,0.5293322801589966,0.043752435594797134
0.05759999839938246,0.5292969942092896,0.04439189285039902
0.058000001445179805,0.5292612314224243,0.04503127560019493
0.058400000852998346,0.5292249321937561,0.045670583844184875
0.05880000026081689,0.5291881561279297,0.04630981758236885
0.05919999966863543,0.5291508436203003,0.04694897308945656
0.05959999907645397,0.5291130542755127,0.047588054090738297
0.05999999848427251,0.5290747284889221,0.04822705686092377
0.06040000153006986,0.5290358662605286,0.04886598140001297
0.0608000009378884,0.5289965271949768,0.049504827708005905
0.06120000034570694,0.5289567112922668,0.05014359578490257
0.06160000339150429,0.5289162993431091,0.05078228563070297
0.06199999916134402,0.5288754105567932,0.051420893520116806
0.06240000220714137,0.5288340449333191,0.05205942317843437
0.0627999979769811,0.528792142868042,0.05269786715507507
0.06320000102277845,0.5287497043609619,0.05333623290061951
0.06359999679261819,0.5287067890167236,0.053974512964487076
0.06399999983841553,0.5286633372306824,0.05461271107196808
0.06440000288421288,0.5286194086074829,0.05525082349777222
0.06479999865405262,0.5285749435424805,0.05588885396718979
0.06520000169984996,0.5285300016403198,0.056526798754930496
0.0655999974696897,0.5284845232963562,0.05716465786099434
0.06600000051548705,0.5284385085105896,0.05780243128538132
0.0664000035612844,0.5283920168876648,0.05844011530280113
0.06679999933112413,0.5283450484275818,0.05907771363854408
0.06720000237692147,0.528297483921051,0.05971522256731987
0.06759999814676121,0.5282495021820068,0.06035264581441879
0.06800000119255856,0.5282009243965149,0.060989975929260254
0.06839999696239829,0.5281519293785095,0.06162721663713455
0.06880000000819564,0.5281023383140564,0.06226436793804169
0.06920000305399299,0.5280522704124451,0.06290142983198166
0.06959999882383272,0.5340897440910339,0.06353867799043655
0.07000000186963007,0.6140386462211609,0.06423141062259674
0.0703999976394698,0.6939869523048401,0.06502102315425873
0.07080000068526715,0.7000226974487305,0.06586611270904541
0.07119999645510688,0.6999696493148804,0.06671138107776642
0.07159999950090423,0.6999159455299377,0.06755653768777847
0.07200000254670158,0.6998615264892578,0.06840159744024277
0.07239999831654131,0.6998065114021301,0.06924654543399811
0.07280000136233866,0.6997507810592651,0.0700913816690445
0.0731999971321784,0.6996943354606628,0.07093611359596252
0.07360000017797574,0.699637234210968,0.0717807337641716
0.07400000322377309,0.6995794773101807,0.07262524217367172
0.07439999899361283,0.6995210647583008,0.07346963882446289
0.07480000203941017,0.6994619369506836,0.0743139237165451
0.07519999780924991,0.6994021534919739,0.07515809684991837
0.07560000085504726,0.6993417143821716,0.07600215822458267
0.07599999662488699,0.6992805600166321,0.07684610038995743
0.07639999967068434,0.69921875,0.07768993079662323
0.07680000271648169,0.6991562247276306,0.07853364199399948
0.07719999848632142,0.6990931034088135,0.07937724143266678
0.07760000153211877,0.699029266834259,0.08022071421146393
0.0779999973019585,0.6989647150039673,0.08106407523155212
0.07840000034775585,0.6988995671272278,0.08190731704235077
0.0788000033935532,0.698833703994751,0.08275043219327927
0.07919999916339293,0.6987671256065369,0.08359343558549881
0.07960000220919028,0.698699951171875,0.0844363123178482
0.07999999797903001,0.6986320614814758,0.08527906239032745
0.08040000102482736,0.6985635161399841,0.08612169325351715
0.0807999967946671,0.6984942555427551,0.0869641974568367
0.08119999984046444,0.6984243392944336,0.0878065824508667
0.08160000288626179,0.6983537673950195,0.08864883333444595
0.08199999865610152,0.6982825398445129,0.08949095755815506
0.08240000170189887,0.698210597038269,0.09033296257257462
0.0827999974717386,0.6981379985809326,0.09117483347654343
0.08320000051753595,0.6980646848678589,0.09201657772064209
0.0836000035633333,0.6979907751083374,0.09285818785429001
0.08399999933317304,0.6979161500930786,0.09369967132806778
0.08440000237897038,0.6978408694267273,0.0945410206913948
0.08479999814881012,0.6977648735046387,0.09538223594427109
0.08520000119460747,0.6976882219314575,0.09622332453727722
0.0855999969644472,0.6976109147071838,0.09706427156925201
0.08600000001024455,0.6975329518318176,0.09790508449077606
0.0864000030560419,0.6974542737007141,0.09874576330184937
0.08679999882588163,0.6973749399185181,0.09958630800247192
0.08720000187167898,0.6972949504852295,0.10042671859264374
0.08759999764151871,0.6972142457962036,0.10126698017120361
0.08800000068731606,0.6971328854560852,0.10210711508989334
0.0883999964571558,0.6970508694648743,0.10294710099697113
0.08879999950295314,0.6969681978225708,0.10378694534301758
0.08920000254875049,0.69688481092453,0.10462665557861328
0.08959999831859022,0.7017229795455933,0.10546640306711197
0.09000000136438757,0.7816382646560669,0.10636027902364731
0.0903999971342273,0.8615527749061584,0.10735096782445908
0.09080000018002465,0.8663886785507202,0.1083957776427269
0.091200003225822,0.8663015365600586,0.10944060981273651
0.09159999899566174,0.8662135601043701,0.11048528552055359
0.09200000204145908,0.8661247491836548,0.11152980476617813
0.09239999781129882,0.8660351037979126,0.11257416754961014
0.09280000085709617,0.8659446239471436,0.11361837387084961
0.0931999966269359,0.8658533096313477,0.11466240882873535
0.09359999967273325,0.8657611608505249,0.11570628732442856
0.0940000027185306,0.8656681776046753,0.11675000190734863
0.09439999848837033,0.8655743598937988,0.11779356002807617
0.09480000153416768,0.8654797077178955,0.11883694678544998
0.09519999730400741,0.8653842210769653,0.11988016963005066
0.09560000034980476,0.8652878999710083,0.12092322111129761
0.09600000339560211,0.8651907444000244,0.12196610867977142
0.09639999916544184,0.8650927543640137,0.12300882488489151
0.09680000221123919,0.8649939298629761,0.12405137717723846
0.09719999798107892,0.8648942708969116,0.1250937581062317
0.09760000102687627,0.8647937774658203,0.1261359602212906
0.097999996796716,0.8646924495697021,0.12717798352241516
0.09839999984251335,0.8645903468132019,0.1282198429107666
0.0988000028883107,0.86448734998703,0.1292615383863449
0.09919999865815043,0.8643835186958313,0.1303030401468277
0.09960000170394778,0.8642788529396057,0.13134437799453735
0.09999999747378752,0.8641733527183533,0.1323855221271515
0.10040000051958486,0.864067018032074,0.1334265023469925
0.10080000356538221,0.8639598488807678,0.13446728885173798
0.10119999933522195,0.8638519048690796,0.13550791144371033
0.1016000023810193,0.8637430667877197,0.13654834032058716
0.10199999815085903,0.863633394241333,0.13758859038352966
0.10240000119665638,0.8635228872299194,0.13862864673137665
0.10279999696649611,0.8634116053581238,0.1396685391664505
0.10320000001229346,0.8632994294166565,0.14070822298526764
0.1036000030580908,0.8631864786148071,0.14174772799015045
0.10399999882793054,0.8630726337432861,0.14278705418109894
0.10440000187372789,0.8629580140113831,0.1438261866569519
0.10479999764356762,0.8628425002098083,0.14486512541770935
0.10520000068936497,0.8627262115478516,0.14590387046337128
0.1055999964592047,0.8626090884208679,0.14694243669509888
0.10599999950500205,0.8624911308288574,0.14798079431056976
0.1064000025507994,0.8623723387718201,0.14901897311210632
0.10679999832063913,0.8622527122497559,0.15005694329738617
0.10720000136643648,0.8621322512626648,0.1510947346687317
0.10759999713627622,0.8620109558105469,0.1521323174238205
0.10800000018207356,0.8618888258934021,0.15316970646381378
0.10840000322787091,0.8617658615112305,0.15420688688755035
0.10879999899771065,0.861642062664032,0.1552438735961914
0.109200002043508,0.8615174889564514,0.15628066658973694
0.10959999781334773,0.8649123907089233,0.15731734037399292
0.11000000085914508,0.9447860717773438,0.15840648114681244
0.11039999662898481,1.0246589183807373,0.1595923751592636
0.11079999967478216,1.0280511379241943,0.16083070635795593
0.1112000027205795,1.0279219150543213,0.1620689332485199
0.11159999849041924,1.0277917385101318,0.16330692172050476
0.11200000153621659,1.027660608291626,0.1645447015762329
0.11239999730605632,1.0275285243988037,0.16578227281570435
0.11280000035185367,1.0273953676223755,0.16701960563659668
0.11320000339765102,1.0272612571716309,0.1682567298412323
0.11359999916749075,1.0271261930465698,0.16949363052845
0.1140000022132881,1.0269900560379028,0.17073029279708862
0.11439999798312783,1.0268529653549194,0.17196674644947052
0.11480000102892518,1.0267149209976196,0.17320296168327332
0.11519999679876491,1.0265759229660034,0.1744389533996582
0.11559999984456226,1.0264358520507812,0.175674706697464
0.11600000289035961,1.0262948274612427,0.17691025137901306
0.11639999866019934,1.0261527299880981,0.17814554274082184
0.11680000170599669,1.0260097980499268,0.1793806105852127
0.11719999747583643,1.0258657932281494,0.18061544001102448
0.11760000052163377,1.0257208347320557,0.18185004591941833
0.11800000356743112,1.025574803352356,0.1830844134092331
0.11839999933727086,1.0254278182983398,0.18431852757930756
0.1188000023830682,1.0252798795700073,0.1855524182319641
0.11919999815290794,1.0251309871673584,0.18678607046604156
0.11960000119870529,1.0249810218811035,0.18801946938037872
0.11999999696854502,1.0248301029205322,0.18925262987613678
0.12040000001434237,1.0246782302856445,0.19048555195331573
0.12080000306013972,1.0245252847671509,0.1917182207107544
0.12119999882997945,1.0243715047836304,0.19295065104961395
0.1216000018757768,1.024216651916504,0.1941828429698944
0.12199999764561653,1.0240607261657715,0.19541478157043457
0.12240000069141388,1.0239039659500122,0.19664646685123444
0.12280000373721123,1.023746132850647,0.197877898812294
0.12320000678300858,1.0235873460769653,0.19910907745361328
0.1235999952768907,1.0234276056289673,0.20034001767635345
0.12399999832268804,1.0232667922973633,0.20157068967819214
0.12440000136848539,1.0231050252914429,0.20280110836029053
0.12480000441428274,1.022942304611206,0.20403127372264862
0.12519999290816486,1.0227786302566528,0.20526118576526642
0.1255999959539622,1.0226138830184937,0.20649084448814392
0.12599999899975955,1.022448182106018,0.20772023499011993
0.1264000020455569,1.022281527519226,0.20894935727119446
0.12680000509135425,1.0221139192581177,0.2101782262325287
0.12719999358523637,1.0219452381134033,0.21140682697296143
0.12759999663103372,1.0217756032943726,0.21263517439365387
0.12799999967683107,1.0216050148010254,0.21386323869228363
0.12840000272262841,1.0214334726333618,0.2150910496711731
0.12880000576842576,1.0212608575820923,0.21631859242916107
0.12919999426230788,1.021087408065796,0.21754585206508636
0.12959999730810523,1.0237098932266235,0.21877291798591614
0.13000000035390258,1.103534460067749,0.22005151212215424
0.13040000339969993,1.183357834815979,0.2214268147945404
0.13080000644549727,1.1859772205352783,0.2228536307811737
0.1311999949393794,1.1857984066009521,0.2242802381515503
0.13159999798517674,1.1856184005737305,0.225706547498703
0.1320000010309741,1.1854372024536133,0.22713257372379303
0.13240000407677144,1.1852549314498901,0.22855831682682037
0.1328000071225688,1.185071587562561,0.22998376190662384
0.1331999956164509,1.1848869323730469,0.23140890896320343
0.13359999866224825,1.1847013235092163,0.23283377289772034
0.1340000017080456,1.1845144033432007,0.23425833880901337
0.13440000475384295,1.1843265295028687,0.23568260669708252
0.13479999324772507,1.1841373443603516,0.2371065765619278
0.13519999629352242,1.1839470863342285,0.2385302484035492
0.13559999933931977,1.1837557554244995,0.23995362222194672
0.1360000023851171,1.183563232421875,0.24137668311595917
0.13640000543091446,1.183369517326355,0.24279946088790894
0.13679999392479658,1.183174729347229,0.24422191083431244
0.13719999697059393,1.1829787492752075,0.24564407765865326
0.13760000001639128,1.18278169631958,0.247065931558609
0.13800000306218863,1.1825834512710571,0.2484874725341797
0.13840000610798597,1.1823841333389282,0.2499087005853653
0.1387999946018681,1.1821836233139038,0.251329630613327
0.13919999764766544,1.1819819211959839,0.2527502179145813
