time[s],iL[A],v out[V]
0.0,0.0,0.0
0.00040000000467443897,0.0,0.0
0.0008000000093488779,0.0,0.0
0.0012000000424450263,0.0,0.0
0.0016000000186977559,0.0,0.0
0.0019999999949504854,0.0,0.0
0.0024000000848900527,0.0,0.0
0.0027999999474559445,0.0,0.0
0.0032000000373955118,0.0,0.0
0.0035999998999614036,0.0,0.0
0.003999999989900971,0.0,0.0
0.004399999852466863,0.0,0.0
0.004800000169780105,0.0,0.0
0.005200000032345997,0.0,0.0
0.005599999894911889,0.0,0.0
0.006000000212225132,0.0,0.0
0.0064000000747910235,0.0,0.0
0.006799999937356915,0.0,0.0
0.007199999799922807,0.0,0.0
0.00760000011723605,0.0,0.0
0.007999999979801942,0.0,0.0
0.008400000297115184,0.0,0.0
0.008799999704933725,0.0,0.0
0.009200000022246968,0.0,0.0
0.00960000033956021,0.0,0.0
0.009999999747378752,0.003214240074157715,7.82676465860277e-08
0.010400000064691994,0.0064284768886864185,7.791906682541594e-06
0.010800000382005237,0.006428467575460672,1.5583427739329636e-05
0.011199999789823778,0.006428452208638191,2.3374557713395916e-05
0.01160000010713702,0.006428430322557688,3.116528387181461e-05
0.012000000424450263,0.006428402382880449,3.895560439559631e-05
0.012399999832268804,0.0064283679239451885,4.6745510189794004e-05
0.012800000149582047,0.006428327411413193,5.4534993978450075e-05
0.013199999557400588,0.006428280845284462,6.23240412096493e-05
0.01359999987471383,0.006428227759897709,7.011265552137047e-05
0.014000000192027073,0.006428168620914221,7.790082599967718e-05
0.014399999599845614,0.00642810296267271,8.56885380926542e-05
0.014799999917158857,0.006428031250834465,9.347579180030152e-05
0.0152000002344721,0.006427953485399485,0.00010126257984666154
0.015600000551785342,0.006427869200706482,0.00010904888767981902
0.015999999959603883,0.006427778862416744,0.00011683471529977396
0.016399999367422424,0.0064276824705302715,0.00012462005543056875
0.01680000059423037,0.0064275795593857765,0.00013240489352028817
0.01720000000204891,0.0064274705946445465,0.0001401892222929746
0.01759999940986745,0.0064273555763065815,0.00014797304174862802
0.018000000636675395,0.006427234038710594,0.00015575633733533323
0.018400000044493936,0.0064271059818565845,0.00016353910905309021
0.018799999452312477,0.006426972337067127,0.00017132134234998375
0.01920000067912042,0.006426832173019648,0.00017910303722601384
0.019600000086938962,0.006426685489714146,0.00018688416457735002
0.019999999494757503,0.006426533218473196,0.00019466475350782275
0.020400000721565448,0.006426374427974224,0.00020244477491360158
0.02080000012938399,0.00642620911821723,0.00021022421424277127
0.02119999953720253,0.006426038220524788,0.00021800307149533182
0.021600000764010474,0.006425860337913036,0.00022578134667128325
0.022000000171829015,0.006425676867365837,0.00023355901066679507
0.022399999579647556,0.0064254868775606155,0.00024133609258569777
0.0228000008064555,0.006425290834158659,0.00024911254877224565
0.02320000021427404,0.00642508827149868,0.00025688839377835393
0.023599999622092582,0.006424879655241966,0.00026466359850019217
0.024000000848900527,0.006424664985388517,0.0002724381920415908
0.024400000256719068,0.006424443796277046,0.0002802121452987194
0.02479999966453761,0.00642421655356884,0.0002879854291677475
0.025200000891345553,0.0064239827916026115,0.00029575807275250554
0.025600000299164094,0.006423743441700935,0.0003035300469491631
0.025999999706982635,0.00642349710687995,0.00031130132265388966
0.026399999114801176,0.006423245184123516,0.0003190719580743462
0.02680000034160912,0.00642298674210906,0.00032684189500287175
0.02719999974942766,0.0064227222464978695,0.00033461113343946636
0.027599999157246202,0.006422451231628656,0.00034237967338413
0.028000000384054147,0.006422174163162708,0.0003501475148368627
0.028399999791872688,0.006421891041100025,0.00035791462869383395
0.02879999919969123,0.006421601865440607,0.0003656810149550438
0.029200000426499173,0.006421306170523167,0.0003734467027243227
0.029599999834317714,0.006421004422008991,0.00038121160469017923
0.029999999242136255,0.009641433134675026,0.000389054388506338
0.0304000004689442,0.012861852534115314,0.00040454688132740557
0.030800001695752144,0.0128615228459239,0.0004201168194413185
0.031200001103570685,0.012861180119216442,0.0004356855934020132
0.031600000511389226,0.012860825285315514,0.00045125317410565913
0.03199999991920777,0.012860458344221115,0.0004668195906560868
0.03239999932702631,0.012860078364610672,0.0004823847848456353
0.03279999873484485,0.012859686277806759,0.0004979487275704741
0.0332000017806422,0.012859282083809376,0.0005135114770382643
0.03360000118846074,0.012858864851295948,0.0005290729459375143
0.03400000059627928,0.01285843551158905,0.0005446331924758852
0.03440000000409782,0.012857994064688683,0.000560192100238055
0.03479999941191636,0.01285753957927227,0.0005757497274316847
0.0351999988197349,0.012857072055339813,0.0005913060740567744
0.03559999822755344,0.012856593355536461,0.000606861081905663
0.03600000127335079,0.012856101617217064,0.0006224146927706897
0.03640000068116933,0.012855597771704197,0.0006379670230671763
0.03680000008898787,0.012855080887675285,0.000653517956379801
0.03719999949680641,0.012854551896452904,0.0006690674345009029
0.037599998904624954,0.012854009866714478,0.0006846155738458037
0.037999998312443495,0.012853456661105156,0.0007001623162068427
0.03840000135824084,0.012852889485657215,0.0007157076033763587
0.038800000766059384,0.012852311134338379,0.000731251435354352
0.039200000173877925,0.012851719744503498,0.0007467938121408224
0.039599999581696466,0.012851116247475147,0.0007623346755281091
0.03999999898951501,0.012850500643253326,0.0007778740837238729
0.04039999839733355,0.012849872000515461,0.000793411978520453
0.040800001443130895,0.012849231250584126,0.0008089483599178493
0.041200000850949436,0.012848577462136745,0.000824483169708401
0.04160000025876798,0.012847911566495895,0.0008400164660997689
0.04199999966658652,0.012847233563661575,0.0008555481908842921
0.04239999907440506,0.012846543453633785,0.0008710782858543098
0.0427999984822236,0.01284584030508995,0.0008866068092174828
0.04320000152802095,0.012845124118030071,0.0009021337609738111
0.04360000093583949,0.012844396755099297,0.000917659024707973
0.04400000034365803,0.012843656353652477,0.0009331827168352902
0.04439999975147657,0.012842903845012188,0.00094870466273278
0.04479999915929511,0.012842138297855854,0.0009642249788157642
0.04519999856711365,0.01284136064350605,0.0009797436650842428
0.045600001612911,0.012840570881962776,0.0009952605469152331
0.04600000102072954,0.012839768081903458,0.0010107757989317179
0.04640000042854808,0.012838953174650669,0.0010262893047183752
0.046799999836366624,0.01283812616020441,0.0010418009478598833
0.047199999244185165,0.012837287038564682,0.0010573109611868858
0.047599998652003706,0.012836434878408909,0.0010728191118687391
0.048000001697801054,0.012835570611059666,0.001088325516320765
0.048400001105619594,0.012834693305194378,0.0011038301745429635
0.048800000513438135,0.01283380389213562,0.0011193329701200128
0.049199999921256676,0.012832902371883392,0.0011348339030519128
0.04959999932907522,0.012831988744437695,0.0011503329733386636
0.04999999873689376,0.016056150197982788,0.001165908994153142
0.050400001782691106,0.019280295819044113,0.0011891437461599708
0.05080000119050965,0.01927933469414711,0.0012124549830332398
0.05120000059832819,0.019278356805443764,0.0012357638916000724
0.05160000000614673,0.019277358427643776,0.0012590704718604684
0.05199999941396527,0.019276341423392296,0.0012823748402297497
0.05239999882178381,0.019275305792689323,0.0013056766474619508
0.05279999822960235,0.019274253398180008,0.0013289761263877153
0.0532000012753997,0.01927318051457405,0.0013522732770070434
0.05360000068321824,0.0192720890045166,0.0013755678664892912
0.05400000009103678,0.01927097886800766,0.0013988601276651025
0.05439999949885532,0.019269850105047226,0.0014221498277038336
0.054799998906673864,0.01926870457828045,0.0014454369666054845
0.055199998314492404,0.01926753856241703,0.001468721660785377
0.05560000136028975,0.01926635392010212,0.0014920036774128675
0.05600000076810829,0.019265150651335716,0.0015152832493185997
0.056400000175926834,0.01926392875611782,0.0015385601436719298
0.056799999583745375,0.019262688234448433,0.0015618344768881798
0.057199998991563916,0.019261430948972702,0.0015851061325520277
0.05759999839938246,0.01926015317440033,0.0016083751106634736
0.058000001445179805,0.019258856773376465,0.0016316414112225175
0.058400000852998346,0.019257541745901108,0.0016549050342291594
0.05880000026081689,0.019256209954619408,0.0016781658632680774
0.05919999966863543,0.019254857674241066,0.0017014240147545934
0.05959999907645397,0.019253486767411232,0.0017246793722733855
0.05999999848427251,0.019252097234129906,0.0017479319358244538
0.06040000153006986,0.019250689074397087,0.0017711817054077983
0.0608000009378884,0.019249264150857925,0.001794428564608097
0.06120000034570694,0.019247818738222122,0.0018176725134253502
0.06160000339150429,0.019246354699134827,0.0018409136682748795
0.06199999916134402,0.019244873896241188,0.0018641517963260412
0.06240000220714137,0.019243372604250908,0.0018873871304094791
0.0627999979769811,0.019241852685809135,0.0019106194376945496
0.06320000102277845,0.01924031600356102,0.0019338487181812525
0.06359999679261819,0.019238758832216263,0.001957074971869588
0.06399999983841553,0.019237184897065163,0.0019802984315901995
0.06440000288421288,0.01923559047281742,0.0020035186316818
0.06479999865405262,0.019233979284763336,0.002026735804975033
0.06520000169984996,0.01923234760761261,0.0020499499514698982
0.0655999974696897,0.01923069916665554,0.0020731608383357525
0.06600000051548705,0.01922903023660183,0.0020963686984032393
0.0664000035612844,0.019227344542741776,0.0021195735316723585
0.06679999933112413,0.01922564022243023,0.002142774872481823
0.06720000237692147,0.01922391541302204,0.00216597318649292
0.06759999814676121,0.01922217383980751,0.0021891682408750057
0.06800000119255856,0.019220413640141487,0.002212360268458724
0.06839999696239829,0.01921863481402397,0.0022355488035827875
0.06880000000819564,0.019216835498809814,0.00225873407907784
0.06920000305399299,0.019215019419789314,0.0022819158621132374
0.06959999882383272,0.019213184714317322,0.0023050946183502674
0.07000000186963007,0.022452393546700478,0.0023283495102077723
0.0703999976394698,0.025691581889986992,0.0023592987563461065
0.07080000068526715,0.025689681991934776,0.0023903236724436283
0.07119999645510688,0.02568775601685047,0.0024213448632508516
0.07159999950090423,0.025685807690024376,0.0024523623287677765
0.07200000254670158,0.02568383328616619,0.0024833756033331156
0.07239999831654131,0.025681834667921066,0.002514385152608156
0.07280000136233866,0.025679809972643852,0.0025453907437622547
0.0731999971321784,0.025677761062979698,0.0025763926096260548
0.07360000017797574,0.025675687938928604,0.0026073900517076254
0.07400000322377309,0.02567358873784542,0.0026383837684988976
0.07439999899361283,0.025671467185020447,0.002669373294338584
0.07480000203941017,0.025669317692518234,0.0027003586292266846
0.07519999780924991,0.02566714584827423,0.002731340005993843
0.07560000085504726,0.02566494792699814,0.002762317191809416
0.07599999662488699,0.025662725791335106,0.002793290186673403
0.07639999967068434,0.025660479441285133,0.002824258990585804
0.07680000271648169,0.02565820701420307,0.0028552236035466194
0.07719999848632142,0.02565591037273407,0.0028861837927252054
0.07760000153211877,0.025653589516878128,0.0029171397909522057
0.0779999973019585,0.025651242583990097,0.00294809159822762
0.07840000034775585,0.025648873299360275,0.0029790387488901615
0.0788000033935532,0.025646476075053215,0.003009981708601117
0.07919999916339293,0.025644056499004364,0.0030409202445298433
0.07960000220919028,0.025641610845923424,0.0030718541238456964
0.07999999797903001,0.025639140978455544,0.003102783812209964
0.08040000102482736,0.025636646896600723,0.003133708843961358
0.0807999967946671,0.025634126737713814,0.003164629451930523
0.08119999984046444,0.025631582364439964,0.0031955454032868147
0.08160000288626179,0.025629013776779175,0.0032264566980302334
0.08199999865610152,0.025626420974731445,0.003257363336160779
0.08240000170189887,0.025623802095651627,0.003288265550509095
0.0827999974717386,0.025621159002184868,0.0033191628754138947
0.08320000051753595,0.02561849169433117,0.003350055543705821
0.0836000035633333,0.02561580017209053,0.0033809433225542307
0.08399999933317304,0.025613082572817802,0.0034118264447897673
0.08440000237897038,0.025610340759158134,0.0034427049104124308
0.08479999814881012,0.025607574731111526,0.003473578253760934
0.08520000119460747,0.02560478262603283,0.003504446940496564
0.0855999969644472,0.025601966306567192,0.003535310737788677
0.08600000001024455,0.025599125772714615,0.00356616941280663
0.0864000030560419,0.025596261024475098,0.00359702343121171
0.08679999882588163,0.02559337019920349,0.0036278723273426294
0.08720000187167898,0.025590457022190094,0.0036587161011993885
0.08759999764151871,0.025587517768144608,0.003689554985612631
0.08800000068731606,0.025584552437067032,0.003720388747751713
0.0883999964571558,0.025581564754247665,0.0037512173876166344
0.08879999950295314,0.02557855099439621,0.0037820409052073956
0.08920000254875049,0.025575513020157814,0.0038128590676933527
0.08959999831859022,0.02557245083153248,0.003843672340735793
0.09000000136438757,0.02883724682033062,0.0038745610509067774
0.0903999971342273,0.03210201486945152,0.003913205116987228
0.09080000018002465,0.03209887072443962,0.003951923921704292
0.091200003225822,0.03209569305181503,0.0039906371384859085
0.09159999899566174,0.03209248557686806,0.004029344767332077
0.09200000204145908,0.032089248299598694,0.0040680463425815105
0.09239999781129882,0.032085977494716644,0.004106742329895496
0.09280000085709617,0.03208267688751221,0.004145432263612747
0.0931999966269359,0.032079342752695084,0.00418411660939455
0.09359999967273325,0.03207598254084587,0.004222794435918331
0.0940000027185306,0.03207258880138397,0.004261466674506664
0.09439999848837033,0.03206916153430939,0.00430013332515955
0.09480000153416768,0.03206570819020271,0.004338793456554413
0.09519999730400741,0.03206222131848335,0.004377447534352541
0.09560000034980476,0.032058704644441605,0.004416095558553934
0.09600000339560211,0.03205515444278717,0.004454737063497305
0.09639999916544184,0.03205157443881035,0.004493372980505228
0.09680000221123919,0.03204796463251114,0.004532002378255129
0.09719999798107892,0.03204432502388954,0.004570625256747007
0.09760000102687627,0.03204065188765526,0.004609242081642151
0.097999996796716,0.03203694894909859,0.004647852852940559
0.09839999984251335,0.03203321620821953,0.004686457104980946
0.0988000028883107,0.03202944993972778,0.0047250548377633095
0.09919999865815043,0.03202565759420395,0.004763646051287651
0.09960000170394778,0.03202182799577713,0.00480223074555397
0.09999999747378752,0.03201797232031822,0.004840808920562267
0.10040000051958486,0.03201408311724663,0.004879380576312542
0.10080000356538221,0.032010164111852646,0.004917945712804794
0.10119999933522195,0.032006215304136276,0.004956503864377737
0.1016000023810193,0.03200223669409752,0.004995055962353945
0.10199999815085903,0.031998224556446075,0.005033601075410843
0.10240000119665638,0.031994182616472244,0.005072139203548431
0.10279999696649611,0.03199010714888573,0.005110670812427998
0.10320000001229346,0.03198600560426712,0.005149195436388254
0.1036000030580908,0.03198187053203583,0.005187713075429201
0.10399999882793054,0.03197770193219185,0.005226224195212126
0.10440000187372789,0.03197350725531578,0.0052647278644144535
0.10479999764356762,0.031969279050827026,0.005303225014358759
0.10520000068936497,0.031965021044015884,0.005341715179383755
0.1055999964592047,0.031960733234882355,0.005380197893828154
0.10599999950500205,0.03195641562342644,0.00541867408901453
0.1064000025507994,0.031952064484357834,0.00545714283362031
0.10679999832063913,0.03194768354296684,0.0054956041276454926
0.10720000136643648,0.031943269073963165,0.005534058902412653
0.10759999713627622,0.0319388285279274,0.005572505760937929
0.10800000018207356,0.031934354454278946,0.005610945634543896
0.10840000322787091,0.031929850578308105,0.005649378523230553
0.10879999899771065,0.03192531690001488,0.005687803495675325
0.109200002043508,0.03192074969410896,0.0057262214832007885
0.10959999781334773,0.03191615268588066,0.005764632020145655
0.11000000085914508,0.03518596664071083,0.0058031161315739155
0.11039999662898481,0.038455747067928314,0.005849368404597044
0.11079999967478216,0.038451049476861954,0.00589569378644228
0.1112000027205795,0.03844631463289261,0.005942011252045631
0.11159999849041924,0.03844154253602028,0.005988320801407099
0.11200000153621659,0.038436733186244965,0.006034622434526682
0.11239999730605632,0.038431886583566666,0.0060809156857430935
0.11280000035185367,0.03842700272798538,0.006127201020717621
0.11320000339765102,0.038422081619501114,0.006173477973788977
0.11359999916749075,0.03841712698340416,0.006219746544957161
0.1140000022132881,0.03841213136911392,0.006266007199883461
0.11439999798312783,0.0384070985019207,0.0063122594729065895
0.11480000102892518,0.03840203210711479,0.006358502898365259
0.11519999679876491,0.0383969247341156,0.006404738407582045
0.11559999984456226,0.03839178383350372,0.0064509655348956585
0.11600000289035961,0.03838660567998886,0.0064971838146448135
0.11639999866019934,0.038381390273571014,0.006543393712490797
0.11680000170599669,0.038376133888959885,0.006589595228433609
0.11719999747583643,0.03837084397673607,0.006635787896811962
0.11760000052163377,0.03836551681160927,0.006681972183287144
0.11800000356743112,0.03836015239357948,0.006728147156536579
0.11839999933727086,0.03835475444793701,0.006774313747882843
0.1188000023830682,0.03834931552410126,0.006820471491664648
0.11919999815290794,0.03834383934736252,0.006866620387881994
0.11960000119870529,0.03833832964301109,0.006912760436534882
0.11999999696854502,0.038332778960466385,0.00695889163762331
0.12040000001434237,0.03832719475030899,0.007005013525485992
0.12080000306013972,0.03832156956195831,0.007051126565784216
0.12119999882997945,0.03831591084599495,0.007097230758517981
0.1216000018757768,0.0383102148771286,0.007143325638025999
0.12199999764561653,0.03830448165535927,0.007189411204308271
0.12240000069141388,0.03829871118068695,0.007235487923026085
0.12280000373721123,0.03829290717840195,0.007281554862856865
0.12320000678300858,0.03828706219792366,0.007327612955123186
0.1235999952768907,0.03828117996454239,0.007373661734163761
0.12399999832268804,0.03827526420354843,0.007419700734317303
0.12440000136848539,0.03826931118965149,0.007465730421245098
0.12480000441428274,0.038263317197561264,0.007511750794947147
0.12519999290816486,0.03825728967785835,0.0075577618554234505
0.1255999959539622,0.03825122490525246,0.00760376313701272
0.12599999899975955,0.038245126605033875,0.007649754639714956
0.1264000020455569,0.03823898732662201,0.007695736829191446
0.12680000509135425,0.03823281079530716,0.0077417087741196156
0.12719999358523637,0.03822660073637962,0.007787671405822039
0.12759999663103372,0.038220349699258804,0.007833624258637428
0.12799999967683107,0.0382140651345253,0.007879567332565784
0.12840000272262841,0.03820774331688881,0.00792550016194582
0.12880000576842576,0.038201384246349335,0.007971423678100109
0.12919999426230788,0.038194991648197174,0.008017336949706078
0.12959999730810523,0.03818855807185173,0.008063239976763725
0.13000000035390258,0.041452713310718536,0.008109213784337044
0.13040000339969993,0.04471683129668236,0.008162944577634335
0.13080000644549727,0.04471027851104736,0.008216746151447296
0.1311999949393794,0.044703684747219086,0.008270536549389362
0.13159999798517674,0.04469704627990723,0.008324316702783108
0.1320000010309741,0.044690366834402084,0.008378085680305958
0.13240000407677144,0.04468364268541336,0.008431844413280487
0.1328000071225688,0.044676873832941055,0.008485591970384121
0.1331999956164509,0.04467006400227547,0.008539329282939434
