time[s],iL[A],v out[V]
0.0,0.0,0.0
0.00040000000467443897,0.0,0.0
0.0008000000093488779,0.0,0.0
0.0012000000424450263,0.0,0.0
0.0016000000186977559,0.0,0.0
0.0019999999949504854,0.0,0.0
0.0024000000848900527,0.0,0.0
0.0027999999474559445,0.0,0.0
0.0032000000373955118,0.0,0.0
0.0035999998999614036,0.0,0.0
0.003999999989900971,0.0,0.0
0.004399999852466863,0.0,0.0
0.004800000169780105,0.0,0.0
0.005200000032345997,0.0,0.0
0.005599999894911889,0.0,0.0
0.006000000212225132,0.0,0.0
0.0064000000747910235,0.0,0.0
0.006799999937356915,0.0,0.0
0.007199999799922807,0.0,0.0
0.00760000011723605,0.0,0.0
0.007999999979801942,0.0,0.0
0.008400000297115184,0.04950611665844917,1.8566905055195093e-05
0.008799999704933725,0.12950606644153595,0.00012705600238405168
0.009200000022246968,0.20950588583946228,0.0003325070720165968
0.00960000033956021,0.2895055115222931,0.0006349151954054832
0.009999999747378752,0.3695048391819,0.001034275395795703
0.010400000064691994,0.4495038390159607,0.0015305825509130955
0.010800000382005237,0.5295023918151855,0.0021238315384835005
0.011199999789823778,0.6095004081726074,0.002814017003402114
0.01160000010713702,0.6894978284835815,0.0036011335905641317
0.012000000424450263,0.7390007376670837,0.004478131420910358
0.012399999832268804,0.7389968037605286,0.0053736488334834576
0.012800000149582047,0.7389921545982361,0.006269117351621389
0.013199999557400588,0.7389867901802063,0.007164536509662867
0.01359999987471383,0.7389806509017944,0.008059904910624027
0.014000000192027073,0.73897385597229,0.008955222554504871
0.014399999599845614,0.7389663457870483,0.009850488044321537
0.014799999917158857,0.7389581203460693,0.010745701380074024
0.0152000002344721,0.738949179649353,0.011640859767794609
0.015600000551785342,0.7389394640922546,0.012535964138805866
0.015999999959603883,0.7389290928840637,0.013431012630462646
0.016399999367422424,0.7389180064201355,0.014326004311442375
0.01680000059423037,0.73890620470047,0.015220939181745052
0.01720000000204891,0.7388936281204224,0.016115816310048103
0.01759999940986745,0.7388803958892822,0.017010632902383804
0.018000000636675395,0.7388664484024048,0.01790539175271988
0.018400000044493936,0.7388517260551453,0.01880008913576603
0.018799999452312477,0.7388363480567932,0.019694723188877106
0.01920000067912042,0.7388202548027039,0.020589295774698257
0.019600000086938962,0.7388033866882324,0.021483806893229485
0.019999999494757503,0.7387858629226685,0.02237825095653534
0.020400000721565448,0.7387676239013672,0.02327263168990612
0.02080000012938399,0.7387486100196838,0.02416694536805153
0.02119999953720253,0.738728940486908,0.025061193853616714
0.021600000764010474,0.7387085556983948,0.02595537342131138
0.022000000171829015,0.7386873960494995,0.02684948407113552
0.022399999579647556,0.7386655807495117,0.027743525803089142
0.0228000008064555,0.7386429905891418,0.02863749861717224
0.02320000021427404,0.7386197447776794,0.02953139878809452
0.023599999622092582,0.7385957837104797,0.03042522817850113
0.024000000848900527,0.738571047782898,0.03131898492574692
0.024400000256719068,0.7385456562042236,0.03221266716718674
0.02479999966453761,0.738519549369812,0.03310627490282059
0.025200000891345553,0.7384926676750183,0.03399980440735817
0.025600000299164094,0.7384651303291321,0.03489326313138008
0.025999999706982635,0.7384368777275085,0.03578663989901543
0.026399999114801176,0.7384078502655029,0.0366799421608448
0.02680000034160912,0.7383781671524048,0.03757316246628761
0.02719999974942766,0.7383477687835693,0.038466304540634155
0.027599999157246202,0.7383165955543518,0.03935936465859413
0.028000000384054147,0.7382847666740417,0.04025234654545784
0.028399999791872688,0.7783330082893372,0.04115741327404976
0.02879999919969123,0.8582996726036072,0.04214729368686676
0.029200000426499173,0.9382655620574951,0.043234050273895264
0.029599999834317714,1.0182304382324219,0.04441768303513527
0.029999999242136255,1.0981944799423218,0.04569818079471588
0.0304000004689442,1.1781573295593262,0.0470755398273468
0.030800001695752144,1.2581191062927246,0.048549752682447433
0.031200001103570685,1.3380796909332275,0.05012081563472748
0.031600000511389226,1.4180388450622559,0.05178872123360634
0.03199999991920777,1.4580775499343872,0.0535413883626461
0.03239999932702631,1.4580340385437012,0.0553060919046402
0.03279999873484485,1.457988977432251,0.05707065388560295
0.0332000017806422,1.4579427242279053,0.05883507430553436
0.03360000118846074,1.4578949213027954,0.06059935316443443
0.03400000059627928,1.457845687866211,0.06236348673701286
0.03440000000409782,1.4577951431274414,0.06412747502326965
0.03479999941191636,1.4577431678771973,0.0658913180232048
0.0351999988197349,1.457689642906189,0.06765501201152802
0.03559999822755344,1.4576348066329956,0.06941854953765869
0.03600000127335079,1.4575786590576172,0.07118193805217743
0.03640000068116933,1.4575209617614746,0.07294517010450363
0.03680000008898787,1.457461953163147,0.0747082456946373
0.03719999949680641,1.4574013948440552,0.07647116482257843
0.037599998904624954,1.4573395252227783,0.07823392748832703
0.037999998312443495,1.4572762250900269,0.07999652624130249
0.03840000135824084,1.4572116136550903,0.08175896108150482
0.038800000766059384,1.4571454524993896,0.08352123200893402
0.039200000173877925,1.457077980041504,0.08528333157300949
0.039599999581696466,1.457008957862854,0.08704526722431183
0.03999999898951501,1.456938624382019,0.08880703896284103
0.04039999839733355,1.4568668603897095,0.09056863188743591
0.040800001443130895,1.4567936658859253,0.09233005344867706
0.041200000850949436,1.456719160079956,0.09409130364656448
0.04160000025876798,1.4566432237625122,0.09585236757993698
0.04199999966658652,1.4565657377243042,0.09761326014995575
0.04239999907440506,1.4564869403839111,0.09937397390604019
0.0427999984822236,1.456406831741333,0.10113450139760971
0.04320000152802095,1.4563251733779907,0.1028948500752449
0.04360000093583949,1.4562422037124634,0.10465501248836517
0.04400000034365803,1.4561576843261719,0.10641498118638992
0.04439999975147657,1.4560718536376953,0.10817477107048035
0.04479999915929511,1.4559845924377441,0.10993436723947525
0.04519999856711365,1.455896019935608,0.11169376969337463
0.045600001612911,1.4558058977127075,0.1134529784321785
0.04600000102072954,1.455714464187622,0.11521199345588684
0.04640000042854808,1.455621600151062,0.11697080731391907
0.046799999836366624,1.4555273056030273,0.11872942745685577
0.047199999244185165,1.455431580543518,0.12048784643411636
0.047599998652003706,1.4553345441818237,0.12224606424570084
0.048000001697801054,1.4552360773086548,0.1240040734410286
0.048400001105619594,1.476212978363037,0.12576524913311005
0.048800000513438135,1.5561115741729736,0.1275968849658966
0.049199999921256676,1.6360087394714355,0.12952525913715363
0.04959999932907522,1.7159043550491333,0.1315504014492035
0.04999999873689376,1.7957981824874878,0.13367226719856262
0.050400001782691106,1.8756904602050781,0.1358908861875534
0.05080000119050965,1.9555808305740356,0.13820622861385345
0.05120000059832819,2.0354692935943604,0.14061827957630157
0.05160000000614673,2.1153557300567627,0.14312705397605896
0.05199999941396527,2.136317014694214,0.14570623636245728
0.05239999882178381,2.136199474334717,0.1482885181903839
0.05279999822960235,2.136079788208008,0.15087051689624786
0.0532000012753997,2.135957956314087,0.15345226228237152
0.05360000068321824,2.135834217071533,0.1560337245464325
0.05400000009103678,2.1357083320617676,0.1586149036884308
0.05439999949885532,2.135580539703369,0.1611958146095276
0.054799998906673864,2.1354503631591797,0.1637764424085617
0.055199998314492404,2.1353185176849365,0.16635677218437195
0.05560000136028975,2.1351842880249023,0.1689368337392807
0.05600000076810829,2.1350481510162354,0.17151659727096558
0.056400000175926834,2.1349098682403564,0.17409607768058777
0.056799999583745375,2.1347696781158447,0.17667526006698608
0.057199998991563916,2.134627103805542,0.17925414443016052
0.05759999839938246,2.1344828605651855,0.18183273077011108
0.058000001445179805,2.134336233139038,0.18441101908683777
0.058400000852998346,2.134187698364258,0.18698899447917938
0.05880000026081689,2.1340370178222656,0.18956667184829712
0.05919999966863543,2.1338844299316406,0.19214403629302979
0.05959999907645397,2.1337296962738037,0.19472108781337738
0.05999999848427251,2.133572816848755,0.1972978264093399
0.06040000153006986,2.1334140300750732,0.19987425208091736
0.0608000009378884,2.1332530975341797,0.20245034992694855
0.06120000034570694,2.133090019226074,0.20502613484859467
0.06160000339150429,2.132925033569336,0.2076016068458557
0.06199999916134402,2.1327579021453857,0.2101767361164093
0.06240000220714137,2.1325886249542236,0.21275153756141663
0.0627999979769811,2.1324174404144287,0.21532601118087769
0.06320000102277845,2.132244110107422,0.21790015697479248
0.06359999679261819,2.1320688724517822,0.22047396004199982
0.06399999983841553,2.1318914890289307,0.2230474352836609
0.06440000288421288,2.131711959838867,0.2256205528974533
0.06479999865405262,2.131530523300171,0.22819334268569946
0.06520000169984996,2.1313469409942627,0.23076577484607697
0.0655999974696897,2.1311612129211426,0.233337864279747
0.06600000051548705,2.1309735774993896,0.2359095960855484
0.0664000035612844,2.130783796310425,0.23848098516464233
0.06679999933112413,2.130591869354248,0.24105200171470642
0.06720000237692147,2.1303980350494385,0.24362267553806305
0.06759999814676121,2.130202054977417,0.24619297683238983
0.06800000119255856,2.1300041675567627,0.24876292049884796
0.06839999696239829,2.1442973613739014,0.2513341009616852
0.06880000000819564,2.224095344543457,0.25396937131881714
0.06920000305399299,2.303891181945801,0.25670120120048523
0.06959999882383272,2.3836846351623535,0.25952965021133423
0.07000000186963007,2.4634757041931152,0.26245468854904175
0.0703999976394698,2.543264627456665,0.265476256608963
0.07080000068526715,2.6230509281158447,0.2685944139957428
0.07119999645510688,2.7028348445892334,0.2718091309070587
0.07159999950090423,2.782616138458252,0.2751203775405884
0.07200000254670158,2.7968878746032715,0.2784956693649292
0.07239999831654131,2.796663761138916,0.28187212347984314
0.07280000136233866,2.7964370250701904,0.28524813055992126
0.0731999971321784,2.7962074279785156,0.2886236906051636
0.07360000017797574,2.7959752082824707,0.29199883341789246
0.07400000322377309,2.7957401275634766,0.29537349939346313
0.07439999899361283,2.7955026626586914,0.2987477481365204
0.07480000203941017,2.795262336730957,0.30212152004241943
0.07519999780924991,2.7950191497802734,0.30549484491348267
0.07560000085504726,2.7947733402252197,0.3088676929473877
0.07599999662488699,2.794524908065796,0.3122400939464569
0.07639999967068434,2.794273853302002,0.3156120181083679
0.07680000271648169,2.794019937515259,0.3189834952354431
0.07719999848632142,2.7937633991241455,0.3223544657230377
0.07760000153211877,2.793504238128662,0.3257249891757965
0.0779999973019585,2.7932424545288086,0.3290950059890747
0.07840000034775585,2.792977809906006,0.3324645757675171
0.0788000033935532,2.792710304260254,0.3358336389064789
0.07919999916339293,2.792440414428711,0.3392021954059601
0.07960000220919028,2.7921676635742188,0.3425702750682831
0.07999999797903001,2.7918922901153564,0.3459378778934479
0.08040000102482736,2.791614294052124,0.3493049740791321
0.0807999967946671,2.7913334369659424,0.3526715636253357
0.08119999984046444,2.7910499572753906,0.3560376465320587
0.08160000288626179,2.7907638549804688,0.35940322279930115
0.08199999865610152,2.7904748916625977,0.3627682626247406
0.08240000170189887,2.7901833057403564,0.36613282561302185
0.0827999974717386,2.789889097213745,0.3694968521595001
0.08320000051753595,2.7895920276641846,0.3728603422641754
0.0836000035633333,2.789292573928833,0.3762233257293701
0.08399999933317304,2.7889902591705322,0.37958580255508423
0.08440000237897038,2.7886850833892822,0.382947713136673
0.08479999814881012,2.788377523422241,0.38630911707878113
0.08520000119460747,2.788067102432251,0.3896699547767639
0.0855999969644472,2.7877540588378906,0.3930302560329437
0.08600000001024455,2.787438154220581,0.39639005064964294
0.0864000030560419,2.7871198654174805,0.3997492492198944
0.08679999882588163,2.7867987155914307,0.4031079411506653
0.08720000187167898,2.7864747047424316,0.4064660370349884
0.08759999764151871,2.7861483097076416,0.40982359647750854
0.08800000068731606,2.7858190536499023,0.4131805896759033
0.0883999964571558,2.7887582778930664,0.4165371060371399
0.08879999950295314,2.8684237003326416,0.4199454188346863
0.08920000254875049,2.9480865001678467,0.42345014214515686
0.08959999831859022,3.0277462005615234,0.42705124616622925
0.09000000136438757,3.107403039932251,0.43074873089790344
0.0903999971342273,3.1870570182800293,0.43454256653785706
0.09080000018002465,3.2667078971862793,0.4384327828884125
0.091200003225822,3.346355438232422,0.4424193501472473
0.09159999899566174,3.425999879837036,0.4465022683143616
0.09200000204145908,3.428912401199341,0.4506368935108185
0.09239999781129882,3.4285502433776855,0.4547709822654724
0.09280000085709617,3.428184747695923,0.4589044451713562
0.0931999966269359,3.4278159141540527,0.46303725242614746
0.09359999967273325,3.427443742752075,0.4671694040298462
0.0940000027185306,3.4270684719085693,0.4713008999824524
0.09439999848837033,3.426689624786377,0.47543174028396606
0.09480000153416768,3.4263076782226562,0.4795619249343872
0.09519999730400741,3.425922393798828,0.48369142413139343
0.09560000034980476,3.4255337715148926,0.48782026767730713
0.09600000339560211,3.4251418113708496,0.4919484555721283
0.09639999916544184,3.4247467517852783,0.49607595801353455
0.09680000221123919,3.4243481159210205,0.5002027750015259
0.09719999798107892,3.4239463806152344,0.5043289065361023
0.09760000102687627,3.423541307449341,0.5084543228149414
0.097999996796716,3.42313289642334,0.512579083442688
0.09839999984251335,3.4227211475372314,0.5167031288146973
0.0988000028883107,3.4223060607910156,0.5208264589309692
0.09919999865815043,3.4218878746032715,0.5249491333961487
0.09960000170394778,3.421466112136841,0.529071033000946
0.09999999747378752,3.421041250228882,0.5331922769546509
0.10040000051958486,3.4206130504608154,0.5373128056526184
0.10080000356538221,3.4201815128326416,0.5414325594902039
0.10119999933522195,3.4197466373443604,0.5455516576766968
0.1016000023810193,3.419308662414551,0.5496699810028076
0.10199999815085903,3.418867349624634,0.5537875294685364
0.10240000119665638,3.4184226989746094,0.5579044222831726
0.10279999696649611,3.4179747104644775,0.5620205402374268
0.10320000001229346,3.4175233840942383,0.5661359429359436
0.1036000030580908,3.4170687198638916,0.5702505707740784
0.10399999882793054,3.4166109561920166,0.574364423751831
0.10440000187372789,3.416149854660034,0.5784775614738464
0.10479999764356762,3.4156854152679443,0.5825899243354797
0.10520000068936497,3.415217638015747,0.586701512336731
0.1055999964592047,3.4147467613220215,0.5908123254776001
0.10599999950500205,3.4142723083496094,0.5949223637580872
0.1064000025507994,3.413794755935669,0.5990316867828369
0.10679999832063913,3.413313865661621,0.6031401753425598
0.10720000136643648,3.412829875946045,0.6072478890419006
0.10759999713627622,3.4123423099517822,0.6113548278808594
0.10800000018207356,3.411851644515991,0.6154609322547913
0.10840000322787091,3.4113576412200928,0.6195662617683411
0.10879999899771065,3.4846484661102295,0.6237120628356934
0.109200002043508,3.56414794921875,0.6279537081718445
0.10959999781334773,3.643643856048584,0.6322914958000183
0.11000000085914508,3.7231361865997314,0.6367254853248596
0.11039999662898481,3.8026249408721924,0.6412555575370789
0.11079999967478216,3.882110118865967,0.6458817720413208
0.1112000027205795,3.9615914821624756,0.6506041288375854
0.11159999849041924,4.034857273101807,0.6554222702980042
0.11200000153621659,4.034331321716309,0.6602807641029358
0.11239999730605632,4.033801078796387,0.6651384234428406
0.11280000035185367,4.033267021179199,0.6699951887130737
0.11320000339765102,4.032729148864746,0.6748510599136353
0.11359999916749075,4.032186985015869,0.6797060370445251
0.1140000022132881,4.031641483306885,0.6845601201057434
0.11439999798312783,4.031091690063477,0.6894133687019348
0.11480000102892518,4.030538558959961,0.6942656636238098
0.11519999679876491,4.0299811363220215,0.6991170048713684
0.11559999984456226,4.029419898986816,0.7039675116539001
0.11600000289035961,4.028854846954346,0.7088170647621155
0.11639999866019934,4.028285503387451,0.7136656641960144
0.11680000170599669,4.027712821960449,0.7185133695602417
0.11719999747583643,4.027135848999023,0.7233601808547974
0.11760000052163377,4.02655553817749,0.7282059788703918
0.11800000356743112,4.025970935821533,0.7330508828163147
0.11839999933727086,4.0253825187683105,0.7378948330879211
0.1188000023830682,4.024790287017822,0.7427378296852112
0.11919999815290794,4.024194240570068,0.7475798726081848
0.11960000119870529,4.023594379425049,0.752420961856842
0.11999999696854502,4.0229902267456055,0.7572610974311829
0.12040000001434237,4.0223822593688965,0.7621002197265625
0.12080000306013972,4.02177095413208,0.7669384479522705
0.12119999882997945,4.02115535736084,0.7717756032943726
0.1216000018757768,4.020535945892334,0.776611864566803
0.12199999764561653,4.0199127197265625,0.7814470529556274
0.12240000069141388,4.019285678863525,0.7862812876701355
0.12280000373721123,4.018654823303223,0.7911145687103271
0.12320000678300858,4.018020153045654,0.7959467768669128
0.1235999952768907,4.017381191253662,0.8007780313491821
0.12399999832268804,4.0167388916015625,0.8056082129478455
0.12440000136848539,4.016092300415039,0.8104374408721924
0.12480000441428274,4.01544189453125,0.8152656555175781
0.12519999290816486,4.014787673950195,0.8200927972793579
0.1255999959539622,4.014129638671875,0.8249189257621765
0.12599999899975955,4.013467788696289,0.8297440409660339
0.1264000020455569,4.0128021240234375,0.8345680832862854
0.12680000509135425,4.01213264465332,0.8393911123275757
0.12719999358523637,4.0114593505859375,0.84421306848526
0.12759999663103372,4.010781764984131,0.8490339517593384
0.12799999967683107,4.010100841522217,0.8538538217544556
0.12840000272262841,4.009415626525879,0.8586726188659668
0.12880000576842576,4.076899528503418,0.8635255694389343
0.12919999426230788,4.1562066078186035,0.8684733510017395
0.12959999730810523,4.235509872436523,0.8735170364379883
0.13000000035390258,4.3148088455200195,0.8786565661430359
0.13040000339969993,4.39410400390625,0.8838919401168823
0.13080000644549727,4.473394870758057,0.8892232179641724
0.1311999949393794,4.552680969238281,0.8946502804756165
0.13159999798517674,4.62013578414917,0.9001721739768982
0.1320000010309741,4.619413375854492,0.9057281613349915
0.13240000407677144,4.618686676025391,0.9112829566001892
0.1328000071225688,4.617955207824707,0.9168365597724915
0.1331999956164509,4.6172194480896,0.9223890900611877
0.13359999866224825,4.616479396820068,0.9279404282569885
0.1340000017080456,4.615735054016113,0.9334905743598938
0.13440000475384295,4.614985942840576,0.9390395283699036
0.13479999324772507,4.614232540130615,0.9445873498916626
0.13519999629352242,4.613474369049072,0.9501339793205261
0.13559999933931977,4.612712383270264,0.9556793570518494
0.1360000023851171,4.611945629119873,0.9612236022949219
0.13640000543091446,4.6111741065979,0.9667666554450989
0.13679999392479658,4.610398769378662,0.9723084568977356
0.13719999697059393,4.609618663787842,0.9778490662574768
0.13760000001639128,4.6088337898254395,0.9833884835243225
0.13800000306218863,4.6080451011657715,0.9889266490936279
0.13840000610798597,4.6072516441345215,0.9944636225700378
0.1387999946018681,4.606453895568848,0.9999993443489075
0.13919999764766544,4.60565185546875,1.0055338144302368
0.1396000006934628,4.60484504699707,1.0110670328140259
0.14000000373926014,4.604033946990967,1.0165990591049194
0.14040000678505749,4.6032185554504395,1.022129774093628
0.1407999952789396,4.60239839553833,1.027659296989441
0.14119999832473695,4.601574420928955,1.0331875085830688
