time[s],iL[A],v out[V]
0.0,0.0,0.0
0.00040000000467443897,0.07999999076128006,4.8484060243936256e-05
0.0008000000093488779,0.15999989211559296,0.00019393306865822524
0.0012000000424450263,0.2399996519088745,0.0004363421758171171
0.0016000000186977559,0.31999915838241577,0.0007757064304314554
0.0019999999949504854,0.39999839663505554,0.0012120208702981472
0.0024000000848900527,0.4799972176551819,0.00174528022762388
0.0027999999474559445,0.5599955916404724,0.002375479321926832
0.0032000000373955118,0.6399933695793152,0.0031026131473481655
0.0035999998999614036,0.7199905514717102,0.003926675766706467
0.003999999989900971,0.7999870777130127,0.004847662057727575
0.004399999852466863,0.8799827694892883,0.005865566432476044
0.004800000169780105,0.9599776864051819,0.006980383303016424
0.005200000032345997,1.0399715900421143,0.008192106150090694
0.005599999894911889,1.1199644804000854,0.009500729851424694
0.006000000212225132,1.1999564170837402,0.010906248353421688
0.0064000000747910235,1.27994704246521,0.012408655136823654
0.006799999937356915,1.3599364757537842,0.01400794554501772
0.007199999799922807,1.4399245977401733,0.015704110264778137
0.00760000011723605,1.519911289215088,0.017497146502137184
0.007999999979801942,1.5998965501785278,0.01938704587519169
0.008400000297115184,1.6798802614212036,0.021373800933361053
0.008799999704933725,1.7598624229431152,0.02345740795135498
0.009200000022246968,1.8398427963256836,0.025637857615947723
0.00960000033956021,1.9198213815689087,0.027915144339203835
0.009999999747378752,1.999798059463501,0.030289260670542717
0.010400000064691994,2.07977294921875,0.032760199159383774
0.010800000382005237,2.159745693206787,0.03532795608043671
0.011199999789823778,2.2397162914276123,0.03799251839518547
0.01160000010713702,2.3196847438812256,0.04075388237833977
0.012000000424450263,2.399651050567627,0.0436120443046093
0.012399999832268804,2.4796149730682373,0.04656698927283287
0.012800000149582047,2.5595765113830566,0.049618713557720184
0.013199999557400588,2.639535665512085,0.05276720970869064
0.01359999987471383,2.719491958618164,0.05601246654987335
0.014000000192027073,2.799445867538452,0.05935448035597801
0.014399999599845614,2.87939715385437,0.06279324740171432
0.014799999917158857,2.9593453407287598,0.0663287490606308
0.0152000002344721,3.0392909049987793,0.06996098160743713
0.015600000551785342,3.1192333698272705,0.07368993759155273
0.015999999959603883,3.1991729736328125,0.077515609562397
0.016399999367422424,3.279109477996826,0.08143799006938934
0.01680000059423037,3.3590426445007324,0.08545706421136856
0.01720000000204891,3.4389727115631104,0.08957283198833466
0.01759999940986745,3.518899440765381,0.09378527849912643
0.018000000636675395,3.598822593688965,0.0980944037437439
0.018400000044493936,3.6787424087524414,0.10250018537044525
0.018799999452312477,3.7586586475372314,0.1070026233792305
0.01920000067912042,3.838571071624756,0.11160170286893845
0.019600000086938962,3.9184799194335938,0.11629742383956909
0.019999999494757503,3.998384952545166,0.12108977138996124
0.020400000721565448,3.998286247253418,0.12593024969100952
0.02080000012938399,3.998183488845825,0.13077037036418915
0.02119999953720253,3.998076915740967,0.13561013340950012
0.021600000764010474,3.9979665279388428,0.14044952392578125
0.022000000171829015,3.997852087020874,0.14528855681419373
0.022399999579647556,3.9977340698242188,0.15012720227241516
0.0228000008064555,3.9976119995117188,0.15496547520160675
0.02320000021427404,3.997486114501953,0.1598033607006073
0.023599999622092582,3.997356414794922,0.16464084386825562
0.024000000848900527,3.997222661972046,0.16947795450687408
0.024400000256719068,3.9970850944519043,0.17431464791297913
0.02479999966453761,3.996943712234497,0.17915095388889313
0.025200000891345553,3.996798515319824,0.1839868426322937
0.025600000299164094,3.9966492652893066,0.18882231414318085
0.025999999706982635,3.9964964389801025,0.19365736842155457
0.026399999114801176,3.9963395595550537,0.19849200546741486
0.02680000034160912,3.9961788654327393,0.20332622528076172
0.02719999974942766,3.99601411819458,0.20815999805927277
0.027599999157246202,3.9958457946777344,0.2129933387041092
0.028000000384054147,3.995673418045044,0.2178262323141098
0.028399999791872688,3.995497226715088,0.2226586937904358
0.02879999919969123,3.995317220687866,0.22749069333076477
0.029200000426499173,3.9951331615448,0.23232224583625793
0.029599999834317714,3.994945526123047,0.2371533364057541
0.029999999242136255,3.9948856830596924,0.24198396503925323
0.0304000004689442,3.9948220252990723,0.24681444466114044
0.030800001695752144,3.9946227073669434,0.25164446234703064
0.031200001103570685,3.9944193363189697,0.25647398829460144
0.031600000511389226,3.9942123889923096,0.26130300760269165
0.03199999991920777,3.9940013885498047,0.26613157987594604
0.03239999932702631,3.993786573410034,0.27095964550971985
0.03279999873484485,3.993567943572998,0.27578720450401306
0.0332000017806422,3.993345260620117,0.28061428666114807
0.03360000118846074,3.9931187629699707,0.2854408323764801
0.03400000059627928,3.9928884506225586,0.29026687145233154
0.03440000000409782,3.992654323577881,0.2950924038887024
0.03479999941191636,3.9924163818359375,0.29991742968559265
0.0351999988197349,3.9921746253967285,0.30474191904067993
0.03559999822755344,3.991928815841675,0.30956587195396423
0.03600000127335079,3.9916791915893555,0.31438928842544556
0.03640000068116933,3.9914257526397705,0.3192121684551239
0.03680000008898787,3.99116849899292,0.32403451204299927
0.03719999949680641,3.9909074306488037,0.32885631918907166
0.037599998904624954,3.9906423091888428,0.3336775600910187
0.037999998312443495,3.990373373031616,0.33849823474884033
0.03840000135824084,3.990100622177124,0.343318372964859
0.038800000766059384,3.989824056625366,0.34813791513442993
0.039200000173877925,3.9895436763763428,0.3529569208621979
0.039599999581696466,3.9892594814300537,0.35777533054351807
0.03999999898951501,3.98897123336792,0.3625931441783905
0.04039999839733355,3.9886791706085205,0.3674103915691376
0.040800001443130895,3.9883832931518555,0.3722270429134369
0.041200000850949436,3.988083600997925,0.37704309821128845
0.04160000025876798,3.9877800941467285,0.38185855746269226
0.04199999966658652,3.9874727725982666,0.3866734206676483
0.04239999907440506,3.98716139793396,0.39148765802383423
0.0427999984822236,3.9868462085723877,0.3963012993335724
0.04320000152802095,3.986527442932129,0.4011143147945404
0.04360000093583949,3.9862046241760254,0.4059267044067383
0.04400000034365803,3.985877752304077,0.410738468170166
0.04439999975147657,3.9855473041534424,0.4155496060848236
0.04479999915929511,3.985213041305542,0.42036011815071106
0.04519999856711365,3.984874725341797,0.425169974565506
0.045600001612911,3.9845328330993652,0.4299791753292084
0.04600000102072954,3.984186887741089,0.4347877502441406
0.04640000042854808,3.983837127685547,0.43959566950798035
0.046799999836366624,3.9834835529327393,0.44440290331840515
0.047199999244185165,3.983125925064087,0.4492094814777374
0.047599998652003706,3.982764720916748,0.4540154039859772
0.048000001697801054,3.9823997020721436,0.458820641040802
0.048400001105619594,3.9820306301116943,0.4636252224445343
0.048800000513438135,3.9816577434539795,0.4684290885925293
0.049199999921256676,3.981281042098999,0.47323229908943176
0.04959999932907522,3.980900526046753,0.4780347943305969
0.04999999873689376,3.9864368438720703,0.48283687233924866
0.050400001782691106,3.991969108581543,0.487652063369751
0.05080000119050965,3.991576910018921,0.4924668073654175
0.05120000059832819,3.9911811351776123,0.49728086590766907
0.05160000000614673,3.990781307220459,0.5020942091941833
0.05199999941396527,3.99037766456604,0.5069068074226379
0.05239999882178381,3.9899702072143555,0.5117186903953552
0.05279999822960235,3.9895589351654053,0.5165297985076904
0.0532000012753997,3.9891438484191895,0.5213402509689331
0.05360000068321824,3.988724708557129,0.5261499285697937
0.05400000009103678,3.988301992416382,0.5309588313102722
0.05439999949885532,3.98787522315979,0.5357670187950134
0.054799998906673864,3.9874446392059326,0.5405744910240173
0.055199998314492404,3.9870104789733887,0.5453811287879944
0.05560000136028975,3.986572027206421,0.5501870512962341
0.05600000076810829,3.9861299991607666,0.5549921989440918
0.056400000175926834,3.9856841564178467,0.5597965717315674
0.056799999583745375,3.985234498977661,0.5646001696586609
0.057199998991563916,3.984780788421631,0.5694029927253723
0.05759999839938246,3.984323263168335,0.5742050409317017
0.058000001445179805,3.9838621616363525,0.5790063142776489
0.058400000852998346,3.9833970069885254,0.5838067531585693
0.05880000026081689,3.9829280376434326,0.5886064171791077
0.05919999966863543,3.982455253601074,0.5934052467346191
0.05959999907645397,3.981978416442871,0.5982033014297485
0.05999999848427251,3.9814980030059814,0.6030005216598511
0.06040000153006986,3.981013774871826,0.6077969074249268
0.0608000009378884,3.980525493621826,0.6125925183296204
0.06120000034570694,3.9800336360931396,0.6173872947692871
0.06160000339150429,3.9795377254486084,0.622181236743927
0.06199999916134402,3.9790380001068115,0.62697434425354
0.06240000220714137,3.978534460067749,0.6317665576934814
0.0627999979769811,3.978027105331421,0.6365579962730408
0.06320000102277845,3.9775161743164062,0.6413485407829285
0.06359999679261819,3.9770009517669678,0.6461382508277893
0.06399999983841553,3.9764821529388428,0.6509271264076233
0.06440000288421288,3.975959539413452,0.6557151079177856
0.06479999865405262,3.975433111190796,0.6605021953582764
0.06520000169984996,3.974902868270874,0.6652884483337402
0.0655999974696897,3.9743685722351074,0.6700738072395325
0.06600000051548705,3.9738306999206543,0.6748583316802979
0.0664000035612844,3.9732887744903564,0.6796419024467468
0.06679999933112413,3.972743272781372,0.684424638748169
0.06720000237692147,3.972193717956543,0.6892064213752747
0.06759999814676121,3.9716405868530273,0.6939873695373535
0.06800000119255856,3.971083402633667,0.698767364025116
0.06839999696239829,3.970522403717041,0.7035464644432068
0.06880000000819564,3.9699578285217285,0.7083246111869812
0.06920000305399299,3.9693892002105713,0.7131019234657288
0.06959999882383272,3.9688167572021484,0.7178782224655151
0.07000000186963007,3.9959185123443604,0.7226594686508179
0.0703999976394698,4.023016452789307,0.7274952530860901
0.07080000068526715,4.022432804107666,0.7323358654975891
0.07119999645510688,4.021844863891602,0.7371755838394165
0.07159999950090423,4.0212531089782715,0.7420143485069275
0.07200000254670158,4.020657539367676,0.7468520998954773
0.07239999831654131,4.0200581550598145,0.7516889572143555
0.07280000136233866,4.0194549560546875,0.7565248012542725
0.0731999971321784,4.018847465515137,0.7613597512245178
0.07360000017797574,4.0182366371154785,0.7661936283111572
0.07400000322377309,4.017621994018555,0.771026611328125
0.07439999899361283,4.017003059387207,0.7758585810661316
0.07480000203941017,4.016380310058594,0.780689537525177
0.07519999780924991,4.015753746032715,0.785519540309906
0.07560000085504726,4.01512336730957,0.7903485298156738
0.07599999662488699,4.01448917388916,0.7951765656471252
0.07639999967068434,4.013851165771484,0.8000035285949707
0.07680000271648169,4.013209342956543,0.8048295378684998
0.07719999848632142,4.012563705444336,0.8096544742584229
0.07760000153211877,4.011913776397705,0.8144783973693848
0.0779999973019585,4.011260509490967,0.8193013668060303
0.07840000034775585,4.010602951049805,0.8241232633590698
0.0788000033935532,4.009941577911377,0.8289440870285034
0.07919999916339293,4.009276866912842,0.8337639570236206
0.07960000220919028,4.008607864379883,0.8385826945304871
0.07999999797903001,4.007935047149658,0.8434004783630371
0.08040000102482736,4.007258415222168,0.8482171893119812
0.0807999967946671,4.006577968597412,0.8530327677726746
0.08119999984046444,4.005893707275391,0.8578473329544067
0.08160000288626179,4.005205154418945,0.8626608848571777
0.08199999865610152,4.004513263702393,0.867473304271698
0.08240000170189887,4.003817558288574,0.8722846508026123
0.0827999974717386,4.003117561340332,0.8770949244499207
0.08320000051753595,4.002414226531982,0.881904125213623
0.0836000035633333,4.001706600189209,0.8867122530937195
0.08399999933317304,4.00099515914917,0.8915192484855652
0.08440000237897038,4.000280380249023,0.8963251709938049
0.08479999814881012,3.999561071395874,0.901129961013794
0.08520000119460747,3.998838424682617,0.905933678150177
0.0855999969644472,3.9981117248535156,0.9107362627983093
0.08600000001024455,3.9973812103271484,0.9155377745628357
0.0864000030560419,3.9966468811035156,0.9203380942344666
0.08679999882588163,3.995908737182617,0.9251373410224915
0.08720000187167898,3.995166540145874,0.9299354553222656
0.08759999764151871,3.9944207668304443,0.9347324371337891
0.08800000068731606,3.99367094039917,0.9395282864570618
0.0883999964571558,3.992917537689209,0.944322943687439
0.08879999950295314,3.9921600818634033,0.9491164684295654
0.08920000254875049,3.991398811340332,0.9539088606834412
0.08959999831859022,3.990633964538574,0.9587001204490662
0.09000000136438757,4.0174689292907715,0.9634959697723389
0.0903999971342273,4.044300079345703,0.9683459997177124
0.09080000018002465,4.04352331161499,0.9732006192207336
0.091200003225822,4.042742729187012,0.9780541062355042
0.09159999899566174,4.041958332061768,0.9829064011573792
0.09200000204145908,4.041170120239258,0.9877575039863586
0.09239999781129882,4.040378093719482,0.9926073551177979
0.09280000085709617,4.039582252502441,0.9974560737609863
0.0931999966269359,4.038782119750977,1.0023036003112793
0.09359999967273325,4.037978172302246,1.0071498155593872
0.0940000027185306,4.037170886993408,1.0119949579238892
0.09439999848837033,4.0363593101501465,1.016838788986206
0.09480000153416768,4.035543918609619,1.0216814279556274
0.09519999730400741,4.034724235534668,1.0265228748321533
0.09560000034980476,4.033901214599609,1.0313630104064941
0.09600000339560211,4.033074378967285,1.036202073097229
0.09639999916544184,4.032243251800537,1.0410397052764893
0.09680000221123919,4.031408786773682,1.0458762645721436
0.09719999798107892,4.030570030212402,1.0507113933563232
0.09760000102687627,4.029727458953857,1.055545449256897
0.097999996796716,4.028881072998047,1.060378074645996
0.09839999984251335,4.028030872344971,1.0652095079421997
0.0988000028883107,4.027176856994629,1.0700397491455078
0.09919999865815043,4.0263190269470215,1.0748686790466309
0.09960000170394778,4.02545690536499,1.0796962976455688
0.09999999747378752,4.024591445922852,1.0845226049423218
0.10040000051958486,4.023721694946289,1.0893477201461792
0.10080000356538221,4.022848606109619,1.094171404838562
0.10119999933522195,4.021971225738525,1.0989938974380493
0.1016000023810193,4.021090030670166,1.1038150787353516
0.10199999815085903,4.020205020904541,1.1086349487304688
0.10240000119665638,4.01931619644165,1.1134535074234009
0.10279999696649611,4.018423557281494,1.118270754814148
0.10320000001229346,4.017527103424072,1.12308669090271
0.1036000030580908,4.016626834869385,1.127901315689087
0.10399999882793054,4.015722274780273,1.1327146291732788
0.10440000187372789,4.014814376831055,1.1375266313552856
0.10479999764356762,4.013902187347412,1.1423372030258179
0.10520000068936497,4.012986660003662,1.147146463394165
0.1055999964592047,4.012066841125488,1.1519544124603271
0.10599999950500205,4.011143684387207,1.1567610502243042
0.1064000025507994,4.010216236114502,1.1615662574768066
0.10679999832063913,4.009284973144531,1.166370153427124
0.10720000136643648,4.008349895477295,1.1711726188659668
0.10759999713627622,4.007411003112793,1.1759737730026245
0.10800000018207356,4.006468296051025,1.1807734966278076
0.10840000322787091,4.005521774291992,1.1855719089508057
0.10879999899771065,4.004571437835693,1.190368890762329
0.109200002043508,4.003617286682129,1.1951645612716675
0.10959999781334773,4.002659320831299,1.1999588012695312
0.11000000085914508,4.029317378997803,1.2047573328018188
0.11039999662898481,4.055971622467041,1.2096099853515625
0.11079999967478216,4.055001735687256,1.21446692943573
0.1112000027205795,4.054028511047363,1.2193225622177124
0.11159999849041924,4.053050994873047,1.2241766452789307
0.11200000153621659,4.052069664001465,1.2290294170379639
0.11239999730605632,4.051084518432617,1.233880639076233
0.11280000035185367,4.050095558166504,1.238730549812317
0.11320000339765102,4.049102306365967,1.2435789108276367
0.11359999916749075,4.048105716705322,1.2484259605407715
0.1140000022132881,4.047104835510254,1.253271460533142
0.11439999798312783,4.046100616455078,1.2581156492233276
0.11480000102892518,4.0450921058654785,1.2629581689834595
0.11519999679876491,4.044079780578613,1.2677993774414062
0.11559999984456226,4.043063640594482,1.2726391553878784
0.11600000289035961,4.042043685913086,1.2774773836135864
0.11639999866019934,4.041019439697266,1.2823141813278198
0.11680000170599669,4.039991855621338,1.287149429321289
0.11719999747583643,4.038959980010986,1.2919832468032837
0.11760000052163377,4.037924766540527,1.2968155145645142
0.11800000356743112,4.0368852615356445,1.30164635181427
0.11839999933727086,4.035841941833496,1.3064757585525513
0.1188000023830682,4.034794807434082,1.3113036155700684
0.11919999815290794,4.033743858337402,1.3161299228668213
0.11960000119870529,4.032689094543457,1.32095468044281
0.11999999696854502,4.031630516052246,1.3257780075073242
0.12040000001434237,4.0305681228637695,1.3305997848510742
0.12080000306013972,4.029501438140869,1.33542001247406
0.12119999882997945,4.028431415557861,1.3402388095855713
0.1216000018757768,4.02735710144043,1.3450559377670288
0.12199999764561653,4.026278972625732,1.3498716354370117
0.12240000069141388,4.025197505950928,1.3546857833862305
0.12280000373721123,4.024111747741699,1.359498381614685
0.12320000678300858,4.023022174835205,1.364309310913086
0.1235999952768907,4.021928787231445,1.3691188097000122
0.12399999832268804,4.02083158493042,1.3739267587661743
0.12440000136848539,4.019730567932129,1.3787330389022827
0.12480000441428274,4.018625736236572,1.383537769317627
0.12519999290816486,4.01751708984375,1.3883410692214966
0.1255999959539622,4.016404151916504,1.393142580986023
0.12599999899975955,4.01528787612915,1.3979426622390747
0.1264000020455569,4.014167785644531,1.4027410745620728
0.12680000509135425,4.013043403625488,1.4075379371643066
0.12719999358523637,4.011915683746338,1.4123332500457764
0.12759999663103372,4.010783672332764,1.4171268939971924
0.12799999967683107,4.009648323059082,1.4219188690185547
0.12840000272262841,4.008508682250977,1.4267092943191528
0.12880000576842576,4.0073652267456055,1.4314981698989868
0.12919999426230788,4.006218433380127,1.436285376548767
0.12959999730810523,4.005067348480225,1.4410709142684937
0.13000000035390258,4.031137466430664,1.445860505104065
0.13040000339969993,4.057203769683838,1.4507031440734863
0.13080000644549727,4.056041240692139,1.4555498361587524
0.1311999949393794,4.054874897003174,1.4603948593139648
0.13159999798517674,4.053704738616943,1.4652382135391235
0.1320000010309741,4.052530765533447,1.4700798988342285
0.13240000407677144,4.051352500915527,1.4749199151992798
0.1328000071225688,4.0501708984375,1.479758381843567
0.1331999956164509,4.048985004425049,1.4845950603485107
0.13359999866224825,4.047795295715332,1.4894300699234009
0.1340000017080456,4.04660177230835,1.4942635297775269
0.13440000475384295,4.045404434204102,1.4990952014923096
0.13479999324772507,4.044203281402588,1.5039252042770386
0.13519999629352242,4.042998313903809,1.5087534189224243
0.13559999933931977,4.041789531707764,1.513580083847046
0.1360000023851171,4.040576457977295,1.5184049606323242
0.13640000543091446,4.039360046386719,1.5232281684875488
0.13679999392479658,4.038139343261719,1.5280495882034302
0.13719999697059393,4.036915302276611,1.5328694581985474
0.13760000001639128,4.03568696975708,1.5376874208450317
0.13800000306218863,4.034454822540283,1.5425037145614624
0.13840000610798597,4.033218860626221,1.5473183393478394
