time[s],iL[A],v out[V]
0.0,0.0,0.0
0.00040000000467443897,0.0,0.0
0.0008000000093488779,0.0,0.0
0.0012000000424450263,0.0,0.0
0.0016000000186977559,0.0,0.0
0.0019999999949504854,0.0,0.0
0.0024000000848900527,0.0,0.0
0.0027999999474559445,0.0,0.0
0.0032000000373955118,0.0,0.0
0.0035999998999614036,0.0,0.0
0.003999999989900971,0.0,0.0
0.004399999852466863,0.0,0.0
0.004800000169780105,0.0,0.0
0.005200000032345997,0.0,0.0
0.005599999894911889,0.0,0.0
0.006000000212225132,0.0,0.0
0.0064000000747910235,0.0,0.0
0.006799999937356915,0.0,0.0
0.007199999799922807,0.0,0.0
0.00760000011723605,0.0,0.0
0.007999999979801942,0.0,0.0
0.008400000297115184,0.0,0.0
0.008799999704933725,0.0,0.0
0.009200000022246968,0.0,0.0
0.00960000033956021,0.0,0.0
0.009999999747378752,0.038633525371551514,1.130710279539926e-05
0.010400000064691994,0.07726701349020004,9.365456207888201e-05
0.010800000382005237,0.07726689428091049,0.00018730467127170414
0.011199999789823778,0.07726670801639557,0.0002809500729199499
0.01160000010713702,0.07726644724607468,0.0003745906287804246
0.012000000424450263,0.07726611196994781,0.000468226324301213
0.012399999832268804,0.07726570218801498,0.0005618570139631629
0.012800000149582047,0.07726521044969559,0.0006554825813509524
0.013199999557400588,0.07726465165615082,0.0007491030264645815
0.01359999987471383,0.07726401090621948,0.0008427181746810675
0.014000000192027073,0.07726330310106277,0.0009363279677927494
0.014399999599845614,0.0772625133395195,0.0010299322893843055
0.014799999917158857,0.07726165652275085,0.0011235311394557357
0.0152000002344721,0.07726071774959564,0.0012171242851763964
0.015600000551785342,0.07725970447063446,0.0013107117265462875
0.015999999959603883,0.0772586241364479,0.0014042934635654092
0.016399999367422424,0.07725746184587479,0.0014978691469877958
0.01680000059423037,0.0772562250494957,0.0015914390096440911
0.01720000000204891,0.07725491374731064,0.0016850027022883296
0.01759999940986745,0.07725352793931961,0.0017785602249205112
0.018000000636675395,0.07725206762552261,0.0018721114611253142
0.018400000044493936,0.07725053280591965,0.0019656564109027386
0.018799999452312477,0.07724892348051071,0.0020591947250068188
0.01920000067912042,0.0772472396492958,0.0021527267526835203
0.019600000086938962,0.07724548131227493,0.002246252028271556
0.019999999494757503,0.07724364101886749,0.002339770784601569
0.020400000721565448,0.07724173367023468,0.002433282556012273
0.02080000012938399,0.0772397443652153,0.0025267875753343105
0.02119999953720253,0.07723768800497055,0.002620285376906395
0.021600000764010474,0.07723555713891983,0.0027137761935591698
0.022000000171829015,0.07723334431648254,0.002807260025292635
0.022399999579647556,0.07723106443881989,0.0029007364064455032
0.0228000008064555,0.07722870260477066,0.0029942053370177746
0.02320000021427404,0.07722627371549606,0.0030876670498400927
0.023599999622092582,0.0772237628698349,0.003181121312081814
0.024000000848900527,0.07722118496894836,0.0032745676580816507
0.024400000256719068,0.07721852511167526,0.0033680065535008907
0.02479999966453761,0.07721579074859619,0.0034614375326782465
0.025200000891345553,0.07721298933029175,0.003554860595613718
0.025600000299164094,0.07721010595560074,0.0036482757423073053
0.025999999706982635,0.07720714807510376,0.0037416827399283648
0.026399999114801176,0.07720412313938141,0.00383508182130754
0.02680000034160912,0.07720101624727249,0.0039284722879529
0.02719999974942766,0.0771978348493576,0.004021854605525732
0.027599999157246202,0.07719457894563675,0.004115228541195393
0.028000000384054147,0.07719124853610992,0.004208594094961882
0.028399999791872688,0.07718784362077713,0.004301950801163912
0.02879999919969123,0.07718436419963837,0.0043952991254627705
0.029200000426499173,0.07718081027269363,0.004488638136535883
0.029599999834317714,0.07717718183994293,0.004581968765705824
0.029999999242136255,0.11361778527498245,0.004685352090746164
0.0304000004689442,0.15005828440189362,0.0048569501377642155
0.030800001695752144,0.15005432069301605,0.00503859668970108
0.031200001103570685,0.15005022287368774,0.005220229271799326
0.031600000511389226,0.1500459760427475,0.00540184834972024
0.03199999991920777,0.1500415802001953,0.005583453457802534
0.03239999932702631,0.1500370353460312,0.005765044130384922
0.03279999873484485,0.15003235638141632,0.005946620367467403
0.0332000017806422,0.15002751350402832,0.006128182169049978
0.03360000118846074,0.15002255141735077,0.006309729069471359
0.03400000059627928,0.15001742541790009,0.006491261068731546
0.03440000000409782,0.15001216530799866,0.00667277816683054
0.03479999941191636,0.1500067561864853,0.006854279898107052
0.0351999988197349,0.15000119805335999,0.007035766262561083
0.03559999822755344,0.14999549090862274,0.007217236794531345
0.03600000127335079,0.14998964965343475,0.007398691959679127
0.03640000068116933,0.14998365938663483,0.007580130826681852
0.03680000008898787,0.14997752010822296,0.007761553395539522
0.03719999949680641,0.14997123181819916,0.007942959666252136
0.037599998904624954,0.1499648094177246,0.008124349638819695
0.037999998312443495,0.14995823800563812,0.00830572284758091
0.03840000135824084,0.1499515175819397,0.008487079292535782
0.038800000766059384,0.14994466304779053,0.008668418973684311
0.039200000173877925,0.14993764460086823,0.008849740959703922
0.039599999581696466,0.14993049204349518,0.00903104618191719
0.03999999898951501,0.1499232053756714,0.009212332777678967
0.04039999839733355,0.14991576969623566,0.0093936026096344
0.040800001443130895,0.1499081701040268,0.00957485381513834
0.041200000850949436,0.1499004364013672,0.009756087325513363
0.04160000025876798,0.14989256858825684,0.009937303140759468
0.04199999966658652,0.14988453686237335,0.010118499398231506
0.04239999907440506,0.14987637102603912,0.010299677960574627
0.0427999984822236,0.14986807107925415,0.010480837896466255
0.04320000152802095,0.14985960721969604,0.010661978274583817
0.04360000093583949,0.1498510092496872,0.010843100026249886
0.04400000034365803,0.1498422622680664,0.011024202220141888
0.04439999975147657,0.14983336627483368,0.011205284856259823
0.04479999915929511,0.1498243361711502,0.011386347934603691
0.04519999856711365,0.1498151421546936,0.011567390523850918
0.045600001612911,0.14980582892894745,0.011748414486646652
0.04600000102072954,0.14979635179042816,0.01192941702902317
0.04640000042854808,0.14978674054145813,0.012110400013625622
0.046799999836366624,0.14977698028087616,0.012291362509131432
0.047199999244185165,0.14976707100868225,0.012472303584218025
0.047599998652003706,0.1497570127248764,0.012653224170207977
0.048000001697801054,0.1497468203306198,0.012834124267101288
0.048400001105619594,0.14973647892475128,0.013015002012252808
0.048800000513438135,0.149726003408432,0.013195859268307686
0.049199999921256676,0.1497153639793396,0.013376695103943348
0.04959999932907522,0.14970459043979645,0.01355750858783722
0.04999999873689376,0.18512816727161407,0.013747812248766422
0.050400001782691106,0.22055155038833618,0.014004969969391823
0.05080000119050965,0.22054024040699005,0.014271612279117107
0.05120000059832819,0.220528706908226,0.014538228511810303
0.05160000000614673,0.22051697969436646,0.014804817736148834
0.05199999941396527,0.220505028963089,0.015071379952132702
0.05239999882178381,0.22049285471439362,0.015337914228439331
0.05279999822960235,0.22048048675060272,0.015604420565068722
0.0532000012753997,0.22046789526939392,0.015870898962020874
0.05360000068321824,0.2204550951719284,0.016137348487973213
0.05400000009103678,0.22044207155704498,0.016403770074248314
0.05439999949885532,0.22042883932590485,0.016670163720846176
0.054799998906673864,0.220415398478508,0.01693652756512165
0.055199998314492404,0.22040174901485443,0.017202861607074738
0.05560000136028975,0.22038787603378296,0.017469165846705437
0.05600000076810829,0.22037379443645477,0.017735440284013748
0.056400000175926834,0.22035950422286987,0.018001684918999672
0.056799999583745375,0.22034499049186707,0.018267899751663208
0.057199998991563916,0.22033026814460754,0.018534082919359207
0.05759999839938246,0.2203153371810913,0.01880023628473282
0.058000001445179805,0.22030019760131836,0.019066357985138893
0.058400000852998346,0.2202848345041275,0.01933244802057743
0.05880000026081689,0.22026926279067993,0.01959850639104843
0.05919999966863543,0.22025348246097565,0.019864534959197044
0.05959999907645397,0.22023747861385345,0.020130528137087822
0.05999999848427251,0.22022126615047455,0.020396491512656212
0.06040000153006986,0.22020484507083893,0.020662421360611916
0.0608000009378884,0.2201882004737854,0.020928317680954933
0.06120000034570694,0.22017136216163635,0.021194180473685265
0.06160000339150429,0.2201543003320694,0.02146001160144806
0.06199999916134402,0.22013701498508453,0.021725807338953018
0.06240000220714137,0.22011953592300415,0.02199156954884529
0.0627999979769811,0.22010183334350586,0.022257298231124878
0.06320000102277845,0.22008392214775085,0.02252299152314663
0.06359999679261819,0.22006580233573914,0.022788651287555695
0.06399999983841553,0.2200474590063095,0.023054273799061775
0.06440000288421288,0.22002890706062317,0.02331986278295517
0.06479999865405262,0.22001014649868011,0.02358541637659073
0.06520000169984996,0.21999117732048035,0.023850934579968452
0.0655999974696897,0.21997198462486267,0.02411641553044319
0.06600000051548705,0.21995258331298828,0.024381861090660095
0.0664000035612844,0.21993297338485718,0.024647269397974014
0.06679999933112413,0.21991315484046936,0.024912642315030098
0.06720000237692147,0.21989311277866364,0.025177976116538048
0.06759999814676121,0.2198728621006012,0.025443274527788162
0.06800000119255856,0.21985240280628204,0.025708533823490143
0.06839999696239829,0.21983173489570618,0.025973757728934288
0.06880000000819564,0.2198108434677124,0.02623894065618515
0.06920000305399299,0.2197897583246231,0.026504086330533028
0.06959999882383272,0.2197684496641159,0.02676919475197792
0.07000000186963007,0.25440070033073425,0.027043361216783524
0.0703999976394698,0.2890327274799347,0.02738329954445362
0.07080000068526715,0.2890106737613678,0.02773229219019413
0.07119999645510688,0.2889883518218994,0.028081241995096207
0.07159999950090423,0.28896573185920715,0.028430147096514702
0.07200000254670158,0.2889428436756134,0.028779009357094765
0.07239999831654131,0.28891968727111816,0.029127825051546097
0.07280000136233866,0.28889626264572144,0.029476596042513847
0.0731999971321784,0.28887253999710083,0.029825320467352867
0.07360000017797574,0.28884851932525635,0.030174000188708305
0.07400000322377309,0.28882426023483276,0.030522633343935013
0.07439999899361283,0.2887997031211853,0.03087121993303299
0.07480000203941017,0.28877484798431396,0.031219759956002235
0.07519999780924991,0.2887497544288635,0.0315682515501976
0.07560000085504726,0.2887243628501892,0.031916696578264236
0.07599999662488699,0.288698673248291,0.03226509690284729
0.07639999967068434,0.28867271542549133,0.032613445073366165
0.07680000271648169,0.28864648938179016,0.03296174481511116
0.07719999848632142,0.2886199951171875,0.033309996128082275
0.07760000153211877,0.28859320282936096,0.03365819901227951
0.0779999973019585,0.28856614232063293,0.034006353467702866
0.07840000034775585,0.28853878378868103,0.03435445576906204
0.0788000033935532,0.28851115703582764,0.03470250964164734
0.07919999916339293,0.28848326206207275,0.03505051136016846
0.07960000220919028,0.2884550988674164,0.035398464649915695
0.07999999797903001,0.28842663764953613,0.035746365785598755
0.08040000102482736,0.2883979082107544,0.036094214767217636
0.0807999967946671,0.2883688807487488,0.03644201159477234
0.08119999984046444,0.2883395850658417,0.03678975626826286
0.08160000288626179,0.2883100211620331,0.03713744878768921
0.08199999865610152,0.288280189037323,0.037485089153051376
0.08240000170189887,0.28825005888938904,0.037832677364349365
0.0827999974717386,0.2882196307182312,0.03818020969629288
0.08320000051753595,0.28818896412849426,0.03852768614888191
0.0836000035633333,0.28815799951553345,0.03887511044740677
0.08399999933317304,0.28812676668167114,0.03922248259186745
0.08440000237897038,0.28809523582458496,0.03956979885697365
0.08479999814881012,0.2880634367465973,0.03991705924272537
0.08520000119460747,0.28803136944770813,0.04026426374912262
0.0855999969644472,0.2879990339279175,0.04061141237616539
0.08600000001024455,0.28796640038490295,0.040958505123853683
0.0864000030560419,0.28793349862098694,0.0413055382668972
0.08679999882588163,0.28790029883384705,0.04165251925587654
0.08720000187167898,0.28786686062812805,0.041999440640211105
0.08759999764151871,0.2878330945968628,0.04234630614519119
0.08800000068731606,0.28779909014701843,0.042693112045526505
0.0883999964571558,0.2877647876739502,0.04303985834121704
0.08879999950295314,0.28773021697998047,0.0433865487575531
0.08920000254875049,0.28769537806510925,0.043733179569244385
0.08959999831859022,0.28766024112701416,0.044079750776290894
0.09000000136438757,0.321450799703598,0.04443493112921715
0.0903999971342273,0.35524100065231323,0.04485471546649933
0.09080000018002465,0.3552049398422241,0.045283105224370956
0.091200003225822,0.35516855120658875,0.04571142792701721
0.09159999899566174,0.3551318049430847,0.046139687299728394
0.09200000204145908,0.3550947308540344,0.0465678796172142
0.09239999781129882,0.3550572991371155,0.04699600487947464
0.09280000085709617,0.35501953959465027,0.0474240668118
0.0931999966269359,0.3549814224243164,0.047852061688899994
0.09359999967273325,0.3549429774284363,0.04827998951077461
0.0940000027185306,0.3549041748046875,0.04870784655213356
0.09439999848837033,0.35486504435539246,0.049135636538267136
0.09480000153416768,0.35482555627822876,0.04956335946917534
0.09519999730400741,0.3547857403755188,0.04999101534485817
0.09560000034980476,0.3547455668449402,0.05041860044002533
0.09600000339560211,0.3547050654888153,0.05084611475467682
0.09639999916544184,0.35466423630714417,0.051273562014102936
0.09680000221123919,0.354623019695282,0.051700934767723083
0.09719999798107892,0.3545815050601959,0.05212824046611786
0.09760000102687627,0.3545396327972412,0.052555471658706665
0.097999996796716,0.35449740290641785,0.0529826320707798
0.09839999984251335,0.3544548451900482,0.053409721702337265
0.0988000028883107,0.3544119596481323,0.05383673682808876
0.09919999865815043,0.3543687164783478,0.054263681173324585
0.09960000170394778,0.35432514548301697,0.05469055101275444
0.09999999747378752,0.3542812168598175,0.055117346346378326
0.10040000051958486,0.3542369604110718,0.05554406717419624
0.10080000356538221,0.3541923463344574,0.05597071722149849
0.10119999933522195,0.35414740443229675,0.05639728903770447
0.1016000023810193,0.35410210490226746,0.05682378634810448
0.10199999815085903,0.3540564775466919,0.05725020915269852
0.10240000119665638,0.35401052236557007,0.05767655372619629
0.10279999696649611,0.3539642095565796,0.05810282379388809
0.10320000001229346,0.35391753911972046,0.05852901563048363
0.1036000030580908,0.35387054085731506,0.058955129235982895
0.10399999882793054,0.3538232147693634,0.059381164610385895
0.10440000187372789,0.3537755310535431,0.059807125478982925
0.10479999764356762,0.3537275195121765,0.06023300439119339
0.10520000068936497,0.35367918014526367,0.06065880507230759
0.1055999964592047,0.3536304831504822,0.06108452379703522
0.10599999950500205,0.35358142852783203,0.06151016801595688
0.1064000025507994,0.3535320460796356,0.061935726553201675
0.10679999832063913,0.35348233580589294,0.062361206859350204
0.10720000136643648,0.3534322679042816,0.06278660893440247
0.10759999713627622,0.353381872177124,0.06321192532777786
0.10800000018207356,0.35333114862442017,0.0636371597647667
0.10840000322787091,0.35328006744384766,0.06406231224536896
0.10879999899771065,0.3532286286354065,0.06448738276958466
0.109200002043508,0.35317689180374146,0.06491237133741379
0.10959999781334773,0.3531247675418854,0.06533727794885635
0.11000000085914508,0.38604992628097534,0.06577033549547195
0.11039999662898481,0.41897469758987427,0.06626677513122559
0.11079999967478216,0.41892147064208984,0.06677136570215225
0.1112000027205795,0.4188678562641144,0.06727586686611176
0.11159999849041924,0.4188138246536255,0.0677802786231041
0.11200000153621659,0.41875940561294556,0.06828460097312927
0.11239999730605632,0.4187045693397522,0.06878883391618729
0.11280000035185367,0.4186493456363678,0.06929297000169754
0.11320000339765102,0.41859370470046997,0.06979702413082123
0.11359999916749075,0.4185376763343811,0.07030097395181656
0.1140000022132881,0.4184812307357788,0.07080484181642532
0.11439999798312783,0.4184243679046631,0.07130861282348633
0.11480000102892518,0.4183671474456787,0.07181228697299957
0.11519999679876491,0.4183094799518585,0.07231587171554565
0.11559999984456226,0.4182514250278473,0.07281935960054398
0.11600000289035961,0.418192982673645,0.07332275062799454
0.11639999866019934,0.4181341230869293,0.07382605224847794
0.11680000170599669,0.4180748462677002,0.07432924956083298
0.11719999747583643,0.41801518201828003,0.07483235746622086
0.11760000052163377,0.4179551303386688,0.07533536106348038
0.11800000356743112,0.4178946614265442,0.07583827525377274
0.11839999933727086,0.41783377528190613,0.07634108513593674
0.1188000023830682,0.417772501707077,0.07684380561113358
0.11919999815290794,0.4177108108997345,0.07734642177820206
0.11960000119870529,0.4176487326622009,0.07784893363714218
0.11999999696854502,0.4175862669944763,0.07835134863853455
0.12040000001434237,0.4175233840942383,0.07885366678237915
0.12080000306013972,0.4174601137638092,0.0793558806180954
0.12119999882997945,0.4173964262008667,0.07985799759626389
0.1216000018757768,0.41733232140541077,0.08036000281572342
0.12199999764561653,0.4172678291797638,0.08086191862821579
0.12240000069141388,0.4172029495239258,0.0813637226819992
0.12280000373721123,0.41713765263557434,0.08186542987823486
0.12320000678300858,0.41707196831703186,0.08236702531576157
0.1235999952768907,0.41700586676597595,0.08286852389574051
0.12399999832268804,0.416939377784729,0.0833699181675911
0.12440000136848539,0.41687247157096863,0.08387120068073273
0.12480000441428274,0.4168051779270172,0.084372378885746
0.12519999290816486,0.41673749685287476,0.08487345278263092
0.1255999959539622,0.41666939854621887,0.08537442237138748
0.12599999899975955,0.41660088300704956,0.08587528765201569
0.1264000020455569,0.4165319800376892,0.08637604117393494
0.12680000509135425,0.4164626896381378,0.08687668293714523
0.12719999358523637,0.416392982006073,0.08737722039222717
0.12759999663103372,0.41632288694381714,0.08787764608860016
0.12799999967683107,0.41625237464904785,0.08837796747684479
0.12840000272262841,0.4161814749240875,0.08887817710638046
0.12880000576842576,0.41611015796661377,0.08937827497720718
0.12919999426230788,0.41603848338127136,0.08987826108932495
0.12959999730810523,0.41596636176109314,0.09037813544273376
0.13000000035390258,0.4483187794685364,0.09088586270809174
0.13040000339969993,0.4806707799434662,0.09145615249872208
0.13080000644549727,0.4805973768234253,0.09203429520130157
0.1311999949393794,0.4805235266685486,0.09261231124401093
0.13159999798517674,0.48044919967651367,0.09319021552801132
0.1320000010309741,0.48037442564964294,0.09376800060272217
0.13240000407677144,0.480299174785614,0.09434566646814346
0.1328000071225688,0.48022347688674927,0.09492321312427521
0.1331999956164509,0.4801473021507263,0.0955006405711174
0.13359999866224825,0.48007068037986755,0.09607794880867004
0.1340000017080456,0.4799935817718506,0.09665513038635254
0.13440000475384295,0.4799160063266754,0.09723219275474548
0.13479999324772507,0.4798380136489868,0.09780913591384888
0.13519999629352242,0.4797595143318176,0.09838595241308212
0.13559999933931977,0.479680597782135,0.09896264970302582
0.1360000023851171,0.4796011745929718,0.09953922033309937
0.13640000543091446,0.47952133417129517,0.10011566430330276
0.13679999392479658,0.47944098711013794,0.10069198906421661
0.13719999697059393,0.4793602228164673,0.10126817971467972
0.13760000001639128,0.4792789816856384,0.10184425115585327
