time[s],iL[A],v out[V]
0.0,0.0,0.0
0.00040000000467443897,0.0,0.0
0.0008000000093488779,0.0,0.0
0.0012000000424450263,0.0,0.0
0.0016000000186977559,0.0,0.0
0.0019999999949504854,0.0,0.0
0.0024000000848900527,0.0,0.0
0.0027999999474559445,0.0,0.0
0.0032000000373955118,0.0,0.0
0.0035999998999614036,0.0,0.0
0.003999999989900971,0.0,0.0
0.004399999852466863,0.0,0.0
0.004800000169780105,0.0,0.0
0.005200000032345997,0.0,0.0
0.005599999894911889,0.0,0.0
0.006000000212225132,0.0,0.0
0.0064000000747910235,0.0,0.0
0.006799999937356915,0.0,0.0
0.007199999799922807,0.0,0.0
0.00760000011723605,0.0,0.0
0.007999999979801942,0.0,0.0
0.008400000297115184,0.0,0.0
0.008799999704933725,0.0,0.0
0.009200000022246968,0.0,0.0
0.00960000033956021,0.0,0.0
0.009999999747378752,0.011607825756072998,1.0207675131823635e-06
0.010400000064691994,0.0232156403362751,2.8139491405454464e-05
0.010800000382005237,0.023215606808662415,5.6277596740983427e-05
0.011199999789823778,0.023215550929307938,8.441428508376703e-05
0.01160000010713702,0.02321547083556652,0.0001125495255109854
0.012000000424450263,0.023215370252728462,0.0001406832889188081
0.012399999832268804,0.023215245455503464,0.0001688155607553199
0.012800000149582047,0.023215100169181824,0.00019694629008881748
0.013199999557400588,0.023214930668473244,0.00022507547691930085
0.01359999987471383,0.023214740678668022,0.00025320309214293957
0.014000000192027073,0.02321452647447586,0.0002813290630001575
0.014399999599845614,0.023214289918541908,0.00030945343314670026
0.014799999917158857,0.023214031010866165,0.00033757611527107656
0.0152000002344721,0.02321374975144863,0.0003656971384771168
0.015600000551785342,0.023213446140289307,0.0003938164154533297
0.015999999959603883,0.02321312017738819,0.00042193394619971514
0.016399999367422424,0.023212770000100136,0.0004500497307162732
0.01680000059423037,0.02321239933371544,0.00047816368169151247
0.01720000000204891,0.02321200631558895,0.000506275799125433
0.01759999940986745,0.023211589083075523,0.0005343860830180347
0.018000000636675395,0.023211151361465454,0.0005624945042654872
0.018400000044493936,0.023210689425468445,0.0005906010046601295
0.018799999452312477,0.023210205137729645,0.0006187055842019618
0.01920000067912042,0.023209700360894203,0.0006468081846833229
0.019600000086938962,0.02320917136967182,0.000674908806104213
0.019999999494757503,0.02320862002670765,0.0007030073902569711
0.020400000721565448,0.023208046332001686,0.0007311039371415973
0.02080000012938399,0.023207450285553932,0.0007591983885504305
0.02119999953720253,0.023206831887364388,0.0007872908026911318
0.021600000764010474,0.023206191137433052,0.0008153810631483793
0.022000000171829015,0.023205526173114777,0.000843469169922173
0.022399999579647556,0.02320484071969986,0.000871555064804852
0.0228000008064555,0.023204132914543152,0.0008996388060040772
0.02320000021427404,0.023203400894999504,0.0009277202771045268
0.023599999622092582,0.023202648386359215,0.0009557994781062007
0.024000000848900527,0.023201871663331985,0.000983876409009099
0.024400000256719068,0.023201074451208115,0.0010119510116055608
0.02479999966453761,0.023200253024697304,0.001040023285895586
0.025200000891345553,0.023199409246444702,0.0010680932318791747
0.025600000299164094,0.02319854497909546,0.001096160733141005
0.025999999706982635,0.023197656497359276,0.001124225789681077
0.026399999114801176,0.023196745663881302,0.0011522884014993906
0.02680000034160912,0.023195812478661537,0.0011803485685959458
0.02719999974942766,0.02319485694169998,0.0012084062909707427
0.027599999157246202,0.023193879052996635,0.0012364613357931376
0.028000000384054147,0.0231928788125515,0.001264513935893774
0.028399999791872688,0.02319185622036457,0.0012925638584420085
0.02879999919969123,0.023190811276435852,0.0013206112198531628
0.029200000426499173,0.023189742118120193,0.0013486560201272368
0.029599999834317714,0.023188652470707893,0.001376698026433587
0.029999999242136255,0.03480806201696396,0.0014057604130357504
0.0304000004689442,0.04642743617296219,0.001460944302380085
0.030800001695752144,0.04642624408006668,0.001517147058621049
0.031200001103570685,0.04642501100897789,0.001573345623910427
0.031600000511389226,0.04642372950911522,0.0016295399982482195
0.03199999991920777,0.04642240330576897,0.0016857299488037825
0.03239999932702631,0.04642103239893913,0.0017419155919924378
0.03279999873484485,0.04641961678862572,0.0017980968113988638
0.0332000017806422,0.04641815274953842,0.0018542736070230603
0.03360000118846074,0.04641664773225784,0.0019104458624497056
0.03400000059627928,0.04641509801149368,0.0019666135776787996
0.03440000000409782,0.04641349986195564,0.0020227765198796988
0.03479999941191636,0.04641186073422432,0.0020789350382983685
0.0351999988197349,0.046410176903009415,0.0021350886672735214
0.03559999822755344,0.04640844464302063,0.0021912374068051577
0.03600000127335079,0.046406667679548264,0.002247381489723921
0.03640000068116933,0.046404849737882614,0.0023035204503685236
0.03680000008898787,0.046402983367443085,0.0023596547544002533
0.03719999949680641,0.046401072293519974,0.002415783703327179
0.037599998904624954,0.04639912024140358,0.002471907762810588
0.037999998312443495,0.046397119760513306,0.0025280267000198364
0.03840000135824084,0.04639507457613945,0.0025841405149549246
0.038800000766059384,0.04639298468828201,0.0026402489747852087
0.039200000173877925,0.046390850096940994,0.0026963523123413324
0.039599999581696466,0.046388670802116394,0.002752450294792652
0.03999999898951501,0.04638644680380821,0.002808542689308524
0.04039999839733355,0.04638417810201645,0.002864629728719592
0.040800001443130895,0.046381864696741104,0.002920711413025856
0.041200000850949436,0.04637950286269188,0.0029767875093966722
0.04160000025876798,0.04637710005044937,0.003032857785001397
0.04199999966658652,0.04637465253472328,0.003088922705501318
0.04239999907440506,0.04637215659022331,0.0031449818052351475
0.0427999984822236,0.04636961966753006,0.0032010350842028856
0.04320000152802095,0.046367038041353226,0.0032570825424045324
0.04360000093583949,0.04636440798640251,0.003313124179840088
0.04400000034365803,0.046361736953258514,0.0033691597636789083
0.04439999975147657,0.04635901749134064,0.0034251895267516375
0.04479999915929511,0.04635625705122948,0.003481213003396988
0.04519999856711365,0.04635344818234444,0.003537230659276247
0.045600001612911,0.046350594609975815,0.0035932420287281275
0.04600000102072954,0.04634770005941391,0.003649247344583273
0.04640000042854808,0.046344757080078125,0.003705246141180396
0.046799999836366624,0.04634176939725876,0.0037612388841807842
0.047199999244185165,0.04633874073624611,0.00381722510792315
0.047599998652003706,0.04633566364645958,0.0038732050452381372
0.048000001697801054,0.04633254185318947,0.003929178696125746
0.048400001105619594,0.046329375356435776,0.003985145129263401
0.048800000513438135,0.0463261641561985,0.004041105508804321
0.049199999921256676,0.046322911977767944,0.004097059369087219
0.04959999932907522,0.04631961137056351,0.004153006244450808
0.04999999873689376,0.05793285369873047,0.004209968727082014
0.050400001782691106,0.06954603642225266,0.0042930408380925655
0.05080000119050965,0.06954257190227509,0.004377126693725586
0.05120000059832819,0.06953903287649155,0.004461204167455435
0.05160000000614673,0.06953543424606323,0.004545273724943399
0.05199999941396527,0.06953176110982895,0.004629334434866905
0.05239999882178381,0.06952802836894989,0.004713386297225952
0.05279999822960235,0.06952422112226486,0.0047974297776818275
0.0532000012753997,0.06952035427093506,0.004881464876234531
0.05360000068321824,0.06951641291379929,0.004965490661561489
0.05400000009103678,0.06951240450143814,0.005049508064985275
0.05439999949885532,0.06950833648443222,0.005133516155183315
0.054799998906673864,0.06950419396162033,0.005217514932155609
0.055199998314492404,0.06949998438358307,0.0053015053272247314
0.05560000136028975,0.06949570775032043,0.00538548594340682
0.05600000076810829,0.06949137151241302,0.005469457246363163
0.056400000175926834,0.06948696076869965,0.0055534192360937595
0.056799999583745375,0.0694824829697609,0.00563737191259861
0.057199998991563916,0.06947793811559677,0.005721315275877714
0.05759999839938246,0.06947332620620728,0.005805248394608498
0.058000001445179805,0.069468654692173,0.005889172200113535
0.058400000852998346,0.06946390867233276,0.005973086226731539
0.05880000026081689,0.06945909559726715,0.006056990474462509
0.05919999966863543,0.06945421546697617,0.006140884477645159
0.05959999907645397,0.06944926828145981,0.006224768701940775
0.05999999848427251,0.06944425404071808,0.00630864268168807
0.06040000153006986,0.06943917274475098,0.006392506416887045
0.0608000009378884,0.0694340243935585,0.006476360373198986
0.06120000034570694,0.06942880898714066,0.006560203619301319
0.06160000339150429,0.06942352652549744,0.006644036155194044
0.06199999916134402,0.06941818445920944,0.006727858446538448
0.06240000220714137,0.06941276788711548,0.006811670493334532
0.0627999979769811,0.06940728425979614,0.00689547136425972
0.06320000102277845,0.06940173357725143,0.0069792615249753
0.06359999679261819,0.06939611583948135,0.007063041441142559
0.06399999983841553,0.0693904310464859,0.007146809715777636
0.06440000288421288,0.06938467919826508,0.007230567280203104
0.06479999865405262,0.06937886029481888,0.007314314134418964
0.06520000169984996,0.06937297433614731,0.007398049347102642
0.0655999974696897,0.06936702877283096,0.007481773383915424
0.06600000051548705,0.06936100870370865,0.007565486244857311
0.0664000035612844,0.06935492157936096,0.0076491874642670155
0.06679999933112413,0.0693487673997879,0.007732877507805824
0.06720000237692147,0.06934254616498947,0.00781655590981245
0.06759999814676121,0.06933626532554626,0.007900223135948181
0.06800000119255856,0.06932990998029709,0.007983878254890442
0.06839999696239829,0.06932348757982254,0.008067521266639233
0.06880000000819564,0.06931699812412262,0.008151152171194553
0.06920000305399299,0.06931044906377792,0.008234771899878979
0.06959999882383272,0.06930382549762726,0.008318379521369934
0.07000000186963007,0.08097147941589355,0.008403006941080093
0.0703999976394698,0.09263905882835388,0.008513858541846275
0.07080000068526715,0.09263220429420471,0.008625728078186512
0.07119999645510688,0.09262526035308838,0.008737584576010704
0.07159999950090423,0.09261821955442429,0.008849427103996277
0.07200000254670158,0.09261109679937363,0.00896125566214323
0.07239999831654131,0.0926038846373558,0.009073070250451565
0.07280000136233866,0.09259658306837082,0.009184869937598705
0.0731999971321784,0.09258919209241867,0.009296655654907227
0.07360000017797574,0.09258170425891876,0.009408427402377129
0.07400000322377309,0.09257413446903229,0.009520184248685837
0.07439999899361283,0.09256647527217865,0.009631926193833351
0.07480000203941017,0.09255872666835785,0.009743653237819672
0.07519999780924991,0.09255088865756989,0.009855366311967373
0.07560000085504726,0.09254295378923416,0.009967063553631306
0.07599999662488699,0.09253493696451187,0.010078745894134045
0.07639999967068434,0.09252683073282242,0.01019041333347559
0.07680000271648169,0.0925186350941658,0.010302064940333366
0.07719999848632142,0.09251035004854202,0.01041370164602995
0.07760000153211877,0.09250196814537048,0.010525322519242764
0.0779999973019585,0.09249350428581238,0.010636928491294384
0.07840000034775585,0.09248495101928711,0.010748517699539661
0.0788000033935532,0.09247630834579468,0.010860092006623745
0.07919999916339293,0.09246757626533508,0.010971649549901485
0.07960000220919028,0.09245875477790833,0.011083192192018032
0.07999999797903001,0.0924498438835144,0.011194717139005661
0.08040000102482736,0.09244084358215332,0.011306226253509521
0.0807999967946671,0.09243175387382507,0.011417719535529613
0.08119999984046444,0.09242257475852966,0.011529196053743362
0.08160000288626179,0.09241330623626709,0.011640656739473343
0.08199999865610152,0.09240394830703735,0.011752099730074406
0.08240000170189887,0.09239450097084045,0.011863525956869125
0.0827999974717386,0.09238497167825699,0.011974936351180077
0.08320000051753595,0.09237534552812576,0.01208632905036211
0.0836000035633333,0.09236562997102737,0.012197704054415226
0.08399999933317304,0.09235582500696182,0.012309062294661999
0.08440000237897038,0.0923459380865097,0.012420403771102428
0.08479999814881012,0.09233595430850983,0.012531726621091366
0.08520000119460747,0.09232588857412338,0.01264303270727396
0.0855999969644472,0.09231572598218918,0.012754321098327637
0.08600000001024455,0.09230548143386841,0.012865591794252396
0.0864000030560419,0.09229514002799988,0.012976844795048237
0.08679999882588163,0.09228471666574478,0.013088079169392586
0.08720000187167898,0.09227420389652252,0.013199295848608017
0.08759999764151871,0.0922635942697525,0.01331049483269453
0.08800000068731606,0.09225290268659592,0.013421674259006977
0.0883999964571558,0.09224212169647217,0.013532835990190506
0.08879999950295314,0.09223125129938126,0.013643979094922543
0.08920000254875049,0.09222029149532318,0.013755104504525661
0.08959999831859022,0.09220924228429794,0.013866210356354713
0.09000000136438757,0.10391154885292053,0.01397833600640297
0.0903999971342273,0.11561375856399536,0.014116760343313217
0.09080000018002465,0.11560241132974625,0.014256203547120094
0.091200003225822,0.11559094488620758,0.01439562626183033
0.09159999899566174,0.11557937413454056,0.014535028487443924
0.09200000204145908,0.11556769162416458,0.014674409292638302
0.09239999781129882,0.11555589735507965,0.014813769608736038
0.09280000085709617,0.11554399132728577,0.014953108504414558
0.0931999966269359,0.11553197354078293,0.015092425979673862
0.09359999967273325,0.11551984399557114,0.01523172203451395
0.0940000027185306,0.11550760269165039,0.015370996668934822
0.09439999848837033,0.11549524962902069,0.015510249882936478
0.09480000153416768,0.11548278480768204,0.015649480745196342
0.09519999730400741,0.11547020822763443,0.015788691118359566
0.09560000034980476,0.11545751988887787,0.01592787727713585
0.09600000339560211,0.11544472724199295,0.01606704294681549
0.09639999916544184,0.11543181538581848,0.01620618626475334
0.09680000221123919,0.11541879177093506,0.016345307230949402
0.09719999798107892,0.11540566384792328,0.016484403982758522
0.09760000102687627,0.11539241671562195,0.01662347838282585
0.097999996796716,0.11537906527519226,0.01676253229379654
0.09839999984251335,0.11536560207605362,0.016901560127735138
0.0988000028883107,0.11535201966762543,0.017040567472577095
0.09919999865815043,0.11533833295106888,0.017179548740386963
0.09960000170394778,0.11532453447580338,0.01731850951910019
0.09999999747378752,0.11531062424182892,0.017457444220781326
0.10040000051958486,0.11529660224914551,0.017596356570720673
0.10080000356538221,0.11528246849775314,0.01773524470627308
0.10119999933522195,0.11526822298765182,0.017874108627438545
0.1016000023810193,0.11525387316942215,0.01801295019686222
0.10199999815085903,0.11523940414190292,0.018151765689253807
0.10240000119665638,0.11522483080625534,0.018290556967258453
0.10279999696649611,0.1152101382613182,0.01842932589352131
0.10320000001229346,0.11519534140825272,0.018568068742752075
0.1036000030580908,0.11518043279647827,0.018706785514950752
0.10399999882793054,0.11516541242599487,0.01884547993540764
0.10440000187372789,0.11515028029680252,0.018984146416187286
0.10479999764356762,0.11513503640890121,0.019122790545225143
0.10520000068936497,0.11511968076229095,0.01926140859723091
0.1055999964592047,0.11510422080755234,0.01940000057220459
0.10599999950500205,0.11508864164352417,0.01953856833279133
0.1064000025507994,0.11507295817136765,0.01967710815370083
0.10679999832063913,0.11505716294050217,0.01981562376022339
0.10720000136643648,0.11504124850034714,0.01995411328971386
0.10759999713627622,0.11502522975206375,0.02009257674217224
0.10800000018207356,0.11500910669565201,0.020231014117598534
0.10840000322787091,0.11499286442995071,0.020369425415992737
0.10879999899771065,0.11497651040554047,0.0205078087747097
0.109200002043508,0.11496005207300186,0.020646167919039726
0.10959999781334773,0.1149434819817543,0.020784499123692513
0.11000000085914508,0.12672285735607147,0.020923856645822525
0.11039999662898481,0.1385021060705185,0.021089674904942513
0.11079999967478216,0.1384851634502411,0.021256519481539726
0.1112000027205795,0.13846810162067413,0.0214233361184597
0.11159999849041924,0.13845089077949524,0.02159012295305729
0.11200000153621659,0.1384335458278656,0.02175687998533249
0.11239999730605632,0.1384160816669464,0.02192360907793045
0.11280000035185367,0.13839846849441528,0.022090308368206024
0.11320000339765102,0.1383807361125946,0.02225697971880436
0.11359999916749075,0.138362854719162,0.022423619404435158
0.1140000022132881,0.13834485411643982,0.02259022928774357
0.11439999798312783,0.1383267194032669,0.02275680936872959
0.11480000102892518,0.13830845057964325,0.022923359647393227
0.11519999679876491,0.13829003274440765,0.023089880123734474
0.11559999984456226,0.1382714956998825,0.023256368935108185
0.11600000289035961,0.13825282454490662,0.023422827944159508
0.11639999866019934,0.13823401927947998,0.023589257150888443
0.11680000170599669,0.1382150799036026,0.02375565469264984
0.11719999747583643,0.13819602131843567,0.023922020569443703
0.11760000052163377,0.1381768137216568,0.024088354781270027
0.11800000356743112,0.13815747201442719,0.024254659190773964
0.11839999933727086,0.13813801109790802,0.024420930072665215
0.1188000023830682,0.13811840116977692,0.024587169289588928
0.11919999815290794,0.13809865713119507,0.024753378704190254
0.11960000119870529,0.13807879388332367,0.024919554591178894
0.11999999696854502,0.13805879652500153,0.025085698813199997
0.12040000001434237,0.13803866505622864,0.025251809507608414
0.12080000306013972,0.138018399477005,0.025417888537049294
0.12119999882997945,0.13799799978733063,0.025583935901522636
0.1216000018757768,0.1379774659872055,0.025749949738383293
0.12199999764561653,0.13795679807662964,0.025915930047631264
0.12240000069141388,0.13793599605560303,0.026081876829266548
0.12280000373721123,0.13791505992412567,0.026247790083289146
0.12320000678300858,0.13789400458335876,0.026413671672344208
0.1235999952768907,0.13787280023097992,0.026579517871141434
0.12399999832268804,0.13785147666931152,0.026745330542325974
0.12440000136848539,0.1378300040960312,0.026911109685897827
0.12480000441428274,0.1378084123134613,0.027076853439211845
0.12519999290816486,0.13778668642044067,0.027242565527558327
0.1255999959539622,0.1377648264169693,0.027408240363001823
0.12599999899975955,0.13774283230304718,0.027573881670832634
0.1264000020455569,0.13772070407867432,0.02773948945105076
0.12680000509135425,0.1376984417438507,0.027905059978365898
0.12719999358523637,0.13767606019973755,0.028070596978068352
0.12759999663103372,0.13765352964401245,0.02823609858751297
0.12799999967683107,0.1376308798789978,0.028401564806699753
0.12840000272262841,0.1376080960035324,0.0285669956356287
0.12880000576842576,0.13758517801761627,0.028732389211654663
0.12919999426230788,0.1375621259212494,0.02889774926006794
0.12959999730810523,0.13753893971443176,0.029063072055578232
0.13000000035390258,0.14933188259601593,0.029229415580630302
0.13040000339969993,0.16112469136714935,0.029422253370285034
0.13080000644549727,0.1611010730266571,0.029616110026836395
0.1311999949393794,0.16107730567455292,0.02980992943048477
0.13159999798517674,0.1610533744096756,0.030003709718585014
0.1320000010309741,0.16102929413318634,0.030197452753782272
0.13240000407677144,0.16100506484508514,0.030391156673431396
0.1328000071225688,0.16098067164421082,0.030584819614887238
0.1331999956164509,0.16095612943172455,0.030778445303440094
0.13359999866224825,0.16093142330646515,0.030972031876444817
0.1340000017080456,0.1609065681695938,0.031165579333901405
0.13440000475384295,0.16088156402111053,0.03135908767580986
0.13479999324772507,0.16085639595985413,0.03155255317687988
0.13519999629352242,0.16083107888698578,0.03174598142504692
