time[s],iL[A],v out[V]
0.0,0.0,0.0
0.00040000000467443897,0.0,0.0
0.0008000000093488779,0.0,0.0
0.0012000000424450263,0.0,0.0
0.0016000000186977559,0.0,0.0
0.0019999999949504854,0.0,0.0
0.0024000000848900527,0.0,0.0
0.0027999999474559445,0.0,0.0
0.0032000000373955118,0.0,0.0
0.0035999998999614036,0.0,0.0
0.003999999989900971,0.0,0.0
0.004399999852466863,0.0,0.0
0.004800000169780105,0.0,0.0
0.005200000032345997,0.0,0.0
0.005599999894911889,0.0,0.0
0.006000000212225132,0.0,0.0
0.0064000000747910235,0.0,0.0
0.006799999937356915,0.0,0.0
0.007199999799922807,0.0,0.0
0.00760000011723605,0.0,0.0
0.007999999979801942,0.0,0.0
0.008400000297115184,0.0,0.0
0.008799999704933725,0.05590641871094704,2.3677976059843786e-05
0.009200000022246968,0.1359063684940338,0.0001399245811626315
0.00960000033956021,0.21590617299079895,0.00035313275293447077
0.009999999747378752,0.2959057688713074,0.0006632976001128554
0.010400000064691994,0.3759050965309143,0.0010704140877351165
0.010800000382005237,0.4559040367603302,0.001574477180838585
0.011199999789823778,0.5359025597572327,0.0021754815243184566
0.01160000010713702,0.591806948184967,0.002869024407118559
0.012000000424450263,0.5918043851852417,0.003586208214983344
0.012399999832268804,0.5918012261390686,0.00430335383862257
0.012800000149582047,0.5917974710464478,0.0050204601138830185
0.013199999557400588,0.5917931795120239,0.005737527273595333
0.01359999987471383,0.5917882919311523,0.006454553920775652
0.014000000192027073,0.5917828679084778,0.0071715391241014
0.014399999599845614,0.5917768478393555,0.007888482883572578
0.014799999917158857,0.5917702317237854,0.008605384267866611
0.0152000002344721,0.5917630791664124,0.009322242811322212
0.015600000551785342,0.5917553305625916,0.010039057582616806
0.015999999959603883,0.591746985912323,0.010755827650427818
0.016399999367422424,0.5917381048202515,0.011472552083432674
0.01680000059423037,0.5917286276817322,0.012189231812953949
0.01720000000204891,0.5917186141014099,0.012905864045023918
0.01759999940986745,0.5917080044746399,0.013622448779642582
0.018000000636675395,0.5916967988014221,0.01433898601680994
0.018400000044493936,0.5916850566864014,0.015055474825203419
0.018799999452312477,0.5916727185249329,0.015771914273500443
0.01920000067912042,0.5916598439216614,0.016488302499055862
0.019600000086938962,0.5916463136672974,0.017204642295837402
0.019999999494757503,0.5916323065757751,0.017920929938554764
0.020400000721565448,0.5916177034378052,0.018637165427207947
0.02080000012938399,0.5916025042533875,0.019353346899151802
0.02119999953720253,0.591586709022522,0.02006947621703148
0.021600000764010474,0.5915703773498535,0.02078554965555668
0.022000000171829015,0.5915534496307373,0.0215015709400177
0.022399999579647556,0.5915359854698181,0.022217534482479095
0.0228000008064555,0.5915179252624512,0.022933442145586014
0.02320000021427404,0.5914992690086365,0.023649292066693306
0.023599999622092582,0.5914800763130188,0.02436508610844612
0.024000000848900527,0.5914602875709534,0.02508082054555416
0.024400000256719068,0.591439962387085,0.025796497240662575
0.02479999966453761,0.5914190411567688,0.026512112468481064
0.025200000891345553,0.5913975238800049,0.027227668091654778
0.025600000299164094,0.591375470161438,0.027943164110183716
0.025999999706982635,0.5913528203964233,0.02865859679877758
0.026399999114801176,0.5913295745849609,0.02937396615743637
0.02680000034160912,0.5913057923316956,0.030089274048805237
0.02719999974942766,0.5912814736366272,0.03080451861023903
0.027599999157246202,0.5912565588951111,0.03151969611644745
0.028000000384054147,0.5912310481071472,0.032234810292720795
0.028399999791872688,0.5912049412727356,0.03294985741376877
0.02879999919969123,0.6317306756973267,0.033677298575639725
0.029200000426499173,0.7117034196853638,0.03448984771966934
0.029599999834317714,0.7916755080223083,0.035399291664361954
0.029999999242136255,0.8716467618942261,0.03640562668442726
0.0304000004689442,0.9516171813011169,0.03750884160399437
0.030800001695752144,1.031586766242981,0.03870893642306328
0.031200001103570685,1.1115552186965942,0.04000590369105339
0.031600000511389226,1.1520750522613525,0.041387949138879776
0.03199999991920777,1.1520414352416992,0.042782340198755264
0.03239999932702631,1.1520066261291504,0.044176626950502396
0.03279999873484485,1.1519707441329956,0.04557080194354057
0.0332000017806422,1.1519336700439453,0.0469648614525795
0.03360000118846074,1.1518956422805786,0.04835881292819977
0.03400000059627928,1.1518563032150269,0.049752648919820786
0.03440000000409782,1.1518160104751587,0.05114636570215225
0.03479999941191636,1.151774525642395,0.05253996700048447
0.0351999988197349,1.1517319679260254,0.05393345281481743
0.03559999822755344,1.1516882181167603,0.05532681569457054
0.03600000127335079,1.1516433954238892,0.0567200593650341
0.03640000068116933,1.151597499847412,0.05811317637562752
0.03680000008898787,1.1515504121780396,0.05950617417693138
0.03719999949680641,1.151502251625061,0.0608990453183651
0.037599998904624954,1.1514530181884766,0.062291789799928665
0.037999998312443495,1.1514025926589966,0.06368440389633179
0.03840000135824084,1.1513510942459106,0.06507689505815506
0.038800000766059384,1.1512985229492188,0.06646924465894699
0.039200000173877925,1.1512447595596313,0.06786147505044937
0.039599999581696466,1.151189923286438,0.06925356388092041
0.03999999898951501,1.1511338949203491,0.0706455186009407
0.04039999839733355,1.1510767936706543,0.07203733921051025
0.040800001443130895,1.1510186195373535,0.07342901825904846
0.041200000850949436,1.1509593725204468,0.07482056319713593
0.04160000025876798,1.1508989334106445,0.07621197402477264
0.04199999966658652,1.1508374214172363,0.07760323584079742
0.04239999907440506,1.1507747173309326,0.07899435609579086
0.0427999984822236,1.1507110595703125,0.08038532733917236
0.04320000152802095,1.1506460905075073,0.08177616447210312
0.04360000093583949,1.1505801677703857,0.08316684514284134
0.04400000034365803,1.1505130529403687,0.08455738425254822
0.04439999975147657,1.1504448652267456,0.08594776690006256
0.04479999915929511,1.1503756046295166,0.08733800053596497
0.04519999856711365,1.150305151939392,0.08872808516025543
0.045600001612911,1.1502336263656616,0.09011802077293396
0.04600000102072954,1.1501609086990356,0.09150779247283936
0.04640000042854808,1.1500872373580933,0.09289741516113281
0.046799999836366624,1.1500122547149658,0.09428687393665314
0.047199999244185165,1.149936318397522,0.09567617624998093
0.047599998652003706,1.1498591899871826,0.09706532210111618
0.048000001697801054,1.1497809886932373,0.0984543040394783
0.048400001105619594,1.149701714515686,0.09984312206506729
0.048800000513438135,1.1800732612609863,0.10123880207538605
0.049199999921256676,1.2599916458129883,0.10271268337965012
0.04959999932907522,1.3399088382720947,0.10428336262702942
0.04999999873689376,1.4198247194290161,0.10595083236694336
0.050400001782691106,1.4997392892837524,0.10771508514881134
0.05080000119050965,1.5796524286270142,0.10957612097263336
0.05120000059832819,1.6595640182495117,0.11153391748666763
0.05160000000614673,1.6899259090423584,0.11356988549232483
0.05199999941396527,1.6898342370986938,0.11561267077922821
0.05239999882178381,1.6897408962249756,0.11765524744987488
0.05279999822960235,1.6896460056304932,0.11969760060310364
0.0532000012753997,1.689549446105957,0.12173974514007568
0.05360000068321824,1.6894512176513672,0.12378167361021042
0.05400000009103678,1.6893513202667236,0.12582337856292725
0.05439999949885532,1.689249873161316,0.12786486744880676
0.054799998906673864,1.6891467571258545,0.12990613281726837
0.055199998314492404,1.6890419721603394,0.13194717466831207
0.05560000136028975,1.68893563747406,0.13398799300193787
0.05600000076810829,1.688827633857727,0.13602857291698456
0.056400000175926834,1.6887179613113403,0.13806892931461334
0.056799999583745375,1.6886067390441895,0.14010904729366302
0.057199998991563916,1.6884938478469849,0.1421489268541336
0.05759999839938246,1.6883792877197266,0.14418858289718628
0.058000001445179805,1.688263177871704,0.14622798562049866
0.058400000852998346,1.6881452798843384,0.14826714992523193
0.05880000026081689,1.688025951385498,0.1503060758113861
0.05919999966863543,1.6879048347473145,0.15234476327896118
0.05959999907645397,1.6877821683883667,0.15438319742679596
0.05999999848427251,1.6876578330993652,0.15642137825489044
0.06040000153006986,1.68753182888031,0.15845932066440582
0.0608000009378884,1.6874042749404907,0.16049699485301971
0.06120000034570694,1.6872750520706177,0.1625344306230545
0.06160000339150429,1.6871442794799805,0.1645715981721878
0.06199999916134402,1.68701171875,0.1666085124015808
0.06240000220714137,1.686877727508545,0.16864517331123352
0.0627999979769811,1.6867419481277466,0.17068156599998474
0.06320000102277845,1.686604619026184,0.17271769046783447
0.06359999679261819,1.6864656209945679,0.17475354671478271
0.06399999983841553,1.686324954032898,0.17678914964199066
0.06440000288421288,1.6861827373504639,0.17882446944713593
0.06479999865405262,1.686038851737976,0.1808595210313797
0.06520000169984996,1.6858932971954346,0.1828942894935608
0.0655999974696897,1.685746192932129,0.1849287897348404
0.06600000051548705,1.6855974197387695,0.1869630217552185
0.0664000035612844,1.685447096824646,0.18899697065353394
0.06679999933112413,1.6852951049804688,0.1910306215286255
0.06720000237692147,1.6851414442062378,0.19306400418281555
0.06759999814676121,1.6849861145019531,0.19509708881378174
0.06800000119255856,1.6848292350769043,0.19712990522384644
0.06839999696239829,1.6846708059310913,0.19916240870952606
0.06880000000819564,1.7214168310165405,0.20120495557785034
0.06920000305399299,1.8012551069259644,0.20333009958267212
0.06959999882383272,1.8810914754867554,0.2055519074201584
0.07000000186963007,1.9609261751174927,0.20787039399147034
0.0703999976394698,2.0407588481903076,0.2102855145931244
0.07080000068526715,2.1205897331237793,0.21279728412628174
0.07119999645510688,2.200418472290039,0.21540570259094238
0.07159999950090423,2.2371511459350586,0.21809667348861694
0.07200000254670158,2.23697566986084,0.22079762816429138
0.07239999831654131,2.236798048019409,0.22349824011325836
0.07280000136233866,2.2366180419921875,0.2261984944343567
0.0731999971321784,2.236436128616333,0.22889840602874756
0.07360000017797574,2.2362518310546875,0.23159795999526978
0.07400000322377309,2.23606538772583,0.23429715633392334
0.07439999899361283,2.23587703704834,0.23699600994586945
0.07480000203941017,2.2356863021850586,0.2396944910287857
0.07519999780924991,2.2354934215545654,0.2423926144838333
0.07560000085504726,2.2352983951568604,0.24509036540985107
0.07599999662488699,2.2351012229919434,0.247787743806839
0.07639999967068434,2.2349019050598145,0.25048476457595825
0.07680000271648169,2.2347004413604736,0.2531813979148865
0.07719999848632142,2.234496831893921,0.25587767362594604
0.07760000153211877,2.2342910766601562,0.2585735619068146
0.0779999973019585,2.2340831756591797,0.26126906275749207
0.07840000034775585,2.233873128890991,0.2639641761779785
0.0788000033935532,2.233660936355591,0.2666589021682739
0.07919999916339293,2.2334463596343994,0.2693532407283783
0.07960000220919028,2.233229875564575,0.2720471918582916
0.07999999797903001,2.233011245727539,0.2747407555580139
0.08040000102482736,2.232790470123291,0.2774339020252228
0.0807999967946671,2.232567310333252,0.280126690864563
0.08119999984046444,2.23234224319458,0.2828190326690674
0.08160000288626179,2.232114791870117,0.28551098704338074
0.08199999865610152,2.2318854331970215,0.28820252418518066
0.08240000170189887,2.2316536903381348,0.29089367389678955
0.0827999974717386,2.2314200401306152,0.293584406375885
0.08320000051753595,2.2311840057373047,0.29627469182014465
0.0836000035633333,2.2309458255767822,0.29896458983421326
0.08399999933317304,2.230705738067627,0.30165407061576843
0.08440000237897038,2.2304632663726807,0.3043431043624878
0.08479999814881012,2.2302186489105225,0.3070317506790161
0.08520000119460747,2.2299718856811523,0.30971992015838623
0.0855999969644472,2.2297232151031494,0.3124077022075653
0.08600000001024455,2.2294721603393555,0.31509503722190857
0.0864000030560419,2.2292189598083496,0.317781925201416
0.08679999882588163,2.228963613510132,0.32046836614608765
0.08720000187167898,2.228706121444702,0.32315438985824585
0.08759999764151871,2.2284467220306396,0.32583996653556824
0.08800000068731606,2.228184938430786,0.3285250961780548
0.0883999964571558,2.2279210090637207,0.33120977878570557
0.08879999950295314,2.2762787342071533,0.3339118957519531
0.08920000254875049,2.3560104370117188,0.3367030918598175
0.08959999831859022,2.4357399940490723,0.33959078788757324
0.09000000136438757,2.5154671669006348,0.34257498383522034
0.0903999971342273,2.595191717147827,0.3456556797027588
0.09080000018002465,2.6749141216278076,0.3488328456878662
0.091200003225822,2.754633665084839,0.3521064817905426
0.09159999899566174,2.8029744625091553,0.35546913743019104
0.09200000204145908,2.8026885986328125,0.3588491976261139
0.09239999781129882,2.8024001121520996,0.36222872138023376
0.09280000085709617,2.8021090030670166,0.36560776829719543
0.0931999966269359,2.8018152713775635,0.3689862787723541
0.09359999967273325,2.801518678665161,0.37236425280570984
0.0940000027185306,2.8012194633483887,0.37574172019958496
0.09439999848837033,2.800917625427246,0.3791186511516571
0.09480000153416768,2.8006129264831543,0.38249507546424866
0.09519999730400741,2.8003056049346924,0.38587093353271484
0.09560000034980476,2.7999954223632812,0.38924625515937805
0.09600000339560211,2.7996826171875,0.3926210403442383
0.09639999916544184,2.7993671894073486,0.39599528908729553
0.09680000221123919,2.799049139022827,0.3993690013885498
0.09719999798107892,2.7987282276153564,0.4027421474456787
0.09760000102687627,2.7984046936035156,0.40611472725868225
0.097999996796716,2.7980785369873047,0.4094867706298828
0.09839999984251335,2.7977495193481445,0.412858247756958
0.0988000028883107,2.7974178791046143,0.41622915863990784
0.09919999865815043,2.797083616256714,0.4195995032787323
0.09960000170394778,2.7967464923858643,0.4229692816734314
0.09999999747378752,2.7964067459106445,0.4263384938240051
0.10040000051958486,2.7960643768310547,0.4297071099281311
0.10080000356538221,2.7957191467285156,0.4330751597881317
0.10119999933522195,2.7953712940216064,0.43644261360168457
0.1016000023810193,2.795020818710327,0.43980950117111206
0.10199999815085903,2.7946677207946777,0.4431757926940918
0.10240000119665638,2.794311761856079,0.4465414881706238
0.10279999696649611,2.7939531803131104,0.4499065577983856
0.10320000001229346,2.7935919761657715,0.4532710611820221
0.1036000030580908,2.7932279109954834,0.4566349685192108
0.10399999882793054,2.7928614616394043,0.4599982500076294
0.10440000187372789,2.792491912841797,0.4633609354496002
0.10479999764356762,2.7921199798583984,0.4667229950428009
0.10520000068936497,2.791745185852051,0.47008442878723145
0.1055999964592047,2.791367769241333,0.47344526648521423
0.10599999950500205,2.790987730026245,0.4768054783344269
0.1064000025507994,2.790605068206787,0.4801650643348694
0.10679999832063913,2.79021954536438,0.48352402448654175
0.10720000136643648,2.7898313999176025,0.48688235878944397
0.10759999713627622,2.789440393447876,0.49024003744125366
0.10800000018207356,2.7890470027923584,0.4935970902442932
0.10840000322787091,2.7886507511138916,0.49695348739624023
0.10879999899771065,2.8555216789245605,0.5003435611724854
0.109200002043508,2.935120105743408,0.5038287043571472
0.10959999781334773,3.0147154331207275,0.5074101090431213
0.11000000085914508,3.0943081378936768,0.5110878944396973
0.11039999662898481,3.1738977432250977,0.5148619413375854
0.11079999967478216,3.2534842491149902,0.5187322497367859
0.1112000027205795,3.3330676555633545,0.5226988196372986
0.11159999849041924,3.3999178409576416,0.5267605185508728
0.11200000153621659,3.3994948863983154,0.5308557152748108
0.11239999730605632,3.399068593978882,0.5349501967430115
0.11280000035185367,3.398638963699341,0.5390440225601196
0.11320000339765102,3.3982059955596924,0.5431370735168457
0.11359999916749075,3.3977699279785156,0.5472294092178345
0.1140000022132881,3.3973305225372314,0.5513210296630859
0.11439999798312783,3.39688777923584,0.5554118752479553
0.11480000102892518,3.396441698074341,0.5595020651817322
0.11519999679876491,3.3959925174713135,0.5635914206504822
0.11559999984456226,3.3955399990081787,0.5676801204681396
0.11600000289035961,3.3950843811035156,0.5717679858207703
0.11639999866019934,3.394625186920166,0.5758551359176636
0.11680000170599669,3.394162893295288,0.5799415707588196
0.11719999747583643,3.3936972618103027,0.5840271711349487
0.11760000052163377,3.393228530883789,0.5881120562553406
0.11800000356743112,3.392756223678589,0.5921961665153503
0.11839999933727086,3.3922810554504395,0.596279501914978
0.1188000023830682,3.3918023109436035,0.6003620624542236
0.11919999815290794,3.3913204669952393,0.6044438481330872
0.11960000119870529,3.3908352851867676,0.6085247993469238
0.11999999696854502,3.3903467655181885,0.6126050353050232
0.12040000001434237,3.389855146408081,0.6166844367980957
0.12080000306013972,3.389360189437866,0.6207630634307861
0.12119999882997945,3.388861894607544,0.6248408555984497
0.1216000018757768,3.3883602619171143,0.6289178729057312
0.12199999764561653,3.3878555297851562,0.6329941153526306
0.12240000069141388,3.387347459793091,0.6370695233345032
0.12280000373721123,3.386836290359497,0.6411440968513489
0.12320000678300858,3.386321783065796,0.6452178359031677
0.1235999952768907,3.3858039379119873,0.6492908000946045
0.12399999832268804,3.3852827548980713,0.6533628702163696
0.12440000136848539,3.384758472442627,0.6574341654777527
0.12480000441428274,3.384230852127075,0.6615046262741089
0.12519999290816486,3.383700132369995,0.6655741930007935
0.1255999959539622,3.3831660747528076,0.669642984867096
0.12599999899975955,3.3826286792755127,0.6737108826637268
0.1264000020455569,3.3820881843566895,0.6777779459953308
0.12680000509135425,3.381544351577759,0.681844174861908
0.12719999358523637,3.3809971809387207,0.6859095096588135
0.12759999663103372,3.380446672439575,0.6899740099906921
0.12799999967683107,3.3798930644989014,0.6940376162528992
0.12840000272262841,3.393122911453247,0.698101818561554
0.12880000576842576,3.472562789916992,0.7022289037704468
0.12919999426230788,3.55199933052063,0.7064520716667175
0.12959999730810523,3.63143253326416,0.7107713222503662
0.13000000035390258,3.710862159729004,0.715186595916748
0.13040000339969993,3.790288209915161,0.7196979522705078
0.13080000644549727,3.8697104454040527,0.7243053913116455
0.1311999949393794,3.949129104614258,0.7290088534355164
0.13159999798517674,4.028543949127197,0.7338083386421204
0.1320000010309741,4.041741847991943,0.7386706471443176
0.13240000407677144,4.041148662567139,0.7435334324836731
0.1328000071225688,4.040552139282227,0.7483952641487122
0.1331999956164509,4.039951324462891,0.7532561421394348
0.13359999866224825,4.039346694946289,0.7581160664558411
0.1340000017080456,4.038738250732422,0.7629749774932861
0.13440000475384295,4.038125991821289,0.7678329348564148
0.13479999324772507,4.037509918212891,0.772689938545227
0.13519999629352242,4.036889553070068,0.7775459289550781
0.13559999933931977,4.036265850067139,0.782400906085968
0.1360000023851171,4.035637855529785,0.7872549295425415
0.13640000543091446,4.035006046295166,0.7921079397201538
0.13679999392479658,4.034370422363281,0.7969599366188049
0.13719999697059393,4.033730983734131,0.8018109798431396
0.13760000001639128,4.033087730407715,0.8066609501838684
0.13800000306218863,4.032440185546875,0.811509907245636
0.13840000610798597,4.031789302825928,0.8163578510284424
0.1387999946018681,4.031134128570557,0.8212047815322876
0.13919999764766544,4.03047513961792,0.8260506987571716
0.1396000006934628,4.029812335968018,0.8308955430984497
0.14000000373926014,4.02914571762085,0.8357393145561218
0.14040000678505749,4.028475284576416,0.8405820727348328
0.1407999952789396,4.027800559997559,0.8454238176345825
