time[s],iL[A],v out[V]
0.0,0.0,0.0
0.00040000000467443897,0.07999999076128006,4.8484060243936256e-05
0.0008000000093488779,0.15999989211559296,0.00019393306865822524
0.0012000000424450263,0.2399996519088745,0.0004363421758171171
0.0016000000186977559,0.31999915838241577,0.0007757064304314554
0.0019999999949504854,0.39999839663505554,0.0012120208702981472
0.0024000000848900527,0.4799972176551819,0.00174528022762388
0.0027999999474559445,0.5599955916404724,0.002375479321926832
0.0032000000373955118,0.6399933695793152,0.0031026131473481655
0.0035999998999614036,0.7199905514717102,0.003926675766706467
0.003999999989900971,0.7999870777130127,0.004847662057727575
0.004399999852466863,0.8799827694892883,0.005865566432476044
0.004800000169780105,0.9599776864051819,0.006980383303016424
0.005200000032345997,1.0399715900421143,0.008192106150090694
0.005599999894911889,1.1199644804000854,0.009500729851424694
0.006000000212225132,1.1999564170837402,0.010906248353421688
0.0064000000747910235,1.27994704246521,0.012408655136823654
0.006799999937356915,1.3599364757537842,0.01400794554501772
0.007199999799922807,1.4399245977401733,0.015704110264778137
0.00760000011723605,1.519911289215088,0.017497146502137184
0.007999999979801942,1.5998965501785278,0.01938704587519169
0.008400000297115184,1.6798802614212036,0.021373800933361053
0.008799999704933725,1.7598624229431152,0.02345740795135498
0.009200000022246968,1.8398427963256836,0.025637857615947723
0.00960000033956021,1.9198213815689087,0.027915144339203835
0.009999999747378752,1.999798059463501,0.030289260670542717
0.010400000064691994,2.07977294921875,0.032760199159383774
0.010800000382005237,2.159745693206787,0.03532795608043671
0.011199999789823778,2.2397162914276123,0.03799251839518547
0.01160000010713702,2.3196847438812256,0.04075388237833977
0.012000000424450263,2.399651050567627,0.0436120443046093
0.012399999832268804,2.4796149730682373,0.04656698927283287
0.012800000149582047,2.5595765113830566,0.049618713557720184
0.013199999557400588,2.639535665512085,0.05276720970869064
0.01359999987471383,2.719491958618164,0.05601246654987335
0.014000000192027073,2.799445867538452,0.05935448035597801
0.014399999599845614,2.87939715385437,0.06279324740171432
0.014799999917158857,2.9593453407287598,0.0663287490606308
0.0152000002344721,3.0392909049987793,0.06996098160743713
0.015600000551785342,3.1192333698272705,0.07368993759155273
0.015999999959603883,3.1991729736328125,0.077515609562397
0.016399999367422424,3.279109477996826,0.08143799006938934
0.01680000059423037,3.3590426445007324,0.08545706421136856
0.01720000000204891,3.4389727115631104,0.08957283198833466
0.01759999940986745,3.518899440765381,0.09378527849912643
0.018000000636675395,3.598822593688965,0.0980944037437439
0.018400000044493936,3.6787424087524414,0.10250018537044525
0.018799999452312477,3.7586586475372314,0.1070026233792305
0.01920000067912042,3.838571071624756,0.11160170286893845
0.019600000086938962,3.9184799194335938,0.11629742383956909
0.019999999494757503,3.998384952545166,0.12108977138996124
0.020400000721565448,4.078265190124512,0.12597870826721191
0.02080000012938399,4.158162593841553,0.1309642493724823
0.02119999953720253,4.23805570602417,0.1360463947057724
0.021600000764010474,4.317944526672363,0.14122512936592102
0.022000000171829015,4.397829532623291,0.14650045335292816
0.022399999579647556,4.477710247039795,0.15187233686447144
0.0228000008064555,4.557586669921875,0.15734077990055084
0.02320000021427404,4.637458324432373,0.1629057675600052
0.023599999622092582,4.7173261642456055,0.16856729984283447
0.024000000848900527,4.797188758850098,0.1743253618478775
0.024400000256719068,4.877047061920166,0.18017993867397308
0.02479999966453761,4.956900596618652,0.18613103032112122
0.025200000891345553,5.036749362945557,0.1921786069869995
0.025600000299164094,5.116592884063721,0.19832268357276917
0.025999999706982635,5.196431636810303,0.20456324517726898
0.026399999114801176,5.276265621185303,0.21090026199817657
0.02680000034160912,5.3560943603515625,0.21733373403549194
0.02719999974942766,5.435917854309082,0.2238636463880539
0.027599999157246202,5.515736103057861,0.23048999905586243
0.028000000384054147,5.5955491065979,0.23721277713775635
0.028399999791872688,5.675356388092041,0.24403196573257446
0.02879999919969123,5.755158424377441,0.2509475648403168
0.029200000426499173,5.834955215454102,0.2579595148563385
0.029599999834317714,5.914745807647705,0.2650678753852844
0.029999999242136255,5.994531154632568,0.27227258682250977
0.0304000004689442,6.074310302734375,0.2795736789703369
0.030800001695752144,6.154083728790283,0.2869710922241211
0.031200001103570685,6.233850955963135,0.2944648265838623
0.031600000511389226,6.313612461090088,0.30205488204956055
0.03199999991920777,6.393367767333984,0.3097412586212158
0.03239999932702631,6.473116874694824,0.31752392649650574
0.03279999873484485,6.552859783172607,0.3254028558731079
0.0332000017806422,6.632596015930176,0.3333780765533447
0.03360000118846074,6.7123260498046875,0.3414495587348938
0.03400000059627928,6.792049884796143,0.34961727261543274
0.03440000000409782,6.871766567230225,0.35788121819496155
0.03479999941191636,6.95147705078125,0.3662413954734802
0.0351999988197349,7.0311808586120605,0.3746977746486664
0.03559999822755344,7.110877513885498,0.38325035572052
0.03600000127335079,7.190567493438721,0.39189910888671875
0.03640000068116933,7.27025032043457,0.4006440043449402
0.03680000008898787,7.349926471710205,0.4094851016998291
0.03719999949680641,7.429595470428467,0.41842231154441833
0.037599998904624954,7.509256839752197,0.4274556636810303
0.037999998312443495,7.588911533355713,0.43658512830734253
0.03840000135824084,7.668558597564697,0.4458106756210327
0.038800000766059384,7.74819803237915,0.4551323354244232
0.039200000173877925,7.8278303146362305,0.46455004811286926
0.039599999581696466,7.907454967498779,0.47406384348869324
0.03999999898951501,7.987050533294678,0.48367366194725037
0.04039999839733355,7.999131679534912,0.4933322072029114
0.040800001443130895,8.078733444213867,0.5030521750450134
0.041200000850949436,8.158327102661133,0.5128682255744934
0.04160000025876798,8.23791217803955,0.5227802395820618
0.04199999966658652,8.317490577697754,0.5327882170677185
0.04239999907440506,8.397059440612793,0.5428921580314636
0.0427999984822236,8.476621627807617,0.5530920624732971
0.04320000152802095,8.556175231933594,0.563387930393219
0.04360000093583949,8.635720252990723,0.5737797021865845
0.04400000034365803,8.715256690979004,0.5842673778533936
0.04439999975147657,8.794785499572754,0.5948508977890015
0.04479999915929511,8.87430477142334,0.6055303812026978
0.04519999856711365,8.953816413879395,0.6163056492805481
0.045600001612911,9.033318519592285,0.627176821231842
0.04600000102072954,9.112812995910645,0.63814377784729
0.04640000042854808,9.19229793548584,0.6492065787315369
0.046799999836366624,9.271774291992188,0.6603651642799377
0.047199999244185165,9.351241111755371,0.6716195940971375
0.047599998652003706,9.430699348449707,0.6829697489738464
0.048000001697801054,9.510148048400879,0.6944156289100647
0.048400001105619594,9.589588165283203,0.705957293510437
0.048800000513438135,9.669018745422363,0.7175946831703186
0.049199999921256676,9.74843978881836,0.7293277382850647
0.04959999932907522,9.827852249145508,0.7411565184593201
0.04999999873689376,9.907254219055176,0.7530809640884399
0.050400001782691106,9.98664665222168,0.7651010751724243
0.05080000119050965,10.066030502319336,0.7772168517112732
0.05120000059832819,10.145403861999512,0.789428174495697
0.05160000000614673,10.224766731262207,0.8017351627349854
0.05199999941396527,10.304121017456055,0.8141377568244934
0.05239999882178381,10.383464813232422,0.8266358971595764
0.05279999822960235,10.462798118591309,0.8392296433448792
0.0532000012753997,10.542121887207031,0.8519188761711121
0.05360000068321824,10.621435165405273,0.8647036552429199
0.05400000009103678,10.700737953186035,0.8775839805603027
0.05439999949885532,10.780031204223633,0.890559732913971
0.054799998906673864,10.859313011169434,0.9036310315132141
0.055199998314492404,10.93858528137207,0.9167977571487427
0.05560000136028975,11.01784610748291,0.9300599098205566
0.05600000076810829,11.09709644317627,0.943417489528656
0.056400000175926834,11.176336288452148,0.956870436668396
0.056799999583745375,11.255565643310547,0.9704188108444214
0.057199998991563916,11.334783554077148,0.9840625524520874
0.05759999839938246,11.41399097442627,0.997801661491394
0.058000001445179805,11.49318790435791,1.0116361379623413
0.058400000852998346,11.572372436523438,1.0255658626556396
0.05880000026081689,11.651546478271484,1.039590835571289
0.05919999966863543,11.730709075927734,1.053711175918579
0.05959999907645397,11.809860229492188,1.0679267644882202
0.05999999848427251,11.82147216796875,1.0822030305862427
0.06040000153006986,11.820600509643555,1.0964787006378174
0.0608000009378884,11.819717407226562,1.1107527017593384
0.06120000034570694,11.81882381439209,1.1250249147415161
0.06160000339150429,11.817917823791504,1.1392953395843506
0.06199999916134402,11.817000389099121,1.1535638570785522
0.06240000220714137,11.816072463989258,1.1678307056427002
0.0627999979769811,11.815132141113281,1.1820956468582153
0.06320000102277845,11.814180374145508,1.1963587999343872
0.06359999679261819,11.813218116760254,1.2106200456619263
0.06399999983841553,11.812243461608887,1.224879503250122
0.06440000288421288,11.811258316040039,1.239137053489685
0.06479999865405262,11.810260772705078,1.2533926963806152
0.06520000169984996,11.809252738952637,1.2676464319229126
0.0655999974696897,11.808233261108398,1.2818982601165771
0.06600000051548705,11.807201385498047,1.2961481809616089
0.0664000035612844,11.806159019470215,1.3103960752487183
0.06679999933112413,11.805105209350586,1.3246420621871948
0.06720000237692147,11.80403995513916,1.3388861417770386
0.06759999814676121,11.802963256835938,1.3531280755996704
0.06800000119255856,11.801874160766602,1.3673681020736694
0.06839999696239829,11.800774574279785,1.381606101989746
0.06880000000819564,11.879119873046875,1.3958898782730103
0.06920000305399299,11.95799732208252,1.4102686643600464
0.06959999882383272,12.036863327026367,1.4247422218322754
0.07000000186963007,12.115717887878418,1.4393106698989868
0.0703999976394698,12.194561004638672,1.4539741277694702
0.07080000068526715,12.273391723632812,1.4687323570251465
0.07119999645510688,12.352210998535156,1.4835853576660156
0.07159999950090423,12.430473327636719,1.4985331296920776
0.07200000254670158,12.429268836975098,1.5135266780853271
0.07239999831654131,12.428051948547363,1.5285179615020752
0.07280000136233866,12.426823616027832,1.5435070991516113
0.0731999971321784,12.425582885742188,1.558493971824646
0.07360000017797574,12.42432975769043,1.5734785795211792
0.07400000322377309,12.423065185546875,1.588460922241211
0.07439999899361283,12.421788215637207,1.6034409999847412
0.07480000203941017,12.420499801635742,1.61841881275177
0.07519999780924991,12.419198989868164,1.6333943605422974
0.07560000085504726,12.417885780334473,1.6483676433563232
0.07599999662488699,12.416561126708984,1.663338541984558
0.07639999967068434,12.4152250289917,1.678307056427002
0.07680000271648169,12.413875579833984,1.6932733058929443
0.07719999848632142,12.412515640258789,1.7082371711730957
0.07760000153211877,12.41114330291748,1.7231985330581665
0.0779999973019585,12.409758567810059,1.7381576299667358
0.07840000034775585,12.408361434936523,1.7531142234802246
0.0788000033935532,12.406952857971191,1.768068552017212
0.07919999916339293,12.405532836914062,1.783020257949829
0.07960000220919028,12.40410041809082,1.7979695796966553
0.07999999797903001,12.402656555175781,1.8129165172576904
0.08040000102482736,12.401200294494629,1.827860951423645
0.0807999967946671,12.399731636047363,1.8428027629852295
0.08119999984046444,12.3982515335083,1.857742190361023
0.08160000288626179,12.396759986877441,1.8726789951324463
0.08199999865610152,12.395255088806152,1.887613296508789
0.08240000170189887,12.393739700317383,1.9025450944900513
0.0827999974717386,12.392210960388184,1.9174742698669434
0.08320000051753595,12.390671730041504,1.9324008226394653
0.0836000035633333,12.389119148254395,1.9473248720169067
0.08399999933317304,12.387556076049805,1.9622461795806885
0.08440000237897038,12.385979652404785,1.9771649837493896
0.08479999814881012,12.384392738342285,1.9920811653137207
0.08520000119460747,12.382792472839355,2.0069944858551025
0.0855999969644472,12.381180763244629,2.0219054222106934
0.08600000001024455,12.379557609558105,2.036813497543335
0.0864000030560419,12.377922058105469,2.0517189502716064
0.08679999882588163,12.376275062561035,2.0666215419769287
0.08720000187167898,12.374615669250488,2.081521511077881
0.08759999764151871,12.372944831848145,2.096418857574463
0.08800000068731606,12.371261596679688,2.1113133430480957
0.0883999964571558,12.369565963745117,2.1262049674987793
0.08879999950295314,12.367859840393066,2.1410939693450928
0.08920000254875049,12.366140365600586,2.155980110168457
0.08959999831859022,12.424591064453125,2.1708908081054688
0.09000000136438757,12.502848625183105,2.1858928203582764
0.0903999971342273,12.581093788146973,2.20098876953125
0.09080000018002465,12.639508247375488,2.2161760330200195
0.091200003225822,12.637728691101074,2.2313876152038574
0.09159999899566174,12.635937690734863,2.246596574783325
0.09200000204145908,12.634134292602539,2.2618024349212646
0.09239999781129882,12.632318496704102,2.277005434036255
0.09280000085709617,12.630491256713867,2.292205333709717
0.0931999966269359,12.62865161895752,2.3074026107788086
0.09359999967273325,12.626799583435059,2.322596549987793
0.0940000027185306,12.624935150146484,2.337787628173828
0.09439999848837033,12.623059272766113,2.352975845336914
0.09480000153416768,12.621170043945312,2.3681609630584717
0.09519999730400741,12.619269371032715,2.383342981338501
0.09560000034980476,12.61735725402832,2.398521900177002
0.09600000339560211,12.615431785583496,2.4136979579925537
0.09639999916544184,12.613494873046875,2.428870677947998
0.09680000221123919,12.61154556274414,2.444040536880493
0.09719999798107892,12.60958480834961,2.45920729637146
0.09760000102687627,12.607611656188965,2.4743707180023193
0.097999996796716,12.605626106262207,2.4895310401916504
0.09839999984251335,12.603628158569336,2.5046885013580322
0.0988000028883107,12.601617813110352,2.5198426246643066
0.09919999865815043,12.59959602355957,2.5349934101104736
0.09960000170394778,12.597561836242676,2.5501410961151123
0.09999999747378752,12.595516204833984,2.5652856826782227
0.10040000051958486,12.59345817565918,2.5804269313812256
0.10080000356538221,12.591387748718262,2.5955650806427
0.10119999933522195,12.58930492401123,2.6106998920440674
0.1016000023810193,12.587210655212402,2.625831365585327
0.10199999815085903,12.585103988647461,2.6409597396850586
0.10240000119665638,12.582984924316406,2.6560847759246826
0.10279999696649611,12.580854415893555,2.67120623588562
0.10320000001229346,12.578710556030273,2.6863245964050293
0.1036000030580908,12.576556205749512,2.701439619064331
0.10399999882793054,12.57438850402832,2.7165513038635254
0.10440000187372789,12.572209358215332,2.7316596508026123
0.10479999764356762,12.57001781463623,2.7467644214630127
0.10520000068936497,12.567814826965332,2.7618660926818848
0.1055999964592047,12.56559944152832,2.7769641876220703
0.10599999950500205,12.563371658325195,2.7920587062835693
0.1064000025507994,12.561131477355957,2.80715012550354
0.10679999832063913,12.558879852294922,2.822237730026245
0.10720000136643648,12.556615829467773,2.837322235107422
0.10759999713627622,12.554340362548828,2.852402925491333
0.10800000018207356,12.55205249786377,2.8674802780151367
0.10840000322787091,12.549752235412598,2.882554054260254
0.10879999899771065,12.547440528869629,2.8976244926452637
0.109200002043508,12.545116424560547,2.912691116333008
0.10959999781334773,12.581303596496582,2.9277656078338623
0.11000000085914508,12.658955574035645,2.942920446395874
0.11039999662898481,12.736595153808594,2.9581685066223145
0.11079999967478216,12.772746086120605,2.973497152328491
0.1112000027205795,12.77036190032959,2.98883318901062
0.11159999849041924,12.767964363098145,3.0041656494140625
0.11200000153621659,12.765554428100586,3.0194945335388184
0.11239999730605632,12.76313304901123,3.0348198413848877
0.11280000035185367,12.760699272155762,3.0501410961151123
0.11320000339765102,12.75825309753418,3.0654590129852295
0.11359999916749075,12.755794525146484,3.080773115158081
0.1140000022132881,12.753323554992676,3.096083402633667
0.11439999798312783,12.75084114074707,3.1113898754119873
0.11480000102892518,12.748345375061035,3.126692771911621
0.11519999679876491,12.745838165283203,3.1419918537139893
0.11559999984456226,12.743318557739258,3.157287120819092
0.11600000289035961,12.7407865524292,3.1725785732269287
0.11639999866019934,12.738242149353027,3.1878662109375
0.11680000170599669,12.735685348510742,3.2031500339508057
0.11719999747583643,12.73311710357666,3.2184300422668457
0.11760000052163377,12.730536460876465,3.233705997467041
0.11800000356743112,12.727943420410156,3.24897837638855
0.11839999933727086,12.725337982177734,3.264246702194214
0.1188000023830682,12.7227201461792,3.279510974884033
0.11919999815290794,12.720090866088867,3.294771671295166
0.11960000119870529,12.717449188232422,3.310028076171875
0.11999999696854502,12.714794158935547,3.3252809047698975
0.12040000001434237,12.712127685546875,3.340529680252075
0.12080000306013972,12.709449768066406,3.355774164199829
0.12119999882997945,12.706758499145508,3.3710148334503174
0.1216000018757768,12.704055786132812,3.38625168800354
0.12199999764561653,12.701340675354004,3.401484251022339
0.12240000069141388,12.698613166809082,3.416712999343872
0.12280000373721123,12.695874214172363,3.4319374561309814
0.12320000678300858,12.693121910095215,3.447158098220825
0.1235999952768907,12.69035816192627,3.462374448776245
0.12399999832268804,12.687582015991211,3.4775867462158203
0.12440000136848539,12.684794425964355,3.492794990539551
0.12480000441428274,12.68199348449707,3.5079989433288574
0.12519999290816486,12.679181098937988,3.5231990814208984
0.1255999959539622,12.67635726928711,3.5383949279785156
0.12599999899975955,12.6735200881958,3.553586483001709
0.1264000020455569,12.670671463012695,3.5687739849090576
0.12680000509135425,12.667810440063477,3.5839571952819824
0.12719999358523637,12.664937019348145,3.5991361141204834
0.12759999663103372,12.6620512008667,3.6143109798431396
0.12799999967683107,12.659153938293457,3.629481554031372
0.12840000272262841,12.656244277954102,3.6446478366851807
0.12880000576842576,12.653322219848633,3.6598100662231445
0.12919999426230788,12.650388717651367,3.6749677658081055
0.12959999730810523,12.679855346679688,3.690129280090332
0.13000000035390258,12.756897926330566,3.7053661346435547
0.13040000339969993,12.833927154541016,3.720695734024048
0.13080000644549727,12.863357543945312,3.736100673675537
0.1311999949393794,12.860363006591797,3.751509428024292
0.13159999798517674,12.857355117797852,3.766913652420044
0.1320000010309741,12.85433578491211,3.782313346862793
0.13240000407677144,12.851303100585938,3.797708749771118
0.1328000071225688,12.848258972167969,3.8130998611450195
0.1331999956164509,12.845202445983887,3.828486442565918
0.13359999866224825,12.842133522033691,3.8438684940338135
0.1340000017080456,12.839052200317383,3.859246015548706
0.13440000475384295,12.835958480834961,3.874619245529175
0.13479999324772507,12.832853317260742,3.8899877071380615
0.13519999629352242,12.829734802246094,3.9053518772125244
0.13559999933931977,12.826604843139648,3.9207115173339844
0.1360000023851171,12.823461532592773,3.9360663890838623
0.13640000543091446,12.820306777954102,3.9514169692993164
0.13679999392479658,12.817139625549316,3.9667627811431885
0.13719999697059393,12.813960075378418,3.9821040630340576
0.13760000001639128,12.810768127441406,3.997440814971924
0.13800000306218863,12.807563781738281,4.012773036956787
